(1547753403.715009) can0 18EEFF47#4D74300400340220
(1547753403.715583) can0 18EEFF06#4D743004000E0020
(1547753403.716182) can0 18EEFF03#4D74300400030220
(1547753403.748464) can0 18EEFF00#56F5290400000220
(1547753403.750690) can0 0CF00400#F0FF000000FFFFFF
(1547753403.751042) can0 18EAFF00#00EE00
(1547753403.760618) can0 0CF00300#FF0000FF00FFFFFF
(1547753403.761141) can0 0CEFFF00#6406007DFFFFFFFF
(1547753403.761740) can0 18FEF200#0000FFFFFFFFFFFF
(1547753403.770817) can0 0CF00400#F0FF7D0000FFFFFF
(1547753403.780696) can0 0CF00300#FF0000FF08FFFFFF
(1547753403.781268) can0 0CEFFF00#6406007DFFFFFFFF
(1547753403.781844) can0 18EF0600#640E0302FFFFFFFF
(1547753403.786622) can0 18EEFF17#0C6E240400130220
(1547753403.790747) can0 0CF00400#F0FF7D0000FFFFFF
(1547753403.800724) can0 0CF00300#FF0000FF08FFFFFF
(1547753403.801324) can0 0CEFFF00#6406007DFFFFFFFF
(1547753403.801872) can0 18EFFF00#64100B0B0000007D
(1547753403.802471) can0 18FEDF00#7D561DFFFFFFFFFF
(1547753403.803023) can0 1CECFF00#20220005FFE3FE00
(1547753403.810752) can0 0CF00400#F0FF7D0000FFFFFF
(1547753403.820727) can0 0CF00300#FF0000FF08FFFFFF
(1547753403.821279) can0 0CEFFF00#6406007DFFFFFFFF
(1547753403.821848) can0 18FEEF00#FFFFFFFEFFFFFFFA
(1547753403.830721) can0 0CF00400#F0FF7D0000FFFFFF
(1547753403.840731) can0 0CF00300#FF0000FF08FFFFFF
(1547753403.841304) can0 0CEFFF00#6406007DFFFFFFFF
(1547753403.850786) can0 0CF00400#F0FF7D0000FFFFFF
(1547753403.853909) can0 1CEBFF00#01201CDD6842DCA0
(1547753403.860737) can0 0CF00300#FF0000FF08FFFFFF
(1547753403.861311) can0 0CEFFF00#6406007DFFFFFFFF
(1547753403.861912) can0 18FEF200#0000FFFFFFFFFFFF
(1547753403.870788) can0 0CF00400#F0FF7D0000FFFFFF
(1547753403.880738) can0 0CF00300#FF0000FF08FFFFFF
(1547753403.881267) can0 0CEFFF00#6406007DFFFFFFFF
(1547753403.881861) can0 18EF0600#640E0D02FFFFFFFF
(1547753403.890766) can0 0CF00400#F0FF7D0000FFFFFF
(1547753403.900742) can0 0CF00300#FF0000FF08FFFFFF
(1547753403.901316) can0 0CEFFF00#6406007DFFFFFFFF
(1547753403.901892) can0 18EFFF00#64100B0B0000007D
(1547753403.902468) can0 18FEF600#FF004CFF00FFFFFF
(1547753403.902997) can0 1CEBFF00#020FD58D20E37A31
(1547753403.910787) can0 0CF00400#F0FF7D0000FFFFFF
(1547753403.920749) can0 18EFFA00#6401FF0000FFFFFF
(1547753403.921319) can0 0CEFFF00#6406007DFFFFFFFF
(1547753403.921897) can0 0CF00300#FF0000FF08FFFFFF
(1547753403.930798) can0 0CF00400#F0FF7D0000FFFFFF
(1547753403.940750) can0 0CF00300#FF0000FF08FFFFFF
(1547753403.941348) can0 0CEFFF00#6406007DFFFFFFFF
(1547753403.950831) can0 0CF00400#F0FF7D0000FFFFFF
(1547753403.954001) can0 1CEBFF00#03F1C044FFFF0401
(1547753403.960782) can0 0CF00300#FF0000FF08FFFFFF
(1547753403.961375) can0 0CEFFF00#6406007DFFFFFFFF
(1547753403.961955) can0 18FEF200#0000FFFFFFFFFFFF
(1547753403.970806) can0 0CF00400#F0FF7D0000FFFFFF
(1547753403.976407) can0 0DEF0603#0101FFFFFFFFFFF5
(1547753403.976958) can0 04EF0006#641510F00000BF0E
(1547753403.977554) can0 0C000006#30FFFFFFF8FFFFFF
(1547753403.980782) can0 0CF00300#FF0000FF08FFFFFF
(1547753403.981355) can0 0CEFFF00#6406007DFFFFFFFF
(1547753403.981934) can0 18EF0600#640E1706FFFFFFFF
(1547753403.990767) can0 0CF00400#F0FF7D0000FFFFFF
(1547753403.996261) can0 0DEF0647#0104FFFFFFFFFFF1
(1547753403.996860) can0 0DEF0603#0101FFFFFFFFFFF5
(1547753403.997452) can0 04EF0006#641510F00000BF0E
(1547753403.998045) can0 0CFFFE06#5C7F1D7F1DFFFFFF
(1547753403.998666) can0 18FFFB06#00057DF8FFFFFFFF
(1547753403.999002) can0 18EAFF47#00EE00
(1547753404.000782) can0 0CF00300#FF0000FF08FFFFFF
(1547753404.001395) can0 0CEFFF00#6406007DFFFFFFFF
(1547753404.001924) can0 18EEFF00#56F5290400000220
(1547753404.002508) can0 18EFFF00#64100B0B0000007D
(1547753404.003113) can0 18EEFF00#56F5290400000220
(1547753404.003691) can0 1CEBFF00#04204E0001FAC9FA
(1547753404.010782) can0 0CF00400#F0FF7D0000FFFFFF
(1547753404.016405) can0 0DEF0603#0101FFFFFFFFFFF5
(1547753404.016949) can0 04EF0006#641510F00000BF0E
(1547753404.020723) can0 0CF00300#FF0000FF08FFFFFF
(1547753404.021344) can0 0CEFFF00#6406007DFFFFFFFF
(1547753404.021915) can0 18FEEE00#4A43FFFFFFFFFFFF
(1547753404.030815) can0 0CF00400#F0FF7D0000FFFFFF
(1547753404.036417) can0 0DEF0603#0101FFFFFFFFFFF5
(1547753404.036993) can0 04EF0006#641510F00000BF0E
(1547753404.037565) can0 0CFE4947#FFFFFFFFFFFFFFFF
(1547753404.038142) can0 0CFE4347#FFFFFFFFFFFFFFFF
(1547753404.038767) can0 0CFE4447#0000FFFF3FFFFFFF
(1547753404.040796) can0 0CF00300#FF0000FF08FFFFFF
(1547753404.041366) can0 0CEFFF00#6406007DFFFFFFFF
(1547753404.050800) can0 0CF00400#F0FF7D0000FFFFFF
(1547753404.051366) can0 18FEDF00#7D7E1DFFFFFFFFFF
(1547753404.054106) can0 1CEBFF00#05C05D0000FFFFFF
(1547753404.056419) can0 0DEF0603#0101FFFFFFFFFFF5
(1547753404.056968) can0 04EF0006#641510F00000BF0E
(1547753404.060821) can0 0CF00300#FF0000FF08FFFFFF
(1547753404.061392) can0 0CEFFF00#6406007DFFFFFFFF
(1547753404.061970) can0 18FEF200#0000FFFFFFFFFFFF
(1547753404.067221) can0 18EAFF17#00EE00
(1547753404.070824) can0 0CF00400#F0FF7D0000FFFFFF
(1547753404.076423) can0 0DEF0603#0101FFFFFFFFFFF5
(1547753404.076973) can0 04EF0006#641510F00000BF0E
(1547753404.077545) can0 18FEF147#FF0000FFFFFFFFFF
(1547753404.078126) can0 18F00503#FFFFFFFFFFFFFFFF
(1547753404.080775) can0 0CF00300#FF0000FF08FFFFFF
(1547753404.081348) can0 0CEFFF00#6406007DFFFFFFFF
(1547753404.081902) can0 18EF0600#640E2100FFFFFFFF
(1547753404.087326) can0 1CFFFF17#22FFFF3CFFFFFFFF
(1547753404.090826) can0 0CF00400#F0FF7D0000FFFFFF
(1547753404.096327) can0 0DEF0647#0104FFFFFFFFFFF1
(1547753404.096926) can0 0DEF0603#0101FFFFFFFFFFF5
(1547753404.097499) can0 04EF0006#641510F00000BF0E
(1547753404.100778) can0 0CF00300#FF0000FF08FFFFFF
(1547753404.101350) can0 0CEFFF00#6406007DFFFFFFFF
(1547753404.101928) can0 18EFFF00#64100B0B0000007D
(1547753404.102501) can0 18FEF700#FFFFFFFFFFFFFA00
(1547753404.103077) can0 18EEFF00#56F5290400000220
(1547753404.110817) can0 0CF00400#F0FF7D0000FFFFFF
(1547753404.116418) can0 0DEF0603#0101FFFFFFFFFFF5
(1547753404.116979) can0 04EF0006#641510F00000BF0E
(1547753404.117554) can0 0CFE4947#FFFFFFFFFFFFFFFF
(1547753404.118143) can0 0CFE4347#FFFFFFFFFFFFFFFF
(1547753404.118742) can0 0CFE4447#0000FFFF3FFFFFFF
(1547753404.119354) can0 0CFFFE06#5C7F1D7F1DFFFFFF
(1547753404.120781) can0 0CF00300#FF0000FF08FFFFFF
(1547753404.121354) can0 0CEFFF00#6406007DFFFFFFFF
(1547753404.130810) can0 0CF00400#F0FF7D0000FFFFFF
(1547753404.136410) can0 0DEF0603#0101FFFFFFFFFFF5
(1547753404.136984) can0 04EF0006#641510F00000BF0E
(1547753404.140812) can0 0CF00300#FF0000FF08FFFFFF
(1547753404.141384) can0 0CEFFF00#6406007DFFFFFFFF
(1547753404.150834) can0 0CF00400#F0FF7D0000FFFFFF
(1547753404.155089) can0 18EEFF47#4D74300400340220
(1547753404.155663) can0 18EEFF06#4D743004000E0020
(1547753404.156235) can0 18EEFF03#4D74300400030220
(1547753404.156814) can0 0DEF0603#0101FFFFFFFFFFF5
(1547753404.157387) can0 04EF0006#641510F00000BF0E
(1547753404.157964) can0 18FEF147#FF0000FFFFFFFFFF
(1547753404.158548) can0 18F00503#FFFFFFFFFFFFFFFF
(1547753404.160775) can0 0CF00300#FF0000FF08FFFFFF
(1547753404.161373) can0 0CEFFF00#6406007DFFFFFFFF
(1547753404.161952) can0 18FEF200#0000FFFFFFFFFFFF
(1547753404.170842) can0 0CF00400#F0FF7D0000FFFFFF
(1547753404.176443) can0 0DEF0603#0101FFFFFFFFFFF5
(1547753404.176992) can0 04EF0006#641510F00000BF0E
(1547753404.180769) can0 0CF00300#FF0000FF08FFFFFF
(1547753404.181366) can0 0CEFFF00#6406007DFFFFFFFF
(1547753404.181915) can0 18EF0600#640E2B00FFFFFFFF
(1547753404.187268) can0 18EA0017#09FF00
(1547753404.190818) can0 0CF00400#F0FF7D0000FFFFFF
(1547753404.196319) can0 0DEF0647#0104FFFFFFFFFFF1
(1547753404.196944) can0 0DEF0603#0101FFFFFFFFFFF5
(1547753404.197492) can0 04EF0006#641510F00000BF0E
(1547753404.198044) can0 0CFFFE06#5C7F1D7F1DFFFFFF
(1547753404.200795) can0 0CF00300#FF0000FF08FFFFFF
(1547753404.201368) can0 0CEFFF00#6406007DFFFFFFFF
(1547753404.201909) can0 18EFFF00#64100B0B0000007D
(1547753404.202519) can0 18FED500#FFFFFCFFFFFFFFFF
(1547753404.203096) can0 18FF0900#454355FFFFFFFFFF
(1547753404.210847) can0 0CF00400#F0FF7D0000FFFFFF
(1547753404.216450) can0 0DEF0603#0101FFFFFFFFFFF5
(1547753404.216998) can0 04EF0006#641510F00000BF0E
(1547753404.220774) can0 0CF00300#FF0000FF08FFFFFF
(1547753404.221372) can0 0CEFFF00#6406007DFFFFFFFF
(1547753404.230827) can0 0CF00400#F0FF7D0000FFFFFF
(1547753404.236453) can0 0DEF0603#0101FFFFFFFFFFF5
(1547753404.237002) can0 04EF0006#641510F00000BF0E
(1547753404.237576) can0 0CFE4947#FFFFFFFFFFFFFFFF
(1547753404.238177) can0 0CFE4347#FFFFFFFFFFFFFFFF
(1547753404.238776) can0 0CFE4447#0000FFFF3FFFFFFF
(1547753404.240827) can0 0CF00300#FF0000FF08FFFFFF
(1547753404.241401) can0 0CEFFF00#6406007DFFFFFFFF
(1547753404.241979) can0 18FDB300#FFFF5427FFFFFFFF
(1547753404.250842) can0 0CF00400#F0FF7D0000FFFFFF
(1547753404.256443) can0 0DEF0603#0101FFFFFFFFFFF5
(1547753404.256980) can0 04EF0006#641510F00000BF0E
(1547753404.260832) can0 0CF00300#FF0000FF08FFFFFF
(1547753404.261403) can0 0CEFFF00#6406007DFFFFFFFF
(1547753404.261981) can0 18FEF200#0000FFFFFFFFFFFF
(1547753404.270834) can0 0CF00400#F0FF7D0000FFFFFF
(1547753404.276460) can0 0DEF0603#0101FFFFFFFFFFF5
(1547753404.277009) can0 04EF0006#641510F00000BF0E
(1547753404.277583) can0 18FEF147#FF0000FFFFFFFFFF
(1547753404.278184) can0 18F00503#FFFFFFFFFFFFFFFF
(1547753404.280810) can0 0CF00300#FF0000FF08FFFFFF
(1547753404.281408) can0 0CEFFF00#6406007DFFFFFFFF
(1547753404.281960) can0 18EF0600#640E3500FFFFFFFF
(1547753404.290862) can0 0CF00400#F0FF7D0000FFFFFF
(1547753404.296364) can0 0DEF0647#0104FFFFFFFFFFF1
(1547753404.296964) can0 0DEF0603#0101FFFFFFFFFFF5
(1547753404.297485) can0 04EF0006#641510F00000BF0E
(1547753404.300814) can0 0CF00300#FF0000FF08FFFFFF
(1547753404.301388) can0 0CEFFF00#6406007DFFFFFFFF
(1547753404.301936) can0 18EFFF00#64100B0B0000007D
(1547753404.302517) can0 18FEDF00#7D7E1DFFFFFFFFFF
(1547753404.310830) can0 0CF00400#F0FF7D0000FFFFFF
(1547753404.316703) can0 0DEF0603#0101FFFFFFFFFFF5
(1547753404.317250) can0 04EF0006#641510F00000BF0E
(1547753404.317828) can0 0CFE4947#FFFFFFFFFFFFFFFF
(1547753404.318427) can0 0CFFFF47#5DFFFFF3FFFFFFFF
(1547753404.319029) can0 0CFE4347#0000FFFF3FFFFFFF
(1547753404.319654) can0 0CFE4447#0000FFFF3FFFFFFF
(1547753404.320227) can0 0CFFFE06#5C7F1D7F1DFFFFFF
(1547753404.320829) can0 0CF00300#FF0000FF08FFFFFF
(1547753404.321401) can0 0CEFFF00#6406007DFFFFFFFF
(1547753404.321979) can0 18FEEF00#FFFFFF00FFFFFFFA
(1547753404.330807) can0 0CF00400#F0FF7D0000FFFFFF
(1547753404.336693) can0 0DEF0603#0101FFFFFFFFFFF5
(1547753404.337245) can0 04EF0006#641510F00000BF0E
(1547753404.340798) can0 0CF00300#FF0000FF08FFFFFF
(1547753404.341371) can0 0CEFFF00#6406007DFFFFFFFF
(1547753404.347323) can0 18EA4717#09FF00
(1547753404.347721) can0 18EA0617#09FF00
(1547753404.348119) can0 18EA0317#09FF00
(1547753404.350902) can0 0CF00400#F0FF7D0000FFFFFF
(1547753404.356751) can0 0DEF0603#0101FFFFFFFFFFF5
(1547753404.357322) can0 04EF0006#641511F00000BF0E
(1547753404.357901) can0 18FF0947#434355FFFFFFFFFF
(1547753404.358501) can0 18FF0906#454943FFFFFFFFFF
(1547753404.359075) can0 18FF0903#505452FFFFFFFFFF
(1547753404.359677) can0 18FEF147#FF0000FFFFFFFFFF
(1547753404.360243) can0 18F00503#7DFFFFFFFFFFFFFF
(1547753404.360893) can0 0CF00300#FF0000FF08FFFFFF
(1547753404.361463) can0 0CEFFF00#6406007DFFFFFFFF
(1547753404.362047) can0 18FEF200#0000FFFFFFFFFFFF
(1547753404.370881) can0 0CF00400#F0FF7D0000FFFFFF
(1547753404.376757) can0 0DEF0603#0101FFFFFFFFFFF5
(1547753404.377326) can0 04EF0006#641512F00000BF0E
(1547753404.380854) can0 0CF00300#FF0000FF08FFFFFF
(1547753404.381428) can0 0CEFFF00#6406007DFFFFFFFF
(1547753404.382008) can0 18EF0600#640E3F00FFFFFFFF
(1547753404.390909) can0 0CF00400#F0FF7D0000FFFFFF
(1547753404.396461) can0 0DEF0647#0104FFFFFFFFFFF1
(1547753404.397058) can0 0DEF0603#0101FFFFFFFFFFF5
(1547753404.397606) can0 04EF0006#641513F00000BF0E
(1547753404.398136) can0 0CFFFE06#5C7F1D7F1DFFFFFF
(1547753404.398757) can0 18FFFF06#73FFFFFFFFFFFFFF
(1547753404.400817) can0 0CF00300#FF0000FF08FFFFFF
(1547753404.401430) can0 0CEFFF00#6406007DFFFFFFFF
(1547753404.401988) can0 18EEFF17#0C6E240400130220
(1547753404.402549) can0 18EFFF00#64100B0B0000007D
(1547753404.403126) can0 18FEF600#FF0048FF00FFFFFF
(1547753404.410909) can0 0CF00400#F0FF7D0000FFFFFF
(1547753404.416715) can0 0DEF0603#0101FFFFFFFFFFF5
(1547753404.417333) can0 04EF0006#641514F00000BF0E
(1547753404.420861) can0 0CF00300#FF0000FF08FFFFFF
(1547753404.421435) can0 0CEFFF00#6406007DFFFFFFFF
(1547753404.430938) can0 0CF00400#F0FF7D0000FFFFFF
(1547753404.436764) can0 0DEF0603#0101FFFFFFFFFFF5
(1547753404.437338) can0 04EF0006#641515F00000BF0E
(1547753404.437887) can0 0CFE4947#FFFFFFFFFFFFFFFF
(1547753404.438492) can0 1CFDDF47#FCFFFFFFFFFFFFFF
(1547753404.439089) can0 0CFE4347#0000FFFF3FFFFFFF
(1547753404.439689) can0 0CFE4447#0000FFFF3FFFFFFF
(1547753404.440890) can0 0CF00300#FF0000FF08FFFFFF
(1547753404.441490) can0 0CEFFF00#6406007DFFFFFFFF
(1547753404.450886) can0 0CF00400#F0FF7D0000FFFFFF
(1547753404.451450) can0 18FFFA00#022C0000180C0000
(1547753404.456772) can0 0DEF0603#0101FFFFFFFFFFF5
(1547753404.457341) can0 04EF0006#641516F00000BF0E
(1547753404.460918) can0 0CF00300#FF0000FF08FFFFFF
(1547753404.461518) can0 0CEFFF00#6406007DFFFFFFFF
(1547753404.462096) can0 18FEF200#0000FFFFFFFFFFFF
(1547753404.470947) can0 0CF00400#F0FF7D0000FFFFFF
(1547753404.476774) can0 0DEF0603#0101FFFFFFFFFFF5
(1547753404.477344) can0 04EF0006#641517F00000BF0E
(1547753404.477923) can0 18FEF147#FF0000FFFFFFFFFF
(1547753404.478522) can0 18F00647#FFCFFFFFFFFFFFFF
(1547753404.479123) can0 18F00503#7DFFFFFFFFFFFFFF
(1547753404.480842) can0 0CF00300#FF0000FF08FFFFFF
(1547753404.481453) can0 0CEFFF00#6406007DFFFFFFFF
(1547753404.482026) can0 18EF0600#640E4900FFFFFFFF
(1547753404.482580) can0 18FEF500#C8FFFFFFFF40FFFF
(1547753404.490894) can0 0CF00400#F0FF7D0000FFFFFF
(1547753404.496434) can0 0DEF0647#0104FFFFFFFFFFF1
(1547753404.497077) can0 0DEF0603#0101FFFFFFFFFFF5
(1547753404.497624) can0 04EF0006#641518F00000BF0E
(1547753404.500879) can0 0CF00300#FF0000FF08FFFFFF
(1547753404.501448) can0 0CEFFF00#6406007DFFFFFFFF
(1547753404.502028) can0 18EFFF00#64100B0B0000007D
(1547753404.510910) can0 0CF00400#F0FF7D0000FFFFFF
(1547753404.516806) can0 0DEF0603#0101FFFFFFFFFFF5
(1547753404.517352) can0 04EF0006#641519F00000BF0E
(1547753404.517934) can0 0CFE4947#FFFFFFFFFFFFFFFF
(1547753404.518529) can0 0CFE4347#0000FFFF3FFFFFFF
(1547753404.519130) can0 0CFE4447#0000FFFF3FFFFFFF
(1547753404.519699) can0 0CFFFE06#5C7F1D7F1DFFFFFF
(1547753404.520874) can0 0CF00300#FF0000FF08FFFFFF
(1547753404.521484) can0 0CEFFF00#6406007DFFFFFFFF
(1547753404.522025) can0 18FE6900#16267026FFFF60FE
(1547753404.530928) can0 0CF00400#F0FF7D0000FFFFFF
(1547753404.536778) can0 0DEF0603#0101FFFFFFFFFFF5
(1547753404.537362) can0 04EF0006#64151AF00000BF0E
(1547753404.540909) can0 0CF00300#FF0000FF08FFFFFF
(1547753404.541507) can0 0CEFFF00#6406007DFFFFFFFF
(1547753404.550909) can0 0CF00400#F0FF7D0000FFFFFF
(1547753404.551509) can0 18FEDF00#7D7E1DFFFFFFFFFF
(1547753404.556815) can0 0DEF0603#0101FFFFFFFFFFF5
(1547753404.557387) can0 04EF0006#64151BF00000BF0E
(1547753404.557963) can0 18FEF147#FF0000FFFFFFFFFF
(1547753404.558561) can0 18F00503#7DFFFFFFFFFFFFFF
(1547753404.560913) can0 0CF00300#FF0000FF08FFFFFF
(1547753404.561488) can0 0CEFFF00#6406007DFFFFFFFF
(1547753404.562089) can0 18FEF200#0000FFFFFFFFFFFF
(1547753404.570907) can0 0CF00400#F0FF7D0000FFFFFF
(1547753404.576789) can0 0DEF0603#0101FFFFFFFFFFF5
(1547753404.577361) can0 04EF0006#64151CF00000BF0E
(1547753404.580891) can0 0CF00300#FF0000FF08FFFFFF
(1547753404.581489) can0 0CEFFF00#6406007DFFFFFFFF
(1547753404.582043) can0 18EF0600#640E5300FFFFFFFF
(1547753404.590941) can0 0CF00400#F0FF7D0000FFFFFF
(1547753404.596497) can0 0DEF0647#0104FFFFFFFFFFF1
(1547753404.597095) can0 0DEF0603#0101FFFFFFFFFFF5
(1547753404.597668) can0 04EF0006#64151DF00000BF0E
(1547753404.598221) can0 0CFFFE06#5C7F1D7F1DFFFFFF
(1547753404.599844) can0 18FECA06#00FF00000000FFFF
(1547753404.600918) can0 0CF00300#FF0000FF08FFFFFF
(1547753404.601517) can0 0CEFFF00#6406007DFFFFFFFF
(1547753404.602072) can0 18EFFF00#64100B0B0000007D
(1547753404.602668) can0 18FECA47#00FF00000000FFFF
(1547753404.603236) can0 18FECA03#00FF00000000FFFF
(1547753404.610939) can0 0CF00400#F0FF7D0000FFFFFF
(1547753404.616826) can0 0DEF0603#0101FFFFFFFFFFF5
(1547753404.617370) can0 04EF0006#64151EF00000BF0E
(1547753404.620901) can0 0CF00300#FF0000FF08FFFFFF
(1547753404.621472) can0 0CEFFF00#6406007DFFFFFFFF
(1547753404.630976) can0 0CF00400#F0FF7D0000FFFFFF
(1547753404.636829) can0 0DEF0603#0101FFFFFFFFFFF5
(1547753404.637400) can0 04EF0006#64151FF00000BF0E
(1547753404.637951) can0 0CFE4947#FFFFFFFFFFFFFFFF
(1547753404.638575) can0 0CFE4347#0000FFFF3FFFFFFF
(1547753404.639151) can0 0CFE4447#0000FFFF3FFFFFFF
(1547753404.640926) can0 0CF00300#FF0000FF08FFFFFF
(1547753404.641500) can0 0CEFFF00#6406007DFFFFFFFF
(1547753404.642053) can0 18FD7C00#F880F0F000CF03FC
(1547753404.650947) can0 0CF00400#F0FF7D0000FFFFFF
(1547753404.656775) can0 0DEF0603#0101FFFFFFFFFFF5
(1547753404.657360) can0 04EF0006#641510F00000BF0E
(1547753404.660955) can0 0CF00300#FF0000FF08FFFFFF
(1547753404.661500) can0 0CEFFF00#6406007DFFFFFFFF
(1547753404.662130) can0 18FEF200#0000FFFFFFFFFFFF
(1547753404.668931) can0 18FECA17#00FF00000000FFFF
(1547753404.670959) can0 0CF00400#F0FF7D0000FFFFFF
(1547753404.676836) can0 0DEF0603#0101FFFFFFFFFFF5
(1547753404.677382) can0 04EF0006#641511F00000BF0E
(1547753404.677961) can0 18FEF147#FF0000FFFFFFFFFF
(1547753404.678558) can0 18F00503#7DFFFFFFFFFFFFFF
(1547753404.680904) can0 0CF00300#FF0000FF08FFFFFF
(1547753404.681480) can0 0CEFFF00#6406007DFFFFFFFF
(1547753404.682059) can0 18EF0600#640E5D00FFFFFFFF
(1547753404.690962) can0 0CF00400#F0FF7D0000FFFFFF
(1547753404.696538) can0 0DEF0647#0104FFFFFFFFFFF1
(1547753404.697112) can0 0DEF0603#0101FFFFFFFFFFF5
(1547753404.697686) can0 04EF0006#641512F00000BF0E
(1547753404.700915) can0 0CF00300#FF0000FF08FFFFFF
(1547753404.701510) can0 0CEFFF00#6406007DFFFFFFFF
(1547753404.702047) can0 18EFFF00#64100B0B0000007D
(1547753404.710966) can0 0CF00400#F0FF7D0000FFFFFF
(1547753404.716067) can0 18EAFF06#E5FE00
(1547753404.717040) can0 0DEF0603#0101FFFFFFFFFFF5
(1547753404.717590) can0 04EF0006#641513F00000BF0E
(1547753404.718167) can0 0CFE4947#FFFFFFFFFFFFFFFF
(1547753404.718739) can0 18FEE706#C80A0000FFFFFFFF
(1547753404.719315) can0 0CFE4347#0000FFFF3FFFFFFF
(1547753404.719918) can0 0CFE4447#0000FFFF3FFFFFFF
(1547753404.720513) can0 0CFFFE06#5C7F1D7F1DFFFFFF
(1547753404.721049) can0 0CF00300#FF0000FF08FFFFFF
(1547753404.721634) can0 0CEFFF00#6406007DFFFFFFFF
(1547753404.730938) can0 0CF00400#F0FF7D0000FFFFFF
(1547753404.736939) can0 0DEF0603#0101FFFFFFFFFFF5
(1547753404.737525) can0 04EF0006#641514F00000BF0E
(1547753404.740889) can0 0CF00300#FF0000FF08FFFFFF
(1547753404.741498) can0 0CEFFF00#6406007DFFFFFFFF
(1547753404.742097) can0 18FDB300#FFFF5427FFFFFFFF
(1547753404.742669) can0 1CEFFF00#64070000FFFFFFFF
(1547753404.747623) can0 1CFFFF17#22FFFF3CFFFFFFFF
(1547753404.748020) can0 18EA0017#E5FE00
(1547753404.750999) can0 0CF00400#F0FF7D0000FFFFFF
(1547753404.754296) can0 18FEE500#CB0A0000FFFFFFFF
(1547753404.754872) can0 18FEE500#CB0A0000FFFFFFFF
(1547753404.756974) can0 0DEF0603#0101FFFFFFFFFFF5
(1547753404.757547) can0 04EF0006#641515F00000BF0E
(1547753404.758127) can0 18FEF147#FF0000FFFFFFFFFF
(1547753404.758724) can0 18F00503#7DFFFFFFFFFFFFFF
(1547753404.760975) can0 0CF00300#FF0000FF08FFFFFF
(1547753404.761575) can0 0CEFFF00#6406007DFFFFFFFF
(1547753404.762152) can0 18FEF200#0000FFFFFFFFFFFF
(1547753404.770944) can0 0CF00400#F0FF7D0000FFFFFF
(1547753404.776978) can0 0DEF0603#0101FFFFFFFFFFF5
(1547753404.777525) can0 04EF0006#641516F00000BF0E
(1547753404.780955) can0 0CF00300#FF0000FF08FFFFFF
(1547753404.781525) can0 0CEFFF00#6406007DFFFFFFFF
(1547753404.782104) can0 18EF0600#640E6700FFFFFFFF
(1547753404.790982) can0 0CF00400#F0FF7D0000FFFFFF
(1547753404.796557) can0 0DEF0647#0104FFFFFFFFFFF1
(1547753404.797205) can0 0DEF0603#0101FFFFFFFFFFF5
(1547753404.797805) can0 04EF0006#641517F00000BF0E
(1547753404.798354) can0 0CFFFE06#5C7F1D7F1DFFFFFF
(1547753404.800956) can0 0CF00300#FF0000FF08FFFFFF
(1547753404.801531) can0 0CEFFF00#6406007DFFFFFFFF
(1547753404.802109) can0 18EFFF00#64100B0B0000007D
(1547753404.802681) can0 18FEDF00#7D7E1DFFFFFFFFFF
(1547753404.810952) can0 0CF00400#F0FF7D0000FFFFFF
(1547753404.816952) can0 0DEF0603#0101FFFFFFFFFFF5
(1547753404.817537) can0 04EF0006#641518F00000BF0E
(1547753404.820963) can0 0CF00300#FF0000FF08FFFFFF
(1547753404.821533) can0 0CEFFF00#6406007DFFFFFFFF
(1547753404.822109) can0 18FEEF00#FFFFFF00FFFFFFFA
(1547753404.830990) can0 0CF00400#F0FF7D0000FFFFFF
(1547753404.836989) can0 0DEF0603#0101FFFFFFFFFFF5
(1547753404.837561) can0 04EF0006#641519F00000BF0E
(1547753404.838112) can0 0CFE4947#FFFFFFFFFFFFFFFF
(1547753404.838714) can0 0CFFFF47#5DFFFFF3FFFFFFFF
(1547753404.839312) can0 0CFE4347#0000FFFF3FFFFFFF
(1547753404.839882) can0 0CFE4447#0000FFFF3FFFFFFF
(1547753404.840946) can0 0CF00300#FF0000FF08FFFFFF
(1547753404.841569) can0 0CEFFF00#6406007DFFFFFFFF
(1547753404.850959) can0 0CF00400#F0FF7D0000FFFFFF
(1547753404.856992) can0 0DEF0603#0101FFFFFFFFFFF5
(1547753404.857566) can0 04EF0006#64151AF00000BF0E
(1547753404.860994) can0 0CF00300#FF0000FF08FFFFFF
(1547753404.861590) can0 0CEFFF00#6406007DFFFFFFFF
(1547753404.862165) can0 18FEF200#0000FFFFFFFFFFFF
(1547753404.870993) can0 0CF00400#F0FF7D0000FFFFFF
(1547753404.876996) can0 0DEF0603#0101FFFFFFFFFFF5
(1547753404.877569) can0 04EF0006#64151BF00000BF0E
(1547753404.878148) can0 18FEF147#FF0000FFFFFFFFFF
(1547753404.878768) can0 18FFFB06#001BFFFFFFFFFFFF
(1547753404.879345) can0 18F00503#7DFFFFFFFFFFFFFF
(1547753404.880930) can0 0CF00300#FF0000FF08FFFFFF
(1547753404.881550) can0 0CEFFF00#6406007DFFFFFFFF
(1547753404.882122) can0 18EF0600#640E7100FFFFFFFF
(1547753404.890971) can0 0CF00400#F0FF7D0000FFFFFF
(1547753404.896507) can0 0DEF0647#0104FFFFFFFFFFF1
(1547753404.897127) can0 0DEF0603#0101FFFFFFFFFFF5
(1547753404.897674) can0 04EF0006#64151CF00000BF0E
(1547753404.900926) can0 0CF00300#FF0000FF08FFFFFF
(1547753404.901525) can0 0CEFFF00#6406007DFFFFFFFF
(1547753404.902100) can0 18EFFF00#64100B0B0000007D
(1547753404.902649) can0 18FEF600#FF0046FF00FFFFFF
(1547753404.911031) can0 0CF00400#F0FF7D0000FFFFFF
(1547753404.917006) can0 0DEF0603#0101FFFFFFFFFFF5
(1547753404.917552) can0 04EF0006#64151DF00000BF0E
(1547753404.918160) can0 0CFE4947#FFFFFFFFFFFFFFFF
(1547753404.918699) can0 18FE6847#3AFFFFFFFFFFFFFF
(1547753404.919272) can0 0CFE4347#0000FFFF3FFFFFFF
(1547753404.919908) can0 18FFFF06#73FFFFFFFFFFFFFF
(1547753404.920481) can0 0CFE4447#0000FFFF3FFFFFFF
(1547753404.921056) can0 0CF00300#FF0000FF08FFFFFF
(1547753404.921597) can0 0CEFFF00#6406007DFFFFFFFF
(1547753404.922170) can0 0CFFFE06#5C7F1D7F1DFFFFFF
(1547753404.922799) can0 18EFFA00#6401FF0000FFFFFF
(1547753404.931004) can0 0CF00400#F0FF7D0000FFFFFF
(1547753404.937008) can0 0DEF0603#0101FFFFFFFFFFF5
(1547753404.937578) can0 04EF0006#64151EF00000BF0E
(1547753404.941008) can0 0CF00300#FF0000FF08FFFFFF
(1547753404.941582) can0 0CEFFF00#6406007DFFFFFFFF
(1547753404.951014) can0 0CF00400#F0FF7D0000FFFFFF
(1547753404.957013) can0 0DEF0603#0101FFFFFFFFFFF5
(1547753404.957584) can0 04EF0006#64151FF00000BF0E
(1547753404.958160) can0 0CFFFF47#5EFFFFFFFFFFFFFF
(1547753404.958733) can0 18FEF147#FF0000FFFFFFFFFF
(1547753404.959335) can0 18FEFC47#FFFFFFFFFFFFFFFF
(1547753404.959892) can0 18EF0047#F220610FFFFFFFFF
(1547753404.960515) can0 18F00647#FFCFFFFFFFFFFFFF
(1547753404.961052) can0 0CF00300#FF0000FF08FFFFFF
(1547753404.961655) can0 0CEFFF00#6406007DFFFFFFFF
(1547753404.962231) can0 18FEF200#0000FFFFFFFFFFFF
(1547753404.962806) can0 1CFDDF47#FCFFFFFFFFFFFFFF
(1547753404.963411) can0 18F00503#7DFFFFFFFFFFFFFF
(1547753404.971011) can0 0CF00400#F0FF7D0000FFFFFF
(1547753404.976984) can0 0DEF0603#0101FFFFFFFFFFF5
(1547753404.977559) can0 04EF0006#641510F00000BF0E
(1547753404.978136) can0 0C000006#30FFFFFFF8FFFFFF
(1547753404.980953) can0 0CF00300#FF0000FF08FFFFFF
(1547753404.981564) can0 0CEFFF00#6406007DFFFFFFFF
(1547753404.982140) can0 18EF0600#640E7B00FFFFFFFF
(1547753404.991017) can0 0CF00400#F0FF7D0000FFFFFF
(1547753404.996590) can0 0DEF0647#0104FFFFFFFFFFF1
(1547753404.997192) can0 0DEF0603#0101FFFFFFFFFFF5
(1547753404.997765) can0 04EF0006#641511F00000BF0E
(1547753404.998317) can0 0CFFFE06#5C7F1D7F1DFFFFFF
(1547753404.998892) can0 18FFFB06#00057DF8FFFFFFFF
(1547753405.000955) can0 0CF00300#FF0000FF08FFFFFF
(1547753405.001567) can0 0CEFFF00#6406007DFFFFFFFF
(1547753405.002146) can0 18EFFF00#64100B0B0000007D
(1547753405.011016) can0 0CF00400#F0FF7D0000FFFFFF
(1547753405.016988) can0 0DEF0603#0101FFFFFFFFFFF5
(1547753405.017599) can0 04EF0006#641512F00000BF0E
(1547753405.020997) can0 0CF00300#FF0000FF08FFFFFF
(1547753405.021569) can0 0CEFFF00#6406007DFFFFFFFF
(1547753405.022148) can0 18FEEE00#4A43FFFFFFFFFFFF
(1547753405.031028) can0 0CF00400#F0FF7D0000FFFFFF
(1547753405.037029) can0 0DEF0603#0101FFFFFFFFFFF5
(1547753405.037600) can0 04EF0006#641513F00000BF0E
(1547753405.038180) can0 0CFE4947#FFFFFFFFFFFFFFFF
(1547753405.038751) can0 0CFE4347#0000FFFF3FFFFFFF
(1547753405.039354) can0 0CFE4447#0000FFFF3FFFFFFF
(1547753405.040994) can0 0CF00300#FF0000FF08FFFFFF
(1547753405.041608) can0 0CEFFF00#6406007DFFFFFFFF
(1547753405.051059) can0 0CF00400#F0FF7D0000FFFFFF
(1547753405.051631) can0 18FEDF00#7D7E1DFFFFFFFFFF
(1547753405.056997) can0 0DEF0603#0101FFFFFFFFFFF5
(1547753405.057611) can0 04EF0006#641514F00000BF0E
(1547753405.061061) can0 0CF00300#FF0000FF08FFFFFF
(1547753405.061632) can0 0CEFFF00#6406007DFFFFFFFF
(1547753405.062208) can0 18FEF200#0000FFFFFFFFFFFF
(1547753405.071061) can0 0CF00400#F0FF7D0000FFFFFF
(1547753405.076977) can0 0DEF0603#0101FFFFFFFFFFF5
(1547753405.077542) can0 04EF0006#641515F00000BF0E
(1547753405.078120) can0 18FEF147#FF0000FFFFFFFFFF
(1547753405.078783) can0 18F00503#7DFFFFFFFFFFFFFF
(1547753405.081037) can0 0CF00300#FF0000FF08FFFFFF
(1547753405.081608) can0 0CEFFF00#6406007DFFFFFFFF
(1547753405.082185) can0 18EF0600#640E8500FFFFFFFF
(1547753405.091041) can0 0CF00400#F0FF7D0000FFFFFF
(1547753405.096617) can0 0DEF0647#0104FFFFFFFFFFF1
(1547753405.097212) can0 0DEF0603#0101FFFFFFFFFFF5
(1547753405.097761) can0 04EF0006#641516F00000BF0E
(1547753405.101018) can0 0CF00300#FF0000FF08FFFFFF
(1547753405.101589) can0 0CEFFF00#6406007DFFFFFFFF
(1547753405.102162) can0 18EFFF00#64100B0B0000007D
(1547753405.102737) can0 18FEF700#FFFFFFFFFFFFFA00
(1547753405.111068) can0 0CF00400#F0FF7D0000FFFFFF
(1547753405.117039) can0 0DEF0603#0101FFFFFFFFFFF5
(1547753405.117617) can0 04EF0006#641517F00000BF0E
(1547753405.118194) can0 0CFE4947#FFFFFFFFFFFFFFFF
(1547753405.118791) can0 0CFE4347#0000FFFF3FFFFFFF
(1547753405.119353) can0 0CFE4447#0000FFFF3FFFFFFF
(1547753405.119958) can0 0CFFFE06#5C7F1D7F1DFFFFFF
(1547753405.121044) can0 0CF00300#FF0000FF08FFFFFF
(1547753405.121616) can0 0CEFFF00#6406007DFFFFFFFF
(1547753405.131072) can0 0CF00400#F0FF7D0000FFFFFF
(1547753405.137047) can0 0DEF0603#0101FFFFFFFFFFF5
(1547753405.137619) can0 04EF0006#641518F00000BF0E
(1547753405.141049) can0 0CF00300#FF0000FF08FFFFFF
(1547753405.141620) can0 0CEFFF00#6406007DFFFFFFFF
(1547753405.151072) can0 0CF00400#F0FF7D0000FFFFFF
(1547753405.157051) can0 0DEF0603#0101FFFFFFFFFFF5
(1547753405.157639) can0 04EF0006#641519F00000BF0E
(1547753405.158201) can0 18FEF147#FF0000FFFFFFFFFF
(1547753405.158800) can0 18F00503#7DFFFFFFFFFFFFFF
(1547753405.161074) can0 0CF00300#FF0000FF08FFFFFF
(1547753405.161650) can0 0CEFFF00#6406007DFFFFFFFF
(1547753405.162227) can0 18FEF200#0000FFFFFFFFFFFF
(1547753405.171077) can0 0CF00400#F0FF7D0000FFFFFF
(1547753405.177056) can0 0DEF0603#0101FFFFFFFFFFF5
(1547753405.177626) can0 04EF0006#64151AF00000BF0E
(1547753405.181030) can0 0CF00300#FF0000FF08FFFFFF
(1547753405.181576) can0 0CEFFF00#6406007DFFFFFFFF
(1547753405.182173) can0 18EF0600#640E8F00FFFFFFFF
(1547753405.191102) can0 0CF00400#F0FF7D0000FFFFFF
(1547753405.196632) can0 0DEF0647#0104FFFFFFFFFFF1
(1547753405.197226) can0 0DEF0603#0101FFFFFFFFFFF5
(1547753405.197800) can0 04EF0006#64151BF00000BF0E
(1547753405.198378) can0 0CFFFE06#5C7F1D7F1DFFFFFF
(1547753405.201026) can0 0CF00300#FF0000FF08FFFFFF
(1547753405.201600) can0 0CEFFF00#6406007DFFFFFFFF
(1547753405.202179) can0 18EFFF00#64100B0B0000007D
(1547753405.202777) can0 18FED500#FFFFFCFFFFFFFFFF
(1547753405.211049) can0 0CF00400#F0FF7D0000FFFFFF
(1547753405.217050) can0 0DEF0603#0101FFFFFFFFFFF5
(1547753405.217636) can0 04EF0006#64151CF00000BF0E
(1547753405.221031) can0 0CF00300#FF0000FF08FFFFFF
(1547753405.221631) can0 0CEFFF00#6406007DFFFFFFFF
(1547753405.231082) can0 0CF00400#F0FF7D0000FFFFFF
(1547753405.237061) can0 0DEF0603#0101FFFFFFFFFFF5
(1547753405.237632) can0 04EF0006#64151DF00000BF0E
(1547753405.238211) can0 0CFE4947#FFFFFFFFFFFFFFFF
(1547753405.238809) can0 0CFE4347#0000FFFF3FFFFFFF
(1547753405.239409) can0 0CFE4447#0000FFFF3FFFFFFF
(1547753405.241060) can0 0CF00300#FF0000FF08FFFFFF
(1547753405.241633) can0 0CEFFF00#6406007DFFFFFFFF
(1547753405.242213) can0 18FDB300#FFFF5427FFFFFFFF
(1547753405.251056) can0 0CF00400#F0FF7D0000FFFFFF
(1547753405.257031) can0 0DEF0603#0101FFFFFFFFFFF5
(1547753405.257640) can0 04EF0006#64151EF00000BF0E
(1547753405.261088) can0 0CF00300#FF0000FF08FFFFFF
(1547753405.261635) can0 0CEFFF00#6406007DFFFFFFFF
(1547753405.262241) can0 18FEF200#0000FFFFFFFFFFFF
(1547753405.271073) can0 0CF00400#F0FF7D0000FFFFFF
(1547753405.277074) can0 0DEF0603#0101FFFFFFFFFFF5
(1547753405.277642) can0 04EF0006#64151FF00000BF0E
(1547753405.278221) can0 18FEF147#FF0000FFFFFFFFFF
(1547753405.278821) can0 18F00503#7DFFFFFFFFFFFFFF
(1547753405.281070) can0 0CF00300#FF0000FF08FFFFFF
(1547753405.281644) can0 0CEFFF00#6406007DFFFFFFFF
(1547753405.282223) can0 18EF0600#640E9900FFFFFFFF
(1547753405.291100) can0 0CF00400#F0FF7D0000FFFFFF
(1547753405.296649) can0 0DEF0647#0104FFFFFFFFFFF1
(1547753405.297299) can0 0DEF0603#0101FFFFFFFFFFF5
(1547753405.297903) can0 04EF0006#641510F00000BF0E
(1547753405.301050) can0 0CF00300#FF0000FF08FFFFFF
(1547753405.301622) can0 0CEFFF00#6406007DFFFFFFFF
(1547753405.302201) can0 18EFFF00#64100B0B0000007D
(1547753405.302773) can0 18FEDF00#7D7E1DFFFFFFFFFF
(1547753405.311105) can0 0CF00400#F0FF7D0000FFFFFF
(1547753405.317104) can0 0DEF0603#0101FFFFFFFFFFF5
(1547753405.317652) can0 04EF0006#641511F00000BF0E
(1547753405.318228) can0 0CFE4947#FFFFFFFFFFFFFFFF
(1547753405.318828) can0 0CFFFF47#5DFFFFF3FFFFFFFF
(1547753405.319394) can0 0CFE4347#0000FFFF3FFFFFFF
(1547753405.319995) can0 0CFE4447#0000FFFF3FFFFFFF
(1547753405.320605) can0 0CFFFE06#5C7F1D7F1DFFFFFF
(1547753405.321179) can0 0CF00300#FF0000FF08FFFFFF
(1547753405.321743) can0 0CEFFF00#6406007DFFFFFFFF
(1547753405.322321) can0 18FEEF00#FFFFFF00FFFFFFFA
(1547753405.331069) can0 0CF00400#F0FF7D0000FFFFFF
(1547753405.337038) can0 0DEF0603#0101FFFFFFFFFFF5
(1547753405.337583) can0 04EF0006#641512F00000BF0E
(1547753405.341056) can0 0CF00300#FF0000FF08FFFFFF
(1547753405.341630) can0 0CEFFF00#6406007DFFFFFFFF
(1547753405.351075) can0 0CF00400#F0FF7D0000FFFFFF
(1547753405.357076) can0 0DEF0603#0101FFFFFFFFFFF5
(1547753405.357658) can0 04EF0006#641513F00000BF0E
(1547753405.358230) can0 18FEF147#FF0000FFFFFFFFFF
(1547753405.358829) can0 18F00503#7DFFFFFFFFFFFFFF
(1547753405.361083) can0 0CF00300#FF0000FF08FFFFFF
(1547753405.361681) can0 0CEFFF00#6406007DFFFFFFFF
(1547753405.362258) can0 18FEF200#0000FFFFFFFFFFFF
(1547753405.371035) can0 0CF00400#F0FF7D0000FFFFFF
(1547753405.377111) can0 0DEF0603#0101FFFFFFFFFFF5
(1547753405.377657) can0 04EF0006#641514F00000BF0E
(1547753405.381209) can0 0CF00300#FF0000FF08FFFFFF
(1547753405.381784) can0 0CEFFF00#6406007DFFFFFFFF
(1547753405.382360) can0 18EF0600#640EA300FFFFFFFF
(1547753405.391036) can0 0CF00400#F0FF7D0000FFFFFF
(1547753405.396663) can0 0DEF0647#0104FFFFFFFFFFF1
(1547753405.397262) can0 0DEF0603#0101FFFFFFFFFFF5
(1547753405.397837) can0 04EF0006#641515F00000BF0E
(1547753405.398387) can0 0CFFFE06#5C7F1D7F1DFFFFFF
(1547753405.398989) can0 18FFFF06#73FFFFFFFFFFFFFF
(1547753405.400956) can0 0CF00300#FF0000FF08FFFFFF
(1547753405.401567) can0 0CEFFF00#6406007DFFFFFFFF
(1547753405.402141) can0 18EFFF00#64100B0B2003007D
(1547753405.402679) can0 18FEF600#FF0046FF00FFFFFF
(1547753405.410933) can0 0CF00400#F0FF7D0000FFFFFF
(1547753405.417085) can0 0DEF0603#0101FFFFFFFFFFF5
(1547753405.417670) can0 04EF0006#641516F00000BF0E
(1547753405.420917) can0 0CF00300#FF0000FF08FFFFFF
(1547753405.421490) can0 0CEFFF00#6406007DFFFFFFFF
(1547753405.427720) can0 1CFFFF17#22FFFF3CFFFFFFFF
(1547753405.430923) can0 0CF00400#F0FF7D0000FFFFFF
(1547753405.437096) can0 0DEF0603#0101FFFFFFFFFFF5
(1547753405.437641) can0 04EF0006#641517F00000BF0E
(1547753405.438247) can0 0CFE4947#FFFFFFFFFFFFFFFF
(1547753405.438844) can0 1CFDDF47#FCFFFFFFFFFFFFFF
(1547753405.439422) can0 0CFE4347#0000FFFF3FFFFFFF
(1547753405.440019) can0 0CFE4447#0000FFFF3FFFFFFF
(1547753405.440971) can0 0CF00300#FF0000FF08FFFFFF
(1547753405.441543) can0 0CEFFF00#6406007DFFFFFFFF
(1547753405.450975) can0 0CF00400#F0FF7D0000FFFFFF
(1547753405.451548) can0 18FFFA00#022C0000180C00A5
(1547753405.457093) can0 0DEF0603#0101FFFFFFFFFFF5
(1547753405.457677) can0 04EF0006#641518F00000BF0E
(1547753405.460975) can0 0CF00300#FF0000FF08FFFFFF
(1547753405.461502) can0 0CEFFF00#6406007DFFFFFFFF
(1547753405.462126) can0 18FEF200#0000FFFFFFFFFFFF
(1547753405.470979) can0 0CF00400#F0FF7D0000FFFFFF
(1547753405.477128) can0 0DEF0603#0101FFFFFFFFFFF5
(1547753405.477699) can0 04EF0006#641519F00000BF0E
(1547753405.478254) can0 18FEF147#FF0000FFFFFFFFFF
(1547753405.478851) can0 18F00647#FFCFFFFFFFFFFFFF
(1547753405.479453) can0 18F00503#7DFFFFFFFFFFFFFF
(1547753405.480913) can0 0CF00300#FF0000FF08FFFFFF
(1547753405.481498) can0 0CEFFF00#6406007DFFFFFFFF
(1547753405.482104) can0 18EF0600#640EAD00FFFFFFFF
(1547753405.482673) can0 18FEF500#C8FFFFFFFF3EFFFF
(1547753405.490949) can0 0CF00400#F0FF7D0000FFFFFF
(1547753405.496650) can0 0DEF0647#0104FFFFFFFFFFF1
(1547753405.497279) can0 0DEF0603#0101FFFFFFFFFFF5
(1547753405.497829) can0 04EF0006#64151AF00000BF0E
(1547753405.500930) can0 0CF00300#FF0000FF08FFFFFF
(1547753405.501529) can0 0CEFFF00#6406007DFFFFFFFF
(1547753405.502082) can0 18EFFF00#64100B0B2003007D
(1547753405.510984) can0 0CF00400#F0FF7D0000FFFFFF
(1547753405.517135) can0 0DEF0603#0101FFFFFFFFFFF5
(1547753405.517707) can0 04EF0006#64151BF00000BF0E
(1547753405.518284) can0 0CFE4947#FFFFFFFFFFFFFFFF
(1547753405.518883) can0 0CFE4347#0000FFFF3FFFFFFF
(1547753405.519485) can0 0CFE4447#0000FFFF3FFFFFFF
(1547753405.520027) can0 0CFFFE06#5C7F1D7F1DFFFFFF
(1547753405.520952) can0 0CF00300#FF0000FF08FFFFFF
(1547753405.521563) can0 0CEFFF00#6406007DFFFFFFFF
(1547753405.522073) can0 18FE6900#F4257226FFFF60FE
(1547753405.530954) can0 0CF00400#F0FF7D0000FFFFFF
(1547753405.537107) can0 0DEF0603#0101FFFFFFFFFFF5
(1547753405.537692) can0 04EF0006#64151CF00000BF0E
(1547753405.540939) can0 0CF00300#FF0000FF08FFFFFF
(1547753405.541534) can0 0CEFFF00#6406007DFFFFFFFF
(1547753405.550971) can0 0CF00400#F0FF7D0000FFFFFF
(1547753405.551537) can0 18FEDF00#7D7E1DFFFFFFFFFF
(1547753405.557115) can0 0DEF0603#0101FFFFFFFFFFF5
(1547753405.557687) can0 04EF0006#64151DF00000BF0E
(1547753405.558240) can0 18FEF147#FF0000FFFFFFFFFF
(1547753405.558862) can0 18F00503#7DFFFFFFFFFFFFFF
(1547753405.560964) can0 0CF00300#FF0000FF08FFFFFF
(1547753405.561539) can0 0CEFFF00#6406007DFFFFFFFF
(1547753405.562142) can0 18FEF200#0000FFFFFFFFFFFF
(1547753405.570954) can0 0CF00400#F0FF7D0000FFFFFF
(1547753405.577119) can0 0DEF0603#0101FFFFFFFFFFF5
(1547753405.577666) can0 04EF0006#64151EF00000BF0E
(1547753405.580918) can0 0CF00300#FF0000FF08FFFFFF
(1547753405.581492) can0 0CEFFF00#6406007DFFFFFFFF
(1547753405.582069) can0 18EF0600#640EB700FFFFFFFF
(1547753405.590971) can0 0CF00400#F0FF7D0000FFFFFF
(1547753405.596671) can0 0DEF0647#0104FFFFFFFFFFF1
(1547753405.597272) can0 0DEF0603#0101FFFFFFFFFFF5
(1547753405.597844) can0 04EF0006#64151FF00000BF0E
(1547753405.598422) can0 0CFFFE06#5C7F1D7F1DFFFFFF
(1547753405.600921) can0 0CF00300#FF0000FF08FFFFFF
(1547753405.601520) can0 0CEFFF00#6406007DFFFFFFFF
(1547753405.602072) can0 18EFFF00#64100B0B2003007D
(1547753405.610975) can0 0CF00400#F0FF7D0000FFFFFF
(1547753405.617126) can0 0DEF0603#0101FFFFFFFFFFF5
(1547753405.617699) can0 04EF0006#641510F00000BF0E
(1547753405.620925) can0 0CF00300#FF0000FF08FFFFFF
(1547753405.621524) can0 0CEFFF00#6406007DFFFFFFFF
(1547753405.630978) can0 0CF00400#F0FF7D0000FFFFFF
(1547753405.637130) can0 0DEF0603#0101FFFFFFFFFFF5
(1547753405.637703) can0 04EF0006#641511F00000BF0E
(1547753405.638253) can0 0CFE4947#FFFFFFFFFFFFFFFF
(1547753405.638878) can0 0CFE4347#0000FFFF3FFFFFFF
(1547753405.639454) can0 0CFE4447#0000FFFF3FFFFFFF
(1547753405.640978) can0 0CF00300#FF0000FF08FFFFFF
(1547753405.641552) can0 0CEFFF00#6406007DFFFFFFFF
(1547753405.642130) can0 18FD7C00#F880F1F000CF03FC
(1547753405.650970) can0 0CF00400#F0FF7D0000FFFFFF
(1547753405.657120) can0 0DEF0603#0101FFFFFFFFFFF5
(1547753405.657680) can0 04EF0006#641512F00000BF0E
(1547753405.660982) can0 0CF00300#FF0000FF08FFFFFF
(1547753405.661556) can0 0CEFFF00#6406007DFFFFFFFF
(1547753405.662148) can0 18FEF200#0000FFFFFFFFFFFF
(1547753405.670985) can0 0CF00400#F0FF7D0000FFFFFF
(1547753405.677136) can0 0DEF0603#0101FFFFFFFFFFF5
(1547753405.677708) can0 04EF0006#641513F00000BF0E
(1547753405.678286) can0 18FEF147#FF0000FFFFFFFFFF
(1547753405.678883) can0 18F00503#7DFFFFFFFFFFFFFF
(1547753405.680962) can0 0CF00300#FF0000FF08FFFFFF
(1547753405.681504) can0 0CEFFF00#6406007DFFFFFFFF
(1547753405.682086) can0 18EF0600#640EC100FFFFFFFF
(1547753405.690988) can0 0CF00400#F0FF7D0000FFFFFF
(1547753405.696714) can0 0DEF0647#0104FFFFFFFFFFF1
(1547753405.697313) can0 0DEF0603#0101FFFFFFFFFFF5
(1547753405.697889) can0 04EF0006#641514F00000BF0E
(1547753405.700965) can0 0CF00300#FF0000FF08FFFFFF
(1547753405.701538) can0 0CEFFF00#6406007DFFFFFFFF
(1547753405.702090) can0 18EFFF00#64100B0B2003007D
(1547753405.710992) can0 0CF00400#F0FF7D0000FFFFFF
(1547753405.717143) can0 0DEF0603#0101FFFFFFFFFFF5
(1547753405.717715) can0 04EF0006#641515F00000BF0E
(1547753405.718293) can0 0CFE4947#FFFFFFFFFFFFFFFF
(1547753405.718893) can0 0CFE4347#0000FFFF3FFFFFFF
(1547753405.719493) can0 0CFE4447#0000FFFF3FFFFFFF
(1547753405.720055) can0 0CFFFE06#5C7F1D7F1DFFFFFF
(1547753405.720979) can0 0CF00300#FF0000FF08FFFFFF
(1547753405.721567) can0 0CEFFF00#6406007DFFFFFFFF
(1547753405.730984) can0 0CF00400#F0FF7D0000FFFFFF
(1547753405.736233) can0 18EAFF06#E5FE00
(1547753405.737221) can0 0DEF0603#0101FFFFFFFFFFF5
(1547753405.737768) can0 04EF0006#641516F00000BF0E
(1547753405.740948) can0 0CF00300#FF0000FF08FFFFFF
(1547753405.741553) can0 0CEFFF00#6406007DFFFFFFFF
(1547753405.742123) can0 18FDB300#FFFF5427FFFFFFFF
(1547753405.742694) can0 1CEFFF00#64070000FFFFFFFF
(1547753405.751025) can0 0CF00400#F0FF7D0000FFFFFF
(1547753405.754374) can0 18FEE500#CB0A0000FFFFFFFF
(1547753405.757150) can0 0DEF0603#0101FFFFFFFFFFF5
(1547753405.757722) can0 04EF0006#641517F00000BF0E
(1547753405.758301) can0 18FEF147#FF0000FFFFFFFFFF
(1547753405.758873) can0 18FEE706#C80A0000FFFFFFFF
(1547753405.759475) can0 18F00503#7DFFFFFFFFFFFFFF
(1547753405.761002) can0 0CF00300#FF0000FF08FFFFFF
(1547753405.761597) can0 0CEFFF00#6406007DFFFFFFFF
(1547753405.762176) can0 18FEF200#0000FFFFFFFFFFFF
(1547753405.770991) can0 0CF00400#F0FF7D0000FFFFFF
(1547753405.777141) can0 0DEF0603#0101FFFFFFFFFFF5
(1547753405.777701) can0 04EF0006#641518F00000BF0E
(1547753405.780954) can0 0CF00300#FF0000FF08FFFFFF
(1547753405.781547) can0 0CEFFF00#6406007DFFFFFFFF
(1547753405.782103) can0 18EF0600#640ECB00FFFFFFFF
(1547753405.791030) can0 0CF00400#F0FF7D0000FFFFFF
(1547753405.796707) can0 0DEF0647#0104FFFFFFFFFFF1
(1547753405.797381) can0 0DEF0603#0101FFFFFFFFFFF5
(1547753405.797957) can0 04EF0006#641519F00000BF0E
(1547753405.798505) can0 0CFFFE06#5C7F1D7F1DFFFFFF
(1547753405.800983) can0 0CF00300#FF0000FF08FFFFFF
(1547753405.801555) can0 0CEFFF00#6406007DFFFFFFFF
(1547753405.802133) can0 18EFFF00#64100B0B2003007D
(1547753405.802706) can0 18FEDF00#7D7E1DFFFFFFFFFF
(1547753405.810998) can0 0CF00400#F0FF7D0000FFFFFF
(1547753405.817147) can0 0DEF0603#0101FFFFFFFFFFF5
(1547753405.817733) can0 04EF0006#64151AF00000BF0E
(1547753405.820986) can0 0CF00300#FF0000FF08FFFFFF
(1547753405.821560) can0 0CEFFF00#6406007DFFFFFFFF
(1547753405.822111) can0 18FEEF00#FFFFFF00FFFFFFFA
(1547753405.831038) can0 0CF00400#F0FF7D0000FFFFFF
(1547753405.837164) can0 0DEF0603#0101FFFFFFFFFFF5
(1547753405.837736) can0 04EF0006#64151BF00000BF0E
(1547753405.838315) can0 0CFE4947#FFFFFFFFFFFFFFFF
(1547753405.838913) can0 0CFFFF47#5DFFFFF3FFFFFFFF
(1547753405.839515) can0 0CFE4347#0000FFFF3FFFFFFF
(1547753405.840101) can0 0CFE4447#0000FFFF3FFFFFFF
(1547753405.841001) can0 0CF00300#FF0000FF08FFFFFF
(1547753405.841612) can0 0CEFFF00#6406007DFFFFFFFF
(1547753405.851016) can0 0CF00400#F0FF7D0000FFFFFF
(1547753405.857168) can0 0DEF0603#0101FFFFFFFFFFF5
(1547753405.857740) can0 04EF0006#64151CF00000BF0E
(1547753405.861019) can0 0CF00300#FF0000FF08FFFFFF
(1547753405.861616) can0 0CEFFF00#6406007DFFFFFFFF
(1547753405.862194) can0 18FEF200#0000FFFFFFFFFFFF
(1547753405.871020) can0 0CF00400#F0FF7D0000FFFFFF
(1547753405.877172) can0 0DEF0603#0101FFFFFFFFFFF5
(1547753405.877743) can0 04EF0006#64151DF00000BF0E
(1547753405.878324) can0 18FEF147#FF0000FFFFFFFFFF
(1547753405.878919) can0 18FFFB06#001BFFFFFFFFFFFF
(1547753405.879521) can0 18F00503#7DFFFFFFFFFFFFFF
(1547753405.881008) can0 0CF00300#FF0000FF08FFFFFF
(1547753405.881594) can0 0CEFFF00#6406007DFFFFFFFF
(1547753405.882173) can0 18EF0600#640ED500FFFFFFFF
(1547753405.891039) can0 0CF00400#F0FF7D0000FFFFFF
(1547753405.896712) can0 0DEF0647#0104FFFFFFFFFFF1
(1547753405.897324) can0 0DEF0603#0101FFFFFFFFFFF5
(1547753405.897898) can0 04EF0006#64151EF00000BF0E
(1547753405.901001) can0 0CF00300#FF0000FF08FFFFFF
(1547753405.901574) can0 0CEFFF00#6406007DFFFFFFFF
(1547753405.902125) can0 18EFFF00#64100B0B2003007D
(1547753405.902687) can0 18FEF600#FF0046FF00FFFFFF
(1547753405.911028) can0 0CF00400#F0FF7D0000FFFFFF
(1547753405.917179) can0 0DEF0603#0101FFFFFFFFFFF5
(1547753405.917750) can0 04EF0006#64151FF00000BF0E
(1547753405.918330) can0 0CFE4947#FFFFFFFFFFFFFFFF
(1547753405.918877) can0 18FE6847#3AFFFFFFFFFFFFFF
(1547753405.919465) can0 0CFE4347#0000FFFF3FFFFFFF
(1547753405.920065) can0 18FFFF06#73FFFFFFFFFFFFFF
(1547753405.920653) can0 0CFE4447#0000FFFF3FFFFFFF
(1547753405.921228) can0 0CF00300#FF0000FF08FFFFFF
(1547753405.921788) can0 0CEFFF00#6406007DFFFFFFFF
(1547753405.922380) can0 0CFFFE06#5C7F1D7F1DFFFFFF
(1547753405.922979) can0 18EFFA00#6401FF0000FFFFFF
(1547753405.931057) can0 0CF00400#F0FF7D0000FFFFFF
(1547753405.937182) can0 0DEF0603#0101FFFFFFFFFFF5
(1547753405.937729) can0 04EF0006#641510F00000BF0E
(1547753405.941007) can0 0CF00300#FF0000FF08FFFFFF
(1547753405.941579) can0 0CEFFF00#6406007DFFFFFFFF
(1547753405.951034) can0 0CF00400#F0FF7D0000FFFFFF
(1547753405.957186) can0 0DEF0603#0101FFFFFFFFFFF5
(1547753405.957757) can0 04EF0006#641511F00000BF0E
(1547753405.958335) can0 0CFFFF47#5EFFFFFFFFFFFFFF
(1547753405.958910) can0 18FEF147#FF0000FFFFFFFFFF
(1547753405.959512) can0 18FEFC47#FFFFFFFFFFFFFFFF
(1547753405.960072) can0 18EF0047#F220610FFFFFFFFF
(1547753405.960684) can0 18F00647#FFCFFFFFFFFFFFFF
(1547753405.961272) can0 0CEFFF00#6406007DFFFFFFFF
(1547753405.961859) can0 0CF00300#FF0000FF08FFFFFF
(1547753405.962437) can0 18FEF200#0000FFFFFFFFFFFF
(1547753405.963011) can0 1CFDDF47#FCFFFFFFFFFFFFFF
(1547753405.963610) can0 18F00503#7DFFFFFFFFFFFFFF
(1547753405.971038) can0 0CF00400#F0FF7D0000FFFFFF
(1547753405.977189) can0 0DEF0603#0101FFFFFFFFFFF5
(1547753405.977761) can0 04EF0006#641512F00000BF0E
(1547753405.978339) can0 0C000006#30FFFFFFF8FFFFFF
(1547753405.981039) can0 0CF00300#FF0000FF08FFFFFF
(1547753405.981612) can0 0CEFFF00#6406007DFFFFFFFF
(1547753405.982191) can0 18EF0600#640EDF00FFFFFFFF
(1547753405.991042) can0 0CF00400#F0FF7D0000FFFFFF
(1547753405.996742) can0 0DEF0647#0104FFFFFFFFFFF1
(1547753405.997367) can0 0DEF0603#0101FFFFFFFFFFF5
(1547753405.997915) can0 04EF0006#641513F00000BF0E
(1547753405.998493) can0 0CFFFE06#5C7F1D7F1DFFFFFF
(1547753405.999093) can0 18FFFB06#00057DF8FFFFFFFF
(1547753406.001004) can0 0CF00300#FF0000FF08FFFFFF
(1547753406.001592) can0 0CEFFF00#6406007DFFFFFFFF
(1547753406.002169) can0 18EFFF00#64100B0B2003007D
(1547753406.011058) can0 0CF00400#F0FF7D0000FFFFFF
(1547753406.017182) can0 0DEF0603#0101FFFFFFFFFFF5
(1547753406.017769) can0 04EF0006#641514F00000BF0E
(1547753406.021023) can0 0CF00300#FF0000FF08FFFFFF
(1547753406.021595) can0 0CEFFF00#6406007DFFFFFFFF
(1547753406.022181) can0 18FEEE00#4A43FFFFFFFFFFFF
(1547753406.031093) can0 0CF00400#F0FF7D0000FFFFFF
(1547753406.037246) can0 0DEF0603#0101FFFFFFFFFFF5
(1547753406.037820) can0 04EF0006#641515F00000BF0E
(1547753406.038395) can0 0CFE4947#FFFFFFFFFFFFFFFF
(1547753406.038995) can0 0CFE4347#0000FFFF3FFFFFFF
(1547753406.039595) can0 0CFE4447#0000FFFF3FFFFFFF
(1547753406.041026) can0 0CF00300#FF0000FF08FFFFFF
(1547753406.041650) can0 0CEFFF00#6406007DFFFFFFFF
(1547753406.051116) can0 0CF00400#F0FF7D0000FFFFFF
(1547753406.051690) can0 18FEDF00#7D7E1DFFFFFFFFFF
(1547753406.057201) can0 0DEF0603#0101FFFFFFFFFFF5
(1547753406.057819) can0 04EF0006#641516F00000BF0E
(1547753406.061089) can0 0CF00300#FF0000FF08FFFFFF
(1547753406.061689) can0 0CEFFF00#6406007DFFFFFFFF
(1547753406.062267) can0 18FEF200#0000FFFFFFFFFFFF
(1547753406.071118) can0 0CF00400#F0FF7D0000FFFFFF
(1547753406.077241) can0 0DEF0603#0101FFFFFFFFFFF5
(1547753406.077819) can0 04EF0006#641517F00000BF0E
(1547753406.078385) can0 18FEF147#FF0000FFFFFFFFFF
(1547753406.078984) can0 18F00503#7DFFFFFFFFFFFFFF
(1547753406.081004) can0 0CF00300#FF0000FF08FFFFFF
(1547753406.081632) can0 0CEFFF00#6406007DFFFFFFFF
(1547753406.082214) can0 18EF0600#640EE900FFFFFFFF
(1547753406.087864) can0 1CFFFF17#22FFFF3CFFFFFFFF
(1547753406.091116) can0 0CF00400#F0FF7D0000FFFFFF
(1547753406.096791) can0 0DEF0647#0104FFFFFFFFFFF1
(1547753406.097415) can0 0DEF0603#0101FFFFFFFFFFF5
(1547753406.097962) can0 04EF0006#641518F00000BF0E
(1547753406.101064) can0 0CF00300#FF0000FF08FFFFFF
(1547753406.101636) can0 0CEFFF00#6406007DFFFFFFFF
(1547753406.102216) can0 18EFFF00#64100B0B2003007D
(1547753406.102787) can0 18FEF700#FFFFFFFFFFFFFA00
(1547753406.111120) can0 0CF00400#F0FF7D0000FFFFFF
(1547753406.117268) can0 0DEF0603#0101FFFFFFFFFFF5
(1547753406.117814) can0 04EF0006#641519F00000BF0E
(1547753406.118401) can0 0CFE4947#FFFFFFFFFFFFFFFF
(1547753406.119000) can0 0CFE4347#0000FFFF3FFFFFFF
(1547753406.119561) can0 0CFE4447#0000FFFF3FFFFFFF
(1547753406.120165) can0 0CFFFE06#5C7F1D7F1DFFFFFF
(1547753406.121126) can0 0CF00300#FF0000FF08FFFFFF
(1547753406.121698) can0 0CEFFF00#6406007DFFFFFFFF
(1547753406.131134) can0 0CF00400#F0FF7D0000FFFFFF
(1547753406.137258) can0 0DEF0603#0101FFFFFFFFFFF5
(1547753406.137825) can0 04EF0006#64151AF00000BF0E
(1547753406.141080) can0 0CF00300#FF0000FF08FFFFFF
(1547753406.141653) can0 0CEFFF00#6406007DFFFFFFFF
(1547753406.151134) can0 0CF00400#F0FF7D0000FFFFFF
(1547753406.157262) can0 0DEF0603#0101FFFFFFFFFFF5
(1547753406.157831) can0 04EF0006#64151BF00000BF0E
(1547753406.158409) can0 18FEF147#FF0000FFFFFFFFFF
(1547753406.159010) can0 18F00503#7DFFFFFFFFFFFFFF
(1547753406.161109) can0 0CF00300#FF0000FF08FFFFFF
(1547753406.161706) can0 0CEFFF00#6406007DFFFFFFFF
(1547753406.162288) can0 18FEF200#0000FFFFFFFFFFFF
(1547753406.171134) can0 0CF00400#F0FF7D0000FFFFFF
(1547753406.177260) can0 0DEF0603#0101FFFFFFFFFFF5
(1547753406.177833) can0 04EF0006#64151CF00000BF0E
(1547753406.181089) can0 0CF00300#FF0000FF08FFFFFF
(1547753406.181644) can0 0CEFFF00#6406007DFFFFFFFF
(1547753406.182228) can0 18EF0600#640EF300FFFFFFFF
(1547753406.191129) can0 0CF00400#F0FF7D0000FFFFFF
(1547753406.196832) can0 0DEF0647#0104FFFFFFFFFFF1
(1547753406.197432) can0 0DEF0603#0101FFFFFFFFFFF5
(1547753406.197959) can0 04EF0006#64151DF00000BF0E
(1547753406.198554) can0 0CFFFE06#5C7F1D7F1DFFFFFF
(1547753406.201081) can0 0CF00300#FF0000FF08FFFFFF
(1547753406.201654) can0 0CEFFF00#6406007DFFFFFFFF
(1547753406.202231) can0 18EFFF00#64100B0B2003007D
(1547753406.202804) can0 18FED500#FFFFFCFFFFFFFFFF
(1547753406.211100) can0 0CF00400#F0FF7D0000FFFFFF
(1547753406.217285) can0 0DEF0603#0101FFFFFFFFFFF5
(1547753406.217834) can0 04EF0006#64151EF00000BF0E
(1547753406.221083) can0 0CF00300#FF0000FF08FFFFFF
(1547753406.221682) can0 0CEFFF00#6406007DFFFFFFFF
(1547753406.231137) can0 0CF00400#F0FF7D0000FFFFFF
(1547753406.237264) can0 0DEF0603#0101FFFFFFFFFFF5
(1547753406.237836) can0 04EF0006#64151FF00000BF0E
(1547753406.238413) can0 0CFE4947#FFFFFFFFFFFFFFFF
(1547753406.239012) can0 0CFE4347#0000FFFF3FFFFFFF
(1547753406.239614) can0 0CFE4447#0000FFFF3FFFFFFF
(1547753406.241114) can0 0CF00300#FF0000FF08FFFFFF
(1547753406.241687) can0 0CEFFF00#6406007DFFFFFFFF
(1547753406.242266) can0 18FDB300#FFFF5427FFFFFFFF
(1547753406.251108) can0 0CF00400#F0FF7D0000FFFFFF
(1547753406.257260) can0 0DEF0603#0101FFFFFFFFFFF5
(1547753406.257845) can0 04EF0006#641510F00000BF0E
(1547753406.261142) can0 0CF00300#FF0000FF08FFFFFF
(1547753406.261714) can0 0CEFFF00#6406007DFFFFFFFF
(1547753406.262295) can0 18FEF200#0000FFFFFFFFFFFF
(1547753406.271143) can0 0CF00400#F0FF7D0000FFFFFF
(1547753406.277243) can0 0DEF0603#0101FFFFFFFFFFF5
(1547753406.277842) can0 04EF0006#641511F00000BF0E
(1547753406.278421) can0 18FEF147#FF0000FFFFFFFFFF
(1547753406.279019) can0 18F00503#7DFFFFFFFFFFFFFF
(1547753406.281095) can0 0CF00300#FF0000FF08FFFFFF
(1547753406.281668) can0 0CEFFF00#6406007DFFFFFFFF
(1547753406.282247) can0 18EF0600#640EFD00FFFFFFFF
(1547753406.291150) can0 0CF00400#F0FF7D0000FFFFFF
(1547753406.296851) can0 0DEF0647#0104FFFFFFFFFFF1
(1547753406.297523) can0 0DEF0603#0101FFFFFFFFFFF5
(1547753406.298073) can0 04EF0006#641512F00000BF0E
(1547753406.301098) can0 0CF00300#FF0000FF08FFFFFF
(1547753406.301671) can0 0CEFFF00#6406007DFFFFFFFF
(1547753406.302251) can0 18EFFF00#64100B0B2003007D
(1547753406.302823) can0 18FEDF00#7D7E1DFFFFFFFFFF
(1547753406.311154) can0 0CF00400#F0FF7D0000FFFFFF
(1547753406.317303) can0 0DEF0603#0101FFFFFFFFFFF5
(1547753406.317851) can0 04EF0006#641513F00000BF0E
(1547753406.318430) can0 0CFE4947#FFFFFFFFFFFFFFFF
(1547753406.319026) can0 0CFFFF47#5DFFFFF3FFFFFFFF
(1547753406.319594) can0 0CFE4347#0000FFFF3FFFFFFF
(1547753406.320196) can0 0CFE4447#0000FFFF3FFFFFFF
(1547753406.320807) can0 0CFFFE06#5C7F1D7F1DFFFFFF
(1547753406.321401) can0 0CEFFF00#6406007DFFFFFFFF
(1547753406.321945) can0 0CF00300#FF0000FF08FFFFFF
(1547753406.322509) can0 18FEEF00#FFFFFF00FFFFFFFA
(1547753406.331093) can0 0CF00400#F0FF7D0000FFFFFF
(1547753406.337253) can0 0DEF0603#0101FFFFFFFFFFF5
(1547753406.337833) can0 04EF0006#641514F00000BF0E
(1547753406.341087) can0 0CF00300#FF0000FF08FFFFFF
(1547753406.341696) can0 0CEFFF00#6406007DFFFFFFFF
(1547753406.351166) can0 0CF00400#F0FF7D0000FFFFFF
(1547753406.357320) can0 0DEF0603#0101FFFFFFFFFFF5
(1547753406.357867) can0 04EF0006#641515F00000BF0E
(1547753406.358468) can0 18FEF147#FF0000FFFFFFFFFF
(1547753406.359091) can0 18F00503#7DFFFFFFFFFFFFFF
(1547753406.361170) can0 0CF00300#FF0000FF08FFFFFF
(1547753406.361741) can0 0CEFFF00#6406007DFFFFFFFF
(1547753406.362347) can0 18FEF200#0000FFFFFFFFFFFF
(1547753406.371169) can0 0CF00400#F0FF7D0000FFFFFF
(1547753406.377298) can0 0DEF0603#0101FFFFFFFFFFF5
(1547753406.377868) can0 04EF0006#641516F00000BF0E
(1547753406.381122) can0 0CF00300#FF0000FF08FFFFFF
(1547753406.381694) can0 0CEFFF00#6406007DFFFFFFFF
(1547753406.382272) can0 18EF0600#640E0700FFFFFFFF
(1547753406.391173) can0 0CF00400#F0FF7D0000FFFFFF
(1547753406.396875) can0 0DEF0647#0104FFFFFFFFFFF1
(1547753406.397474) can0 0DEF0603#0101FFFFFFFFFFF5
(1547753406.398001) can0 04EF0006#641517F00000BF0E
(1547753406.398534) can0 0CFFFE06#5C7F1D7F1DFFFFFF
(1547753406.399131) can0 18FFFF06#73FFFFFFFFFFFFFF
(1547753406.401064) can0 0CF00300#FF0000FF08FFFFFF
(1547753406.401661) can0 0CEFFF00#6406007DFFFFFFFF
(1547753406.402274) can0 18EFFF00#64100B0B2003007D
(1547753406.402848) can0 18FEF600#FF0046FF00FFFFFF
(1547753406.411177) can0 0CF00400#F0FF7D0000FFFFFF
(1547753406.417336) can0 0DEF0603#0101FFFFFFFFFFF5
(1547753406.417890) can0 04EF0006#641518F00000BF0E
(1547753406.421107) can0 0CF00300#FF0000FF08FFFFFF
(1547753406.421735) can0 0CEFFF00#6406007DFFFFFFFF
(1547753406.431193) can0 0CF00400#F0FF7D0000FFFFFF
(1547753406.437340) can0 0DEF0603#0101FFFFFFFFFFF5
(1547753406.437846) can0 04EF0006#641519F00000BF0E
(1547753406.438466) can0 0CFE4947#FFFFFFFFFFFFFFFF
(1547753406.439065) can0 1CFDDF47#FCFFFFFFFFFFFFFF
(1547753406.439641) can0 0CFE4347#0000FFFF3FFFFFFF
(1547753406.440241) can0 0CFE4447#0000FFFF3FFFFFFF
(1547753406.441165) can0 0CF00300#FF0000FF08FFFFFF
(1547753406.441710) can0 0CEFFF00#6406007DFFFFFFFF
(1547753406.451191) can0 0CF00400#F0FF7D0000FFFFFF
(1547753406.451762) can0 18FFFA00#022C0000180C00A5
(1547753406.457341) can0 0DEF0603#0101FFFFFFFFFFF5
(1547753406.457887) can0 04EF0006#64151AF00000BF0E
(1547753406.461188) can0 0CF00300#FF0000FF08FFFFFF
(1547753406.461722) can0 0CEFFF00#6406007DFFFFFFFF
(1547753406.462343) can0 18FEF200#0000FFFFFFFFFFFF
(1547753406.471193) can0 0CF00400#F0FF7D0000FFFFFF
(1547753406.477344) can0 0DEF0603#0101FFFFFFFFFFF5
(1547753406.477919) can0 04EF0006#64151BF00000BF0E
(1547753406.478491) can0 18FEF147#FF0000FFFFFFFFFF
(1547753406.479119) can0 18F00647#FFCFFFFFFFFFFFFF
(1547753406.479689) can0 18F00503#7DFFFFFFFFFFFFFF
(1547753406.481125) can0 0CF00300#FF0000FF08FFFFFF
(1547753406.481745) can0 0CEFFF00#6406007DFFFFFFFF
(1547753406.482316) can0 18EF0600#640E1100FFFFFFFF
(1547753406.482874) can0 18FEF500#C8FFFFFFFF3EFFFF
(1547753406.491154) can0 0CF00400#F0FF7D0000FFFFFF
(1547753406.496898) can0 0DEF0647#0104FFFFFFFFFFF1
(1547753406.497495) can0 0DEF0603#0101FFFFFFFFFFF5
(1547753406.498070) can0 04EF0006#64151CF00000BF0E
(1547753406.501146) can0 0CF00300#FF0000FF08FFFFFF
(1547753406.501743) can0 0CEFFF00#6406007DFFFFFFFF
(1547753406.502298) can0 18EFFF00#64100B0B2003007D
(1547753406.511226) can0 0CF00400#F0FF7D0000FFFFFF
(1547753406.517351) can0 0DEF0603#0101FFFFFFFFFFF5
(1547753406.517899) can0 04EF0006#64151DF00000BF0E
(1547753406.518498) can0 0CFE4947#FFFFFFFFFFFFFFFF
(1547753406.519073) can0 0CFE4347#0000FFFF3FFFFFFF
(1547753406.519672) can0 0CFE4447#0000FFFF3FFFFFFF
(1547753406.520234) can0 0CFFFE06#5C7F1D7F1DFFFFFF
(1547753406.521156) can0 0CF00300#FF0000FF08FFFFFF
(1547753406.521778) can0 0CEFFF00#6406007DFFFFFFFF
(1547753406.522284) can0 18FE6900#F4257226FFFF60FE
(1547753406.531161) can0 0CF00400#F0FF7D0000FFFFFF
(1547753406.537313) can0 0DEF0603#0101FFFFFFFFFFF5
(1547753406.537912) can0 04EF0006#64151EF00000BF0E
(1547753406.541159) can0 0CF00300#FF0000FF08FFFFFF
(1547753406.541758) can0 0CEFFF00#6406007DFFFFFFFF
(1547753406.551207) can0 0CF00400#F0FF7D0000FFFFFF
(1547753406.551769) can0 18FEDF00#7D7E1DFFFFFFFFFF
(1547753406.557322) can0 0DEF0603#0101FFFFFFFFFFF5
(1547753406.557896) can0 04EF0006#64151FF00000BF0E
(1547753406.558472) can0 18FEF147#FF0000FFFFFFFFFF
(1547753406.559096) can0 18F00503#7DFFFFFFFFFFFFFF
(1547753406.561172) can0 0CF00300#FF0000FF08FFFFFF
(1547753406.561745) can0 0CEFFF00#6406007DFFFFFFFF
(1547753406.562349) can0 18FEF200#0000FFFFFFFFFFFF
(1547753406.571146) can0 0CF00400#F0FF7D0000FFFFFF
(1547753406.577314) can0 0DEF0603#0101FFFFFFFFFFF5
(1547753406.577860) can0 04EF0006#641510F00000BF0E
(1547753406.581138) can0 0CF00300#FF0000FF08FFFFFF
(1547753406.581692) can0 0CEFFF00#6406007DFFFFFFFF
(1547753406.582266) can0 18EF0600#640E1B00FFFFFFFF
(1547753406.591180) can0 0CF00400#F0FF7D0000FFFFFF
(1547753406.596881) can0 0DEF0647#0104FFFFFFFFFFF1
(1547753406.597503) can0 0DEF0603#0101FFFFFFFFFFF5
(1547753406.598052) can0 04EF0006#641511F00000BF0E
(1547753406.598629) can0 0CFFFE06#5C7F1D7F1DFFFFFF
(1547753406.601153) can0 0CF00300#FF0000FF08FFFFFF
(1547753406.601729) can0 0CEFFF00#6406007DFFFFFFFF
(1547753406.602281) can0 18EFFF00#64100B0B2003007D
(1547753406.611183) can0 0CF00400#F0FF7D0000FFFFFF
(1547753406.617333) can0 0DEF0603#0101FFFFFFFFFFF5
(1547753406.617904) can0 04EF0006#641512F00000BF0E
(1547753406.621132) can0 0CF00300#FF0000FF08FFFFFF
(1547753406.621730) can0 0CEFFF00#6406007DFFFFFFFF
(1547753406.631188) can0 0CF00400#F0FF7D0000FFFFFF
(1547753406.637337) can0 0DEF0603#0101FFFFFFFFFFF5
(1547753406.637884) can0 04EF0006#641513F00000BF0E
(1547753406.638461) can0 0CFE4947#FFFFFFFFFFFFFFFF
(1547753406.639059) can0 0CFE4347#0000FFFF3FFFFFFF
(1547753406.639660) can0 0CFE4447#0000FFFF3FFFFFFF
(1547753406.641160) can0 0CF00300#FF0000FF08FFFFFF
(1547753406.641758) can0 0CEFFF00#6406007DFFFFFFFF
(1547753406.642313) can0 18FD7C00#F880F1F000CF03FC
(1547753406.651172) can0 0CF00400#F0FF7D0000FFFFFF
(1547753406.657322) can0 0DEF0603#0101FFFFFFFFFFF5
(1547753406.657889) can0 04EF0006#641514F00000BF0E
(1547753406.661188) can0 0CF00300#FF0000FF08FFFFFF
(1547753406.661787) can0 0CEFFF00#6406007DFFFFFFFF
(1547753406.662367) can0 18FEF200#0000FFFFFFFFFFFF
(1547753406.671194) can0 0CF00400#F0FF7D0000FFFFFF
(1547753406.677343) can0 0DEF0603#0101FFFFFFFFFFF5
(1547753406.677917) can0 04EF0006#641515F00000BF0E
(1547753406.678467) can0 18FEF147#FF0000FFFFFFFFFF
(1547753406.679065) can0 18F00503#7DFFFFFFFFFFFFFF
(1547753406.681143) can0 0CF00300#FF0000FF08FFFFFF
(1547753406.681741) can0 0CEFFF00#6406007DFFFFFFFF
(1547753406.682302) can0 18EF0600#640E2500FFFFFFFF
(1547753406.691194) can0 0CF00400#F0FF7D0000FFFFFF
(1547753406.696921) can0 0DEF0647#0104FFFFFFFFFFF1
(1547753406.697520) can0 0DEF0603#0101FFFFFFFFFFF5
(1547753406.698121) can0 04EF0006#641516F00000BF0E
(1547753406.701146) can0 0CF00300#FF0000FF08FFFFFF
(1547753406.701745) can0 0CEFFF00#6406007DFFFFFFFF
(1547753406.702297) can0 18EFFF00#64100B0B2003007D
(1547753406.711200) can0 0CF00400#F0FF7D0000FFFFFF
(1547753406.717350) can0 0DEF0603#0101FFFFFFFFFFF5
(1547753406.717924) can0 04EF0006#641517F00000BF0E
(1547753406.718499) can0 0CFE4947#FFFFFFFFFFFFFFFF
(1547753406.718897) can0 18EA0006#E3FE00
(1547753406.719474) can0 0CFE4347#0000FFFF3FFFFFFF
(1547753406.720073) can0 0CFE4447#0000FFFF3FFFFFFF
(1547753406.720650) can0 0CFFFE06#5C7F1D7F1DFFFFFF
(1547753406.721224) can0 0CF00300#FF0000FF08FFFFFF
(1547753406.721798) can0 0CEFFF00#6406007DFFFFFFFF
(1547753406.731202) can0 0CF00400#F0FF7D0000FFFFFF
(1547753406.737353) can0 0DEF0603#0101FFFFFFFFFFF5
(1547753406.737928) can0 04EF0006#641518F00000BF0E
(1547753406.741136) can0 0CF00300#FF0000FF08FFFFFF
(1547753406.741751) can0 0CEFFF00#6406007DFFFFFFFF
(1547753406.742331) can0 18FDB300#FFFF5427FFFFFFFF
(1547753406.742902) can0 1CEFFF00#64070000FFFFFFFF
(1547753406.748006) can0 1CFFFF17#22FFFF3CFFFFFFFF
(1547753406.751231) can0 0CF00400#F0FF7D0000FFFFFF
(1547753406.754658) can0 1CEC0600#1022000505E3FE00
(1547753406.755680) can0 1CEC0006#110501FFFFE3FE00
(1547753406.756531) can0 18EAFF06#E5FE00
(1547753406.757481) can0 0DEF0603#0101FFFFFFFFFFF5
(1547753406.758055) can0 04EF0006#641519F00000BF0E
(1547753406.758631) can0 18FEF147#FF0000FFFFFFFFFF
(1547753406.759205) can0 18FEE706#C80A0000FFFFFFFF
(1547753406.759805) can0 18F00503#7DFFFFFFFFFFFFFF
(1547753406.761231) can0 0CF00300#FF0000FF08FFFFFF
(1547753406.761805) can0 0CEFFF00#6406007DFFFFFFFF
(1547753406.762381) can0 18FEF200#0000FFFFFFFFFFFF
(1547753406.771182) can0 0CF00400#F0FF7D0000FFFFFF
(1547753406.777355) can0 0DEF0603#0101FFFFFFFFFFF5
(1547753406.777922) can0 04EF0006#64151AF00000BF0E
(1547753406.781148) can0 0CF00300#FF0000FF08FFFFFF
(1547753406.781746) can0 0CEFFF00#6406007DFFFFFFFF
(1547753406.782325) can0 18EF0600#640E2F00FFFFFFFF
(1547753406.791201) can0 0CF00400#F0FF7D0000FFFFFF
(1547753406.796925) can0 0DEF0647#0104FFFFFFFFFFF1
(1547753406.797576) can0 0DEF0603#0101FFFFFFFFFFF5
(1547753406.798178) can0 04EF0006#64151BF00000BF0E
(1547753406.798724) can0 0CFFFE06#5C7F1D7F1DFFFFFF
(1547753406.801176) can0 0CF00300#FF0000FF08FFFFFF
(1547753406.801749) can0 0CEFFF00#6406007DFFFFFFFF
(1547753406.802329) can0 18EFFF00#64100B0B2003007D
(1547753406.802899) can0 18FEDF00#7D7E1DFFFFFFFFFF
(1547753406.803510) can0 18FEE500#CB0A0000FFFFFFFF
(1547753406.811214) can0 0CF00400#F0FF7D0000FFFFFF
(1547753406.817379) can0 0DEF0603#0101FFFFFFFFFFF5
(1547753406.817929) can0 04EF0006#64151CF00000BF0E
(1547753406.821179) can0 0CF00300#FF0000FF08FFFFFF
(1547753406.821753) can0 0CEFFF00#6406007DFFFFFFFF
(1547753406.822333) can0 18FEEF00#FFFFFF00FFFFFFFA
(1547753406.831231) can0 0CF00400#F0FF7D0000FFFFFF
(1547753406.837358) can0 0DEF0603#0101FFFFFFFFFFF5
(1547753406.837933) can0 04EF0006#64151DF00000BF0E
(1547753406.838507) can0 0CFE4947#FFFFFFFFFFFFFFFF
(1547753406.839133) can0 0CFFFF47#5DFFFFF3FFFFFFFF
(1547753406.839706) can0 0CFE4347#0000FFFF3FFFFFFF
(1547753406.840290) can0 0CFE4447#0000FFFF3FFFFFFF
(1547753406.841191) can0 0CF00300#FF0000FF08FFFFFF
(1547753406.841781) can0 0CEFFF00#6406007DFFFFFFFF
(1547753406.851218) can0 0CF00400#F0FF7D0000FFFFFF
(1547753406.854487) can0 1CEB0600#01201CDD6842DCA0
(1547753406.857361) can0 0DEF0603#0101FFFFFFFFFFF5
(1547753406.857936) can0 04EF0006#64151EF00000BF0E
(1547753406.861212) can0 0CF00300#FF0000FF08FFFFFF
(1547753406.861812) can0 0CEFFF00#6406007DFFFFFFFF
(1547753406.862399) can0 18FEF200#0000FFFFFFFFFFFF
(1547753406.871252) can0 0CF00400#F0FF7D0000FFFFFF
(1547753406.877377) can0 0DEF0603#0101FFFFFFFFFFF5
(1547753406.877951) can0 04EF0006#64151FF00000BF0E
(1547753406.878527) can0 18FEF147#FF0000FFFFFFFFFF
(1547753406.879151) can0 18FFFB06#001BFFFFFFFFFFFF
(1547753406.879750) can0 18F00503#7DFFFFFFFFFFFFFF
(1547753406.881211) can0 0CF00300#FF0000FF08FFFFFF
(1547753406.881801) can0 0CEFFF00#6406007DFFFFFFFF
(1547753406.882378) can0 18EF0600#640E3900FFFFFFFF
(1547753406.891216) can0 0CF00400#F0FF7D0000FFFFFF
(1547753406.896937) can0 0DEF0647#0104FFFFFFFFFFF1
(1547753406.897553) can0 0DEF0603#0101FFFFFFFFFFF5
(1547753406.898154) can0 04EF0006#641510F00000BF0E
(1547753406.901204) can0 0CF00300#FF0000FF08FFFFFF
(1547753406.901777) can0 0CEFFF00#6406007DFFFFFFFF
(1547753406.902359) can0 18EFFF00#64100B0B2003007D
(1547753406.902926) can0 18FEF600#FF0046FF00FFFFFF
(1547753406.903478) can0 1CEB0600#020FD58D20E37A31
(1547753406.911240) can0 0CF00400#F0FF7D0000FFFFFF
(1547753406.917376) can0 0DEF0603#0101FFFFFFFFFFF5
(1547753406.917955) can0 04EF0006#641511F00000BF0E
(1547753406.918557) can0 0CFE4947#FFFFFFFFFFFFFFFF
(1547753406.919141) can0 18FE6847#3AFFFFFFFFFFFFFF
(1547753406.919674) can0 0CFE4347#0000FFFF3FFFFFFF
(1547753406.920266) can0 18FFFF06#73FFFFFFFFFFFFFF
(1547753406.920854) can0 0CFE4447#0000FFFF3FFFFFFF
(1547753406.921431) can0 0CF00300#FF0000FF08FFFFFF
(1547753406.922012) can0 0CEFFF00#6406007DFFFFFFFF
(1547753406.922588) can0 0CFFFE06#5C7F1D7F1DFFFFFF
(1547753406.923162) can0 18EFFA00#6401FF0000FFFFFF
(1547753406.931266) can0 0CF00400#F0FF7D0000FFFFFF
(1547753406.937445) can0 0DEF0603#0101FFFFFFFFFFF5
(1547753406.937925) can0 04EF0006#641512F00000BF0E
(1547753406.941246) can0 0CF00300#FF0000FF08FFFFFF
(1547753406.941791) can0 0CEFFF00#6406007DFFFFFFFF
(1547753406.951301) can0 0CF00400#F0FF7D0000FFFFFF
(1547753406.954575) can0 1CEB0600#03F1C044FFFF0401
(1547753406.957452) can0 0DEF0603#0101FFFFFFFFFFF5
(1547753406.958003) can0 04EF0006#641513F00000BF0E
(1547753406.958576) can0 0CFFFF47#5EFFFFFFFFFFFFFF
(1547753406.959149) can0 18FEF147#FF0000FFFFFFFFFF
(1547753406.959775) can0 18FEFC47#FFFFFFFFFFFFFFFF
(1547753406.960351) can0 18EF0047#F220610FFFFFFFFF
(1547753406.960952) can0 18F00647#FFCFFFFFFFFFFFFF
(1547753406.961524) can0 0CEFFF00#6406007DFFFFFFFF
(1547753406.962063) can0 0CF00300#FF0000FF08FFFFFF
(1547753406.962657) can0 18FEF200#0000FFFFFFFFFFFF
(1547753406.963233) can0 1CFDDF47#FCFFFFFFFFFFFFFF
(1547753406.963839) can0 18F00503#7DFFFFFFFFFFFFFF
(1547753406.971280) can0 0CF00400#F0FF7D0000FFFFFF
(1547753406.977453) can0 0DEF0603#0101FFFFFFFFFFF5
(1547753406.978003) can0 04EF0006#641514F00000BF0E
(1547753406.978578) can0 0C000006#30FFFFFFF8FFFFFF
(1547753406.981254) can0 0CF00300#FF0000FF08FFFFFF
(1547753406.981853) can0 0CEFFF00#6406007DFFFFFFFF
(1547753406.982404) can0 18EF0600#640E4300FFFFFFFF
(1547753406.991310) can0 0CF00400#F0FF7D0000FFFFFF
(1547753406.997006) can0 0DEF0647#0104FFFFFFFFFFF1
(1547753406.997606) can0 0DEF0603#0101FFFFFFFFFFF5
(1547753406.998210) can0 04EF0006#641515F00000BF0E
(1547753406.998756) can0 0CFFFE06#5C7F1D7F1DFFFFFF
(1547753406.999332) can0 18FFFB06#00057DF8FFFFFFFF
(1547753407.001216) can0 0CF00300#FF0000FF08FFFFFF
(1547753407.001838) can0 0CEFFF00#6406007DFFFFFFFF
(1547753407.002384) can0 18EFFF00#64100B0B2003007D
(1547753407.003514) can0 1CEB0600#04204E0001FAC9FA
(1547753407.011269) can0 0CF00400#F0FF7D0000FFFFFF
(1547753407.017440) can0 0DEF0603#0101FFFFFFFFFFF5
(1547753407.018009) can0 04EF0006#641516F00000BF0E
(1547753407.021261) can0 0CF00300#FF0000FF08FFFFFF
(1547753407.021836) can0 0CEFFF00#6406007DFFFFFFFF
(1547753407.022412) can0 18FEEE00#4A43FFFFFFFFFFFF
(1547753407.031294) can0 0CF00400#F0FF7D0000FFFFFF
(1547753407.037474) can0 0DEF0603#0101FFFFFFFFFFF5
(1547753407.038017) can0 04EF0006#641517F00000BF0E
(1547753407.038597) can0 0CFE4947#FFFFFFFFFFFFFFFF
(1547753407.039222) can0 0CFE4347#0000FFFF3FFFFFFF
(1547753407.039794) can0 0CFE4447#0000FFFF3FFFFFFF
(1547753407.041250) can0 0CF00300#FF0000FF08FFFFFF
(1547753407.041879) can0 0CEFFF00#6406007DFFFFFFFF
(1547753407.051291) can0 0CF00400#F0FF7D0000FFFFFF
(1547753407.051856) can0 18FEDF00#7D7E1DFFFFFFFFFF
(1547753407.054619) can0 1CEB0600#05C05D0000FFFFFF
(1547753407.057433) can0 0DEF0603#0101FFFFFFFFFFF5
(1547753407.057966) can0 04EF0006#641518F00000BF0E
(1547753407.060757) can0 1CEC0006#13220005FFE3FE00
(1547753407.061333) can0 0CF00300#FF0000FF08FFFFFF
(1547753407.061909) can0 0CEFFF00#6406007DFFFFFFFF
(1547753407.062484) can0 18FEF200#0000FFFFFFFFFFFF
(1547753407.071286) can0 0CF00400#F0FF7D0000FFFFFF
(1547753407.077413) can0 0DEF0603#0101FFFFFFFFFFF5
(1547753407.077985) can0 04EF0006#641519F00000BF0E
(1547753407.078562) can0 18FEF147#FF0000FFFFFFFFFF
(1547753407.079187) can0 18F00503#7DFFFFFFFFFFFFFF
(1547753407.081220) can0 0CF00300#FF0000FF08FFFFFF
(1547753407.081810) can0 0CEFFF00#6406007DFFFFFFFF
(1547753407.082386) can0 18EF0600#640E4D00FFFFFFFF
(1547753407.091280) can0 0CF00400#F0FF7D0000FFFFFF
(1547753407.096979) can0 0DEF0647#0104FFFFFFFFFFF1
(1547753407.097577) can0 0DEF0603#0101FFFFFFFFFFF5
(1547753407.098126) can0 04EF0006#64151AF00000BF0E
(1547753407.101227) can0 0CF00300#FF0000FF08FFFFFF
(1547753407.101801) can0 0CEFFF00#6406007DFFFFFFFF
(1547753407.102390) can0 18EFFF00#64100B0B2003007D
(1547753407.102964) can0 18FEF700#FFFFFFFFFFFFFA00
(1547753407.111293) can0 0CF00400#F0FF7D0000FFFFFF
(1547753407.117421) can0 0DEF0603#0101FFFFFFFFFFF5
(1547753407.118016) can0 04EF0006#64151BF00000BF0E
(1547753407.118578) can0 0CFE4947#FFFFFFFFFFFFFFFF
(1547753407.119193) can0 0CFE4347#0000FFFF3FFFFFFF
(1547753407.119774) can0 0CFE4447#0000FFFF3FFFFFFF
(1547753407.120353) can0 0CFFFE06#5C7F1D7F1DFFFFFF
(1547753407.121243) can0 0CF00300#FF0000FF08FFFFFF
(1547753407.121842) can0 0CEFFF00#6406007DFFFFFFFF
(1547753407.131280) can0 0CF00400#F0FF7D0000FFFFFF
(1547753407.137431) can0 0DEF0603#0101FFFFFFFFFFF5
(1547753407.137995) can0 04EF0006#64151CF00000BF0E
(1547753407.141247) can0 0CF00300#FF0000FF08FFFFFF
(1547753407.141819) can0 0CEFFF00#6406007DFFFFFFFF
(1547753407.151288) can0 0CF00400#F0FF7D0000FFFFFF
(1547753407.157426) can0 0DEF0603#0101FFFFFFFFFFF5
(1547753407.157999) can0 04EF0006#64151DF00000BF0E
(1547753407.158575) can0 18FEF147#FF0000FFFFFFFFFF
(1547753407.159199) can0 18F00503#7DFFFFFFFFFFFFFF
(1547753407.161275) can0 0CF00300#FF0000FF08FFFFFF
(1547753407.161849) can0 0CEFFF00#6406007DFFFFFFFF
(1547753407.162426) can0 18FEF200#0000FFFFFFFFFFFF
(1547753407.171300) can0 0CF00400#F0FF7D0000FFFFFF
(1547753407.177427) can0 0DEF0603#0101FFFFFFFFFFF5
(1547753407.177999) can0 04EF0006#64151EF00000BF0E
(1547753407.181251) can0 0CF00300#FF0000FF08FFFFFF
(1547753407.181825) can0 0CEFFF00#6406007DFFFFFFFF
(1547753407.182367) can0 18EF0600#640E5700FFFFFFFF
(1547753407.191303) can0 0CF00400#F0FF7D0000FFFFFF
(1547753407.197004) can0 0DEF0647#0104FFFFFFFFFFF1
(1547753407.197603) can0 0DEF0603#0101FFFFFFFFFFF5
(1547753407.198205) can0 04EF0006#64151FF00000BF0E
(1547753407.198734) can0 0CFFFE06#5C7F1D7F1DFFFFFF
(1547753407.201255) can0 0CF00300#FF0000FF08FFFFFF
(1547753407.201828) can0 0CEFFF00#6406007DFFFFFFFF
(1547753407.202405) can0 18EFFF00#64100B0B2003007D
(1547753407.203003) can0 18FED500#FFFFFCFFFFFFFFFF
(1547753407.211292) can0 0CF00400#F0FF7D0000FFFFFF
(1547753407.217444) can0 0DEF0603#0101FFFFFFFFFFF5
(1547753407.218005) can0 04EF0006#641510F00000BF0E
(1547753407.221258) can0 0CF00300#FF0000FF08FFFFFF
(1547753407.221857) can0 0CEFFF00#6406007DFFFFFFFF
(1547753407.231311) can0 0CF00400#F0FF7D0000FFFFFF
(1547753407.237438) can0 0DEF0603#0101FFFFFFFFFFF5
(1547753407.237991) can0 04EF0006#641511F00000BF0E
(1547753407.238569) can0 0CFE4947#FFFFFFFFFFFFFFFF
(1547753407.239210) can0 0CFE4347#0000FFFF3FFFFFFF
(1547753407.239785) can0 0CFE4447#0000FFFF3FFFFFFF
(1547753407.241261) can0 0CF00300#FF0000FF08FFFFFF
(1547753407.241834) can0 0CEFFF00#6406007DFFFFFFFF
(1547753407.242411) can0 18FDB300#FFFF5427FFFFFFFF
(1547753407.251297) can0 0CF00400#F0FF7D0000FFFFFF
(1547753407.257425) can0 0DEF0603#0101FFFFFFFFFFF5
(1547753407.258011) can0 04EF0006#641512F00000BF0E
(1547753407.261314) can0 0CF00300#FF0000FF08FFFFFF
(1547753407.261887) can0 0CEFFF00#6406007DFFFFFFFF
(1547753407.262463) can0 18FEF200#0000FFFFFFFFFFFF
(1547753407.271294) can0 0CF00400#F0FF7D0000FFFFFF
(1547753407.277468) can0 0DEF0603#0101FFFFFFFFFFF5
(1547753407.278014) can0 04EF0006#641513F00000BF0E
(1547753407.278592) can0 18FEF147#FF0000FFFFFFFFFF
(1547753407.279217) can0 18F00503#7DFFFFFFFFFFFFFF
(1547753407.281266) can0 0CF00300#FF0000FF08FFFFFF
(1547753407.281840) can0 0CEFFF00#6406007DFFFFFFFF
(1547753407.282417) can0 18EF0600#640E6100FFFFFFFF
(1547753407.291319) can0 0CF00400#F0FF7D0000FFFFFF
(1547753407.297021) can0 0DEF0647#0104FFFFFFFFFFF1
(1547753407.297695) can0 0DEF0603#0101FFFFFFFFFFF5
(1547753407.298244) can0 04EF0006#641514F00000BF0E
(1547753407.301270) can0 0CF00300#FF0000FF08FFFFFF
(1547753407.301846) can0 0CEFFF00#6406007DFFFFFFFF
(1547753407.302420) can0 18EFFF00#64100B0B2003007D
(1547753407.303019) can0 18FEDF00#7D7E1DFFFFFFFFFF
(1547753407.311323) can0 0CF00400#F0FF7D0000FFFFFF
(1547753407.317475) can0 0DEF0603#0101FFFFFFFFFFF5
(1547753407.318021) can0 04EF0006#641515F00000BF0E
(1547753407.318599) can0 0CFE4947#FFFFFFFFFFFFFFFF
(1547753407.319224) can0 0CFFFF47#5DFFFFF3FFFFFFFF
(1547753407.319782) can0 0CFE4347#0000FFFF3FFFFFFF
(1547753407.320384) can0 0CFE4447#0000FFFF3FFFFFFF
(1547753407.320997) can0 0CFFFE06#5C7F1D7F1DFFFFFF
(1547753407.321573) can0 0CEFFF00#6406007DFFFFFFFF
(1547753407.322149) can0 0CF00300#FF0000FF08FFFFFF
(1547753407.322724) can0 18FEEF00#FFFFFF00FFFFFFFA
(1547753407.331325) can0 0CF00400#F0FF7D0000FFFFFF
(1547753407.337441) can0 0DEF0603#0101FFFFFFFFFFF5
(1547753407.338002) can0 04EF0006#641516F00000BF0E
(1547753407.341255) can0 0CF00300#FF0000FF08FFFFFF
(1547753407.341851) can0 0CEFFF00#6406007DFFFFFFFF
(1547753407.351329) can0 0CF00400#F0FF7D0000FFFFFF
(1547753407.357481) can0 0DEF0603#0101FFFFFFFFFFF5
(1547753407.358028) can0 04EF0006#641517F00000BF0E
(1547753407.358606) can0 18FEF147#FF0000FFFFFFFFFF
(1547753407.359230) can0 18F00503#7DFFFFFFFFFFFFFF
(1547753407.361331) can0 0CF00300#FF0000FF08FFFFFF
(1547753407.361905) can0 0CEFFF00#6406007DFFFFFFFF
(1547753407.362481) can0 18FEF200#0000FFFFFFFFFFFF
(1547753407.371333) can0 0CF00400#F0FF7D0000FFFFFF
(1547753407.377483) can0 0DEF0603#0101FFFFFFFFFFF5
(1547753407.378009) can0 04EF0006#641518F00000BF0E
(1547753407.381309) can0 0CF00300#FF0000FF08FFFFFF
(1547753407.381892) can0 0CEFFF00#6406007DFFFFFFFF
(1547753407.382460) can0 18EF0600#640E6B00FFFFFFFF
(1547753407.391336) can0 0CF00400#F0FF7D0000FFFFFF
(1547753407.397038) can0 0DEF0647#0104FFFFFFFFFFF1
(1547753407.397637) can0 0DEF0603#0101FFFFFFFFFFF5
(1547753407.398209) can0 04EF0006#641519F00000BF0E
(1547753407.398758) can0 0CFFFE06#5C7F1D7F1DFFFFFF
(1547753407.399359) can0 18FFFF06#73FFFFFFFFFFFFFF
(1547753407.401271) can0 0CF00300#FF0000FF08FFFFFF
(1547753407.401858) can0 0CEFFF00#6406007DFFFFFFFF
(1547753407.402410) can0 18EFFF00#64100B0B2003007D
(1547753407.402995) can0 18FEF600#FF0046FF00FFFFFF
(1547753407.411323) can0 0CF00400#F0FF7D0000FFFFFF
(1547753407.417476) can0 0DEF0603#0101FFFFFFFFFFF5
(1547753407.418010) can0 04EF0006#64151AF00000BF0E
(1547753407.421289) can0 0CF00300#FF0000FF08FFFFFF
(1547753407.421862) can0 0CEFFF00#6406007DFFFFFFFF
(1547753407.428041) can0 1CFFFF17#22FFFF3CFFFFFFFF
(1547753407.431340) can0 0CF00400#F0FF7D0000FFFFFF
(1547753407.437491) can0 0DEF0603#0101FFFFFFFFFFF5
(1547753407.438038) can0 04EF0006#64151BF00000BF0E
(1547753407.438641) can0 0CFE4947#FFFFFFFFFFFFFFFF
(1547753407.439241) can0 1CFDDF47#FCFFFFFFFFFFFFFF
(1547753407.439790) can0 0CFE4347#0000FFFF3FFFFFFF
(1547753407.440391) can0 0CFE4447#0000FFFF3FFFFFFF
(1547753407.441317) can0 0CF00300#FF0000FF08FFFFFF
(1547753407.441893) can0 0CEFFF00#6406007DFFFFFFFF
(1547753407.451344) can0 0CF00400#F0FF7D0000FFFFFF
(1547753407.451916) can0 18FFFA00#022C0000180C00A5
(1547753407.457496) can0 0DEF0603#0101FFFFFFFFFFF5
(1547753407.458043) can0 04EF0006#64151CF00000BF0E
(1547753407.461344) can0 0CF00300#FF0000FF08FFFFFF
(1547753407.461918) can0 0CEFFF00#6406007DFFFFFFFF
(1547753407.462496) can0 18FEF200#0000FFFFFFFFFFFF
(1547753407.471347) can0 0CF00400#F0FF7D0000FFFFFF
(1547753407.477498) can0 0DEF0603#0101FFFFFFFFFFF5
(1547753407.478071) can0 04EF0006#64151DF00000BF0E
(1547753407.478648) can0 18FEF147#FF0000FFFFFFFFFF
(1547753407.479249) can0 18F00647#FFCFFFFFFFFFFFFF
(1547753407.479822) can0 18F00503#7DFFFFFFFFFFFFFF
(1547753407.481319) can0 0CF00300#FF0000FF08FFFFFF
(1547753407.481923) can0 0CEFFF00#6406007DFFFFFFFF
(1547753407.482499) can0 18EF0600#640E7500FFFFFFFF
(1547753407.483059) can0 18FEF500#C8FFFFFFFF3EFFFF
(1547753407.491321) can0 0CF00400#F0FF7D0000FFFFFF
(1547753407.497040) can0 0DEF0647#0104FFFFFFFFFFF1
(1547753407.497652) can0 0DEF0603#0101FFFFFFFFFFF5
(1547753407.498252) can0 04EF0006#64151EF00000BF0E
(1547753407.501302) can0 0CF00300#FF0000FF08FFFFFF
(1547753407.501901) can0 0CEFFF00#6406007DFFFFFFFF
(1547753407.502452) can0 18EFFF00#64100B0B2003007D
(1547753407.511339) can0 0CF00400#F0FF7D0000FFFFFF
(1547753407.517505) can0 0DEF0603#0101FFFFFFFFFFF5
(1547753407.518078) can0 04EF0006#64151FF00000BF0E
(1547753407.518656) can0 0CFE4947#FFFFFFFFFFFFFFFF
(1547753407.519254) can0 0CFE4347#0000FFFF3FFFFFFF
(1547753407.519854) can0 0CFE4447#0000FFFF3FFFFFFF
(1547753407.520417) can0 0CFFFE06#5C7F1D7F1DFFFFFF
(1547753407.521317) can0 0CF00300#FF0000FF08FFFFFF
(1547753407.521905) can0 0CEFFF00#6406007DFFFFFFFF
(1547753407.522442) can0 18FE6900#F6257426FFFF60FE
(1547753407.531332) can0 0CF00400#F0FF7D0000FFFFFF
(1547753407.537509) can0 0DEF0603#0101FFFFFFFFFFF5
(1547753407.538031) can0 04EF0006#641510F00000BF0E
(1547753407.541309) can0 0CF00300#FF0000FF08FFFFFF
(1547753407.541907) can0 0CEFFF00#6406007DFFFFFFFF
(1547753407.551361) can0 0CF00400#F0FF7D0000FFFFFF
(1547753407.551933) can0 18FEDF00#7D7E1DFFFFFFFFFF
(1547753407.557512) can0 0DEF0603#0101FFFFFFFFFFF5
(1547753407.558060) can0 04EF0006#641511F00000BF0E
(1547753407.558637) can0 18FEF147#FF0000FFFFFFFFFF
(1547753407.559261) can0 18F00503#7DFFFFFFFFFFFFFF
(1547753407.561362) can0 0CF00300#FF0000FF08FFFFFF
(1547753407.561960) can0 0CEFFF00#6406007DFFFFFFFF
(1547753407.562537) can0 18FEF200#0000FFFFFFFFFFFF
(1547753407.571353) can0 0CF00400#F0FF7D0000FFFFFF
(1547753407.577516) can0 0DEF0603#0101FFFFFFFFFFF5
(1547753407.578063) can0 04EF0006#641512F00000BF0E
(1547753407.581315) can0 0CF00300#FF0000FF08FFFFFF
(1547753407.581889) can0 0CEFFF00#6406007DFFFFFFFF
(1547753407.582491) can0 18EF0600#640E7F00FFFFFFFF
(1547753407.591395) can0 0CF00400#F0FF7D0000FFFFFF
(1547753407.597069) can0 0DEF0647#0104FFFFFFFFFFF1
(1547753407.597668) can0 0DEF0603#0101FFFFFFFFFFF5
(1547753407.598268) can0 04EF0006#641513F00000BF0E
(1547753407.598816) can0 0CFFFE06#5C7F1D7F1DFFFFFF
(1547753407.601319) can0 0CF00300#FF0000FF08FFFFFF
(1547753407.601916) can0 0CEFFF00#6406007DFFFFFFFF
(1547753407.602469) can0 18EFFF00#64100B0B2003007D
(1547753407.611372) can0 0CF00400#F0FF7D0000FFFFFF
(1547753407.617522) can0 0DEF0603#0101FFFFFFFFFFF5
(1547753407.618070) can0 04EF0006#641514F00000BF0E
(1547753407.621323) can0 0CF00300#FF0000FF08FFFFFF
(1547753407.621922) can0 0CEFFF00#6406007DFFFFFFFF
(1547753407.631400) can0 0CF00400#F0FF7D0000FFFFFF
(1547753407.637526) can0 0DEF0603#0101FFFFFFFFFFF5
(1547753407.638097) can0 04EF0006#641515F00000BF0E
(1547753407.638677) can0 0CFE4947#FFFFFFFFFFFFFFFF
(1547753407.639276) can0 0CFE4347#0000FFFF3FFFFFFF
(1547753407.639873) can0 0CFE4447#0000FFFF3FFFFFFF
(1547753407.641326) can0 0CF00300#FF0000FF08FFFFFF
(1547753407.641925) can0 0CEFFF00#6406007DFFFFFFFF
(1547753407.642501) can0 18FD7C00#F880F1F000CF03FC
(1547753407.651366) can0 0CF00400#F0FF7D0000FFFFFF
(1547753407.657517) can0 0DEF0603#0101FFFFFFFFFFF5
(1547753407.658101) can0 04EF0006#641516F00000BF0E
(1547753407.661380) can0 0CF00300#FF0000FF08FFFFFF
(1547753407.661953) can0 0CEFFF00#6406007DFFFFFFFF
(1547753407.662529) can0 18FEF200#0000FFFFFFFFFFFF
(1547753407.671382) can0 0CF00400#F0FF7D0000FFFFFF
(1547753407.677532) can0 0DEF0603#0101FFFFFFFFFFF5
(1547753407.678105) can0 04EF0006#641517F00000BF0E
(1547753407.678657) can0 18FEF147#FF0000FFFFFFFFFF
(1547753407.679283) can0 18F00503#7DFFFFFFFFFFFFFF
(1547753407.681333) can0 0CF00300#FF0000FF08FFFFFF
(1547753407.681932) can0 0CEFFF00#6406007DFFFFFFFF
(1547753407.682470) can0 18EF0600#640E8900FFFFFFFF
(1547753407.691385) can0 0CF00400#F0FF7D0000FFFFFF
(1547753407.697113) can0 0DEF0647#0104FFFFFFFFFFF1
(1547753407.697713) can0 0DEF0603#0101FFFFFFFFFFF5
(1547753407.698288) can0 04EF0006#641518F00000BF0E
(1547753407.701363) can0 0CF00300#FF0000FF08FFFFFF
(1547753407.701938) can0 0CEFFF00#6406007DFFFFFFFF
(1547753407.702489) can0 18EFFF00#64100B0B2003007D
(1547753407.711391) can0 0CF00400#F0FF7D0000FFFFFF
(1547753407.717542) can0 0DEF0603#0101FFFFFFFFFFF5
(1547753407.718114) can0 04EF0006#641519F00000BF0E
(1547753407.718692) can0 0CFE4947#FFFFFFFFFFFFFFFF
(1547753407.719291) can0 0CFE4347#0000FFFF3FFFFFFF
(1547753407.719890) can0 0CFE4447#0000FFFF3FFFFFFF
(1547753407.720452) can0 0CFFFE06#5C7F1D7F1DFFFFFF
(1547753407.721377) can0 0CF00300#FF0000FF08FFFFFF
(1547753407.721965) can0 0CEFFF00#6406007DFFFFFFFF
(1547753407.731381) can0 0CF00400#F0FF7D0000FFFFFF
(1547753407.737531) can0 0DEF0603#0101FFFFFFFFFFF5
(1547753407.738092) can0 04EF0006#64151AF00000BF0E
(1547753407.741369) can0 0CF00300#FF0000FF08FFFFFF
(1547753407.741944) can0 0CEFFF00#6406007DFFFFFFFF
(1547753407.742519) can0 18FDB300#FFFF5427FFFFFFFF
(1547753407.743095) can0 1CEFFF00#64070000FFFFFFFF
(1547753407.751397) can0 0CF00400#F0FF7D0000FFFFFF
(1547753407.757549) can0 0DEF0603#0101FFFFFFFFFFF5
(1547753407.758120) can0 04EF0006#64151BF00000BF0E
(1547753407.758698) can0 18FEF147#FF0000FFFFFFFFFF
(1547753407.759298) can0 18F00503#7DFFFFFFFFFFFFFF
(1547753407.761384) can0 0CF00300#FF0000FF08FFFFFF
(1547753407.761997) can0 0CEFFF00#6406007DFFFFFFFF
(1547753407.762574) can0 18FEF200#0000FFFFFFFFFFFF
(1547753407.771426) can0 0CF00400#F0FF7D0000FFFFFF
(1547753407.776652) can0 18EAFF06#E5FE00
(1547753407.777627) can0 0DEF0603#0101FFFFFFFFFFF5
(1547753407.778174) can0 04EF0006#64151CF00000BF0E
(1547753407.781352) can0 0CF00300#FF0000FF08FFFFFF
(1547753407.781951) can0 0CEFFF00#6406007DFFFFFFFF
(1547753407.782526) can0 18EF0600#640E9300FFFFFFFF
(1547753407.791404) can0 0CF00400#F0FF7D0000FFFFFF
(1547753407.797106) can0 0DEF0647#0104FFFFFFFFFFF1
(1547753407.797779) can0 0DEF0603#0101FFFFFFFFFFF5
(1547753407.798355) can0 04EF0006#64151DF00000BF0E
(1547753407.798927) can0 0CFFFE06#5C7F1D7F1DFFFFFF
(1547753407.799480) can0 18FEE706#C80A0000FFFFFFFF
(1547753407.801366) can0 0CF00300#FF0000FF08FFFFFF
(1547753407.801955) can0 0CEFFF00#6406007DFFFFFFFF
(1547753407.802505) can0 18EFFF00#64100B0B2003007D
(1547753407.803090) can0 18FEDF00#7D7E1DFFFFFFFFFF
(1547753407.803692) can0 18FEE500#CB0A0000FFFFFFFF
(1547753407.811420) can0 0CF00400#F0FF7D0000FFFFFF
(1547753407.817558) can0 0DEF0603#0101FFFFFFFFFFF5
(1547753407.818132) can0 04EF0006#64151EF00000BF0E
(1547753407.821384) can0 0CF00300#FF0000FF08FFFFFF
(1547753407.821935) can0 0CEFFF00#6406007DFFFFFFFF
(1547753407.822534) can0 18FEEF00#FFFFFF00FFFFFFFA
(1547753407.831436) can0 0CF00400#F0FF7D0000FFFFFF
(1547753407.837526) can0 0DEF0603#0101FFFFFFFFFFF5
(1547753407.838098) can0 04EF0006#64151FF00000BF0E
(1547753407.838676) can0 0CFE4947#FFFFFFFFFFFFFFFF
(1547753407.839276) can0 0CFFFF47#5DFFFFF3FFFFFFFF
(1547753407.839862) can0 0CFE4347#0000FFFF3FFFFFFF
(1547753407.840457) can0 0CFE4447#0000FFFF3FFFFFFF
(1547753407.841358) can0 0CF00300#FF0000FF08FFFFFF
(1547753407.841939) can0 0CEFFF00#6406007DFFFFFFFF
(1547753407.851382) can0 0CF00400#F0FF7D0000FFFFFF
(1547753407.857538) can0 0DEF0603#0101FFFFFFFFFFF5
(1547753407.858086) can0 04EF0006#641510F00000BF0E
(1547753407.861388) can0 0CF00300#FF0000FF08FFFFFF
(1547753407.861986) can0 0CEFFF00#6406007DFFFFFFFF
(1547753407.862563) can0 18FEF200#0000FFFFFFFFFFFF
(1547753407.871391) can0 0CF00400#F0FF7D0000FFFFFF
(1547753407.877541) can0 0DEF0603#0101FFFFFFFFFFF5
(1547753407.878113) can0 04EF0006#641511F00000BF0E
(1547753407.878691) can0 18FEF147#FF0000FFFFFFFFFF
(1547753407.879291) can0 18FFFB06#001BFFFFFFFFFFFF
(1547753407.879889) can0 18F00503#7DFFFFFFFFFFFFFF
(1547753407.881362) can0 0CF00300#FF0000FF08FFFFFF
(1547753407.881940) can0 0CEFFF00#6406007DFFFFFFFF
(1547753407.882517) can0 18EF0600#640E9D00FFFFFFFF
(1547753407.891415) can0 0CF00400#F0FF7D0000FFFFFF
(1547753407.897114) can0 0DEF0647#0104FFFFFFFFFFF1
(1547753407.897719) can0 0DEF0603#0101FFFFFFFFFFF5
(1547753407.898295) can0 04EF0006#641512F00000BF0E
(1547753407.901370) can0 0CF00300#FF0000FF08FFFFFF
(1547753407.901943) can0 0CEFFF00#6406007DFFFFFFFF
(1547753407.902520) can0 18EFFF00#64100B0B2003007D
(1547753407.903093) can0 18FEF600#FF0046FF00FFFFFF
(1547753407.911423) can0 0CF00400#F0FF7D0000FFFFFF
(1547753407.917548) can0 0DEF0603#0101FFFFFFFFFFF5
(1547753407.918121) can0 04EF0006#641513F00000BF0E
(1547753407.918698) can0 0CFE4947#FFFFFFFFFFFFFFFF
(1547753407.919298) can0 18FE6847#3AFFFFFFFFFFFFFF
(1547753407.919841) can0 0CFE4347#0000FFFF3FFFFFFF
(1547753407.920448) can0 18FFFF06#73FFFFFFFFFFFFFF
(1547753407.921022) can0 0CFE4447#0000FFFF3FFFFFFF
(1547753407.921598) can0 0CF00300#FF0000FF08FFFFFF
(1547753407.922197) can0 0CEFFF00#6406007DFFFFFFFF
(1547753407.922772) can0 0CFFFE06#5C7F1D7F1DFFFFFF
(1547753407.923348) can0 18EFFA00#6401FF0000FFFFFF
(1547753407.931449) can0 0CF00400#F0FF7D0000FFFFFF
(1547753407.937605) can0 0DEF0603#0101FFFFFFFFFFF5
(1547753407.938177) can0 04EF0006#641514F00000BF0E
(1547753407.941432) can0 0CF00300#FF0000FF08FFFFFF
(1547753407.941969) can0 0CEFFF00#6406007DFFFFFFFF
(1547753407.951483) can0 0CF00400#F0FF7D0000FFFFFF
(1547753407.957606) can0 0DEF0603#0101FFFFFFFFFFF5
(1547753407.958183) can0 04EF0006#641515F00000BF0E
(1547753407.958757) can0 0CFFFF47#5EFFFFFFFFFFFFFF
(1547753407.959358) can0 18FEF147#FF0000FFFFFFFFFF
(1547753407.959930) can0 18FEFC47#FFFFFFFFFFFFFFFF
(1547753407.960533) can0 18EF0047#F220610FFFFFFFFF
(1547753407.961132) can0 18F00647#FFCFFFFFFFFFFFFF
(1547753407.961665) can0 0CF00300#FF0000FF08FFFFFF
(1547753407.962256) can0 0CEFFF00#6406007DFFFFFFFF
(1547753407.962825) can0 18FEF200#0000FFFFFFFFFFFF
(1547753407.963415) can0 1CFDDF47#FCFFFFFFFFFFFFFF
(1547753407.964006) can0 18F00503#7DFFFFFFFFFFFFFF
(1547753407.971487) can0 0CF00400#F0FF7D0000FFFFFF
(1547753407.977583) can0 0DEF0603#0101FFFFFFFFFFF5
(1547753407.978163) can0 04EF0006#641516F00000BF0E
(1547753407.978727) can0 0C000006#30FFFFFFF8FFFFFF
(1547753407.981408) can0 0CF00300#FF0000FF08FFFFFF
(1547753407.982018) can0 0CEFFF00#6406007DFFFFFFFF
(1547753407.982585) can0 18EF0600#640EA700FFFFFFFF
(1547753407.991490) can0 0CF00400#F0FF7D0000FFFFFF
(1547753407.997188) can0 0DEF0647#0104FFFFFFFFFFF1
(1547753407.997788) can0 0DEF0603#0101FFFFFFFFFFF5
(1547753407.998365) can0 04EF0006#641517F00000BF0E
(1547753407.998913) can0 0CFFFE06#5C7F1D7F1DFFFFFF
(1547753407.999490) can0 18FFFB06#00057DF8FFFFFFFF
(1547753408.001409) can0 0CF00300#FF0000FF08FFFFFF
(1547753408.001992) can0 0CEFFF00#6406007DFFFFFFFF
(1547753408.002589) can0 18EFFF00#64100B0B2003007D
(1547753408.011458) can0 0CF00400#F0FF7D0000FFFFFF
(1547753408.017615) can0 0DEF0603#0101FFFFFFFFFFF5
(1547753408.018200) can0 04EF0006#641518F00000BF0E
(1547753408.021442) can0 0CF00300#FF0000FF08FFFFFF
(1547753408.022018) can0 0CEFFF00#6406007DFFFFFFFF
(1547753408.022592) can0 18FEEE00#4A43FFFFFFFFFFFF
(1547753408.031494) can0 0CF00400#F0FF7D0000FFFFFF
(1547753408.037620) can0 0DEF0603#0101FFFFFFFFFFF5
(1547753408.038214) can0 04EF0006#641519F00000BF0E
(1547753408.038791) can0 0CFE4947#FFFFFFFFFFFFFFFF
(1547753408.039390) can0 0CFE4347#0000FFFF3FFFFFFF
(1547753408.039987) can0 0CFE4447#0000FFFF3FFFFFFF
(1547753408.041489) can0 0CF00300#FF0000FF08FFFFFF
(1547753408.042067) can0 0CEFFF00#6406007DFFFFFFFF
(1547753408.051508) can0 0CF00400#F0FF7D0000FFFFFF
(1547753408.052083) can0 18FEDF00#7D7E1DFFFFFFFFFF
(1547753408.057595) can0 0DEF0603#0101FFFFFFFFFFF5
(1547753408.058214) can0 04EF0006#64151AF00000BF0E
(1547753408.061510) can0 0CF00300#FF0000FF08FFFFFF
(1547753408.062086) can0 0CEFFF00#6406007DFFFFFFFF
(1547753408.062660) can0 18FEF200#0000FFFFFFFFFFFF
(1547753408.071516) can0 0CF00400#F0FF7D0000FFFFFF
(1547753408.077664) can0 0DEF0603#0101FFFFFFFFFFF5
(1547753408.078213) can0 04EF0006#64151BF00000BF0E
(1547753408.078792) can0 18FEF147#FF0000FFFFFFFFFF
(1547753408.079388) can0 18F00503#7DFFFFFFFFFFFFFF
(1547753408.081489) can0 0CF00300#FF0000FF08FFFFFF
(1547753408.082066) can0 0CEFFF00#6406007DFFFFFFFF
(1547753408.082639) can0 18EF0600#640EB100FFFFFFFF
(1547753408.088190) can0 1CFFFF17#22FFFF3CFFFFFFFF
(1547753408.091459) can0 0CF00400#F0FF7D0000FFFFFF
(1547753408.097148) can0 0DEF0647#0104FFFFFFFFFFF1
(1547753408.097744) can0 0DEF0603#0101FFFFFFFFFFF5
(1547753408.098316) can0 04EF0006#64151CF00000BF0E
(1547753408.101455) can0 0CF00300#FF0000FF08FFFFFF
(1547753408.102078) can0 0CEFFF00#6406007DFFFFFFFF
(1547753408.102650) can0 18EFFF00#64100B0B2003007D
(1547753408.103225) can0 18FEF700#FFFFFFFFFFFFFA00
(1547753408.111529) can0 0CF00400#F0FF7D0000FFFFFF
(1547753408.117678) can0 0DEF0603#0101FFFFFFFFFFF5
(1547753408.118228) can0 04EF0006#64151DF00000BF0E
(1547753408.118804) can0 0CFE4947#FFFFFFFFFFFFFFFF
(1547753408.119402) can0 0CFE4347#0000FFFF3FFFFFFF
(1547753408.119956) can0 0CFE4447#0000FFFF3FFFFFFF
(1547753408.120557) can0 0CFFFE06#5C7F1D7F1DFFFFFF
(1547753408.121505) can0 0CF00300#FF0000FF08FFFFFF
(1547753408.122106) can0 0CEFFF00#6406007DFFFFFFFF
(1547753408.131534) can0 0CF00400#F0FF7D0000FFFFFF
(1547753408.137660) can0 0DEF0603#0101FFFFFFFFFFF5
(1547753408.138229) can0 04EF0006#64151EF00000BF0E
(1547753408.141507) can0 0CF00300#FF0000FF08FFFFFF
(1547753408.142040) can0 0CEFFF00#6406007DFFFFFFFF
(1547753408.151535) can0 0CF00400#F0FF7D0000FFFFFF
(1547753408.157659) can0 0DEF0603#0101FFFFFFFFFFF5
(1547753408.158236) can0 04EF0006#64151FF00000BF0E
(1547753408.158812) can0 18FEF147#FF0000FFFFFFFFFF
(1547753408.159411) can0 18F00503#7DFFFFFFFFFFFFFF
(1547753408.161537) can0 0CF00300#FF0000FF08FFFFFF
(1547753408.162114) can0 0CEFFF00#6406007DFFFFFFFF
(1547753408.162687) can0 18FEF200#0000FFFFFFFFFFFF
(1547753408.171535) can0 0CF00400#F0FF7D0000FFFFFF
(1547753408.177668) can0 0DEF0603#0101FFFFFFFFFFF5
(1547753408.178239) can0 04EF0006#641510F00000BF0E
(1547753408.181489) can0 0CF00300#FF0000FF08FFFFFF
(1547753408.182029) can0 0CEFFF00#6406007DFFFFFFFF
(1547753408.182638) can0 18EF0600#640EBB00FFFFFFFF
(1547753408.191534) can0 0CF00400#F0FF7D0000FFFFFF
(1547753408.197237) can0 0DEF0647#0104FFFFFFFFFFF1
(1547753408.197836) can0 0DEF0603#0101FFFFFFFFFFF5
(1547753408.198409) can0 04EF0006#641511F00000BF0E
(1547753408.198957) can0 0CFFFE06#5C7F1D7F1DFFFFFF
(1547753408.201486) can0 0CF00300#FF0000FF08FFFFFF
(1547753408.202064) can0 0CEFFF00#6406007DFFFFFFFF
(1547753408.202635) can0 18EFFF00#64100B0B2003007D
(1547753408.203209) can0 18FED500#FFFFFCFFFFFFFFFF
(1547753408.211496) can0 0CF00400#F0FF7D0000FFFFFF
(1547753408.217647) can0 0DEF0603#0101FFFFFFFFFFF5
(1547753408.218245) can0 04EF0006#641512F00000BF0E
(1547753408.221488) can0 0CF00300#FF0000FF08FFFFFF
(1547753408.222067) can0 0CEFFF00#6406007DFFFFFFFF
(1547753408.231546) can0 0CF00400#F0FF7D0000FFFFFF
(1547753408.237670) can0 0DEF0603#0101FFFFFFFFFFF5
(1547753408.238239) can0 04EF0006#641513F00000BF0E
(1547753408.238817) can0 0CFE4947#FFFFFFFFFFFFFFFF
(1547753408.239419) can0 0CFE4347#0000FFFF3FFFFFFF
(1547753408.240014) can0 0CFE4447#0000FFFF3FFFFFFF
(1547753408.241542) can0 0CF00300#FF0000FF08FFFFFF
(1547753408.242118) can0 0CEFFF00#6406007DFFFFFFFF
(1547753408.242693) can0 18FDB300#FFFF5427FFFFFFFF
(1547753408.251505) can0 0CF00400#F0FF7D0000FFFFFF
(1547753408.257629) can0 0DEF0603#0101FFFFFFFFFFF5
(1547753408.258255) can0 04EF0006#641514F00000BF0E
(1547753408.261546) can0 0CF00300#FF0000FF08FFFFFF
(1547753408.262121) can0 0CEFFF00#6406007DFFFFFFFF
(1547753408.262695) can0 18FEF200#0000FFFFFFFFFFFF
(1547753408.271551) can0 0CF00400#F0FF7D0000FFFFFF
(1547753408.277701) can0 0DEF0603#0101FFFFFFFFFFF5
(1547753408.278277) can0 04EF0006#641515F00000BF0E
(1547753408.278824) can0 18FEF147#FF0000FFFFFFFFFF
(1547753408.279437) can0 18F00503#7DFFFFFFFFFFFFFF
(1547753408.281524) can0 0CF00300#FF0000FF08FFFFFF
(1547753408.282077) can0 0CEFFF00#6406007DFFFFFFFF
(1547753408.282649) can0 18EF0600#640EC500FFFFFFFF
(1547753408.291554) can0 0CF00400#F0FF7D0000FFFFFF
(1547753408.297256) can0 0DEF0647#0104FFFFFFFFFFF1
(1547753408.297930) can0 0DEF0603#0101FFFFFFFFFFF5
(1547753408.298476) can0 04EF0006#641516F00000BF0E
(1547753408.301528) can0 0CF00300#FF0000FF08FFFFFF
(1547753408.302104) can0 0CEFFF00#6406007DFFFFFFFF
(1547753408.302677) can0 18EFFF00#64100B0B2003007D
(1547753408.303251) can0 18FEDF00#7D7E1DFFFFFFFFFF
(1547753408.311560) can0 0CF00400#F0FF7D0000FFFFFF
(1547753408.317709) can0 0DEF0603#0101FFFFFFFFFFF5
(1547753408.318280) can0 04EF0006#641517F00000BF0E
(1547753408.318831) can0 0CFE4947#FFFFFFFFFFFFFFFF
(1547753408.319431) can0 0CFFFF47#5DFFFFF3FFFFFFFF
(1547753408.319987) can0 0CFE4347#0000FFFF3FFFFFFF
(1547753408.320589) can0 0CFE4447#0000FFFF3FFFFFFF
(1547753408.321236) can0 0CFFFE06#5C7F1D7F1DFFFFFF
(1547753408.321805) can0 0CEFFF00#6406007DFFFFFFFF
(1547753408.322377) can0 0CF00300#FF0000FF08FFFFFF
(1547753408.322954) can0 18FEEF00#FFFFFF00FFFFFFFA
(1547753408.331556) can0 0CF00400#F0FF7D0000FFFFFF
(1547753408.337686) can0 0DEF0603#0101FFFFFFFFFFF5
(1547753408.338257) can0 04EF0006#641518F00000BF0E
(1547753408.341454) can0 0CF00300#FF0000FF08FFFFFF
(1547753408.342044) can0 0CEFFF00#6406007DFFFFFFFF
(1547753408.351559) can0 0CF00400#F0FF7D0000FFFFFF
(1547753408.357714) can0 0DEF0603#0101FFFFFFFFFFF5
(1547753408.358260) can0 04EF0006#641519F00000BF0E
(1547753408.358833) can0 18FEF147#FF0000FFFFFFFFFF
(1547753408.359436) can0 18F00503#7DFFFFFFFFFFFFFF
(1547753408.361559) can0 0CF00300#FF0000FF08FFFFFF
(1547753408.362138) can0 0CEFFF00#6406007DFFFFFFFF
(1547753408.362709) can0 18FEF200#0000FFFFFFFFFFFF
(1547753408.371564) can0 0CF00400#F0FF7D0000FFFFFF
(1547753408.377717) can0 0DEF0603#0101FFFFFFFFFFF5
(1547753408.378263) can0 04EF0006#64151AF00000BF0E
(1547753408.381516) can0 0CF00300#FF0000FF08FFFFFF
(1547753408.382090) can0 0CEFFF00#6406007DFFFFFFFF
(1547753408.382662) can0 18EF0600#640ECF00FFFFFFFF
(1547753408.391565) can0 0CF00400#F0FF7D0000FFFFFF
(1547753408.397269) can0 0DEF0647#0104FFFFFFFFFFF1
(1547753408.397865) can0 0DEF0603#0101FFFFFFFFFFF5
(1547753408.398437) can0 04EF0006#64151BF00000BF0E
(1547753408.399014) can0 0CFFFE06#5C7F1D7F1DFFFFFF
(1547753408.399595) can0 18FFFF06#73FFFFFFFFFFFFFF
(1547753408.401468) can0 0CF00300#FF0000FF08FFFFFF
(1547753408.402068) can0 0CEFFF00#6406007DFFFFFFFF
(1547753408.402668) can0 18EFFF00#64100B0B2003007D
(1547753408.403192) can0 18FEF600#FF0046FF00FFFFFF
(1547753408.411532) can0 0CF00400#F0FF7D0000FFFFFF
(1547753408.417685) can0 0DEF0603#0101FFFFFFFFFFF5
(1547753408.418285) can0 04EF0006#64151CF00000BF0E
(1547753408.421495) can0 0CF00300#FF0000FF08FFFFFF
(1547753408.422133) can0 0CEFFF00#6406007DFFFFFFFF
(1547753408.431586) can0 0CF00400#F0FF7D0000FFFFFF
(1547753408.437731) can0 0DEF0603#0101FFFFFFFFFFF5
(1547753408.438280) can0 04EF0006#64151DF00000BF0E
(1547753408.438857) can0 0CFE4947#FFFFFFFFFFFFFFFF
(1547753408.439456) can0 1CFDDF47#FCFFFFFFFFFFFFFF
(1547753408.440029) can0 0CFE4347#0000FFFF3FFFFFFF
(1547753408.440631) can0 0CFE4447#0000FFFF3FFFFFFF
(1547753408.441550) can0 0CF00300#FF0000FF08FFFFFF
(1547753408.442159) can0 0CEFFF00#6406007DFFFFFFFF
(1547753408.451587) can0 0CF00400#F0FF7D0000FFFFFF
(1547753408.452173) can0 18FFFA00#022C0000180C00A5
(1547753408.457738) can0 0DEF0603#0101FFFFFFFFFFF5
(1547753408.458286) can0 04EF0006#64151EF00000BF0E
(1547753408.461586) can0 0CF00300#FF0000FF08FFFFFF
(1547753408.462125) can0 0CEFFF00#6406007DFFFFFFFF
(1547753408.462758) can0 18FEF200#0000FFFFFFFFFFFF
(1547753408.471590) can0 0CF00400#F0FF7D0000FFFFFF
(1547753408.477744) can0 0DEF0603#0101FFFFFFFFFFF5
(1547753408.478312) can0 04EF0006#64151FF00000BF0E
(1547753408.478889) can0 18FEF147#FF0000FFFFFFFFFF
(1547753408.479487) can0 18F00647#FFCFFFFFFFFFFFFF
(1547753408.480087) can0 18F00503#7DFFFFFFFFFFFFFF
(1547753408.481517) can0 0CF00300#FF0000FF08FFFFFF
(1547753408.482174) can0 0CEFFF00#6406007DFFFFFFFF
(1547753408.482740) can0 18EF0600#640ED900FFFFFFFF
(1547753408.483265) can0 18FEF500#C8FFFFFFFF3EFFFF
(1547753408.491547) can0 0CF00400#F0FF7D0000FFFFFF
(1547753408.497247) can0 0DEF0647#0104FFFFFFFFFFF1
(1547753408.497892) can0 0DEF0603#0101FFFFFFFFFFF5
(1547753408.498465) can0 04EF0006#641510F00000BF0E
(1547753408.501543) can0 0CF00300#FF0000FF08FFFFFF
(1547753408.502141) can0 0CEFFF00#6406007DFFFFFFFF
(1547753408.502692) can0 18EFFF00#64100B0B2003007D
(1547753408.511594) can0 0CF00400#F0FF7D0000FFFFFF
(1547753408.517744) can0 0DEF0603#0101FFFFFFFFFFF5
(1547753408.518322) can0 04EF0006#641511F00000BF0E
(1547753408.518898) can0 0CFE4947#FFFFFFFFFFFFFFFF
(1547753408.519471) can0 0CFE4347#0000FFFF3FFFFFFF
(1547753408.520066) can0 0CFE4447#0000FFFF3FFFFFFF
(1547753408.520624) can0 0CFFFE06#5C7F1D7F1DFFFFFF
(1547753408.521593) can0 0CF00300#FF0000FF08FFFFFF
(1547753408.522196) can0 0CEFFF00#6406007DFFFFFFFF
(1547753408.522693) can0 18FE6900#F6257426FFFF60FE
(1547753408.531568) can0 0CF00400#F0FF7D0000FFFFFF
(1547753408.537701) can0 0DEF0603#0101FFFFFFFFFFF5
(1547753408.538300) can0 04EF0006#641512F00000BF0E
(1547753408.541550) can0 0CF00300#FF0000FF08FFFFFF
(1547753408.542153) can0 0CEFFF00#6406007DFFFFFFFF
(1547753408.551580) can0 0CF00400#F0FF7D0000FFFFFF
(1547753408.552156) can0 18FEDF00#7D7E1DFFFFFFFFFF
(1547753408.557752) can0 0DEF0603#0101FFFFFFFFFFF5
(1547753408.558303) can0 04EF0006#641513F00000BF0E
(1547753408.558903) can0 18FEF147#FF0000FFFFFFFFFF
(1547753408.559501) can0 18F00503#7DFFFFFFFFFFFFFF
(1547753408.561601) can0 0CF00300#FF0000FF08FFFFFF
(1547753408.562203) can0 0CEFFF00#6406007DFFFFFFFF
(1547753408.562778) can0 18FEF200#0000FFFFFFFFFFFF
(1547753408.571591) can0 0CF00400#F0FF7D0000FFFFFF
(1547753408.577753) can0 0DEF0603#0101FFFFFFFFFFF5
(1547753408.578308) can0 04EF0006#641514F00000BF0E
(1547753408.581580) can0 0CF00300#FF0000FF08FFFFFF
(1547753408.582158) can0 0CEFFF00#6406007DFFFFFFFF
(1547753408.582731) can0 18EF0600#640EE300FFFFFFFF
(1547753408.591614) can0 0CF00400#F0FF7D0000FFFFFF
(1547753408.597334) can0 0DEF0647#0104FFFFFFFFFFF1
(1547753408.597937) can0 0DEF0603#0101FFFFFFFFFFF5
(1547753408.598481) can0 04EF0006#641515F00000BF0E
(1547753408.599057) can0 0CFFFE06#5C7F1D7F1DFFFFFF
(1547753408.601559) can0 0CF00300#FF0000FF08FFFFFF
(1547753408.602162) can0 0CEFFF00#6406007DFFFFFFFF
(1547753408.602709) can0 18EFFF00#64100B0B2003007D
(1547753408.611628) can0 0CF00400#F0FF7D0000FFFFFF
(1547753408.617753) can0 0DEF0603#0101FFFFFFFFFFF5
(1547753408.618335) can0 04EF0006#641516F00000BF0E
(1547753408.621564) can0 0CF00300#FF0000FF08FFFFFF
(1547753408.622163) can0 0CEFFF00#6406007DFFFFFFFF
(1547753408.631616) can0 0CF00400#F0FF7D0000FFFFFF
(1547753408.637765) can0 0DEF0603#0101FFFFFFFFFFF5
(1547753408.638308) can0 04EF0006#641517F00000BF0E
(1547753408.638883) can0 0CFE4947#FFFFFFFFFFFFFFFF
(1547753408.639484) can0 0CFE4347#0000FFFF3FFFFFFF
(1547753408.640107) can0 0CFE4447#0000FFFF3FFFFFFF
(1547753408.641607) can0 0CF00300#FF0000FF08FFFFFF
(1547753408.642187) can0 0CEFFF00#6406007DFFFFFFFF
(1547753408.642759) can0 18FD7C00#F880F1F000CF03FC
(1547753408.651573) can0 0CF00400#F0FF7D0000FFFFFF
(1547753408.657721) can0 0DEF0603#0101FFFFFFFFFFF5
(1547753408.658319) can0 04EF0006#641518F00000BF0E
(1547753408.661612) can0 0CF00300#FF0000FF08FFFFFF
(1547753408.662189) can0 0CEFFF00#6406007DFFFFFFFF
(1547753408.662788) can0 18FEF200#0000FFFFFFFFFFFF
(1547753408.671617) can0 0CF00400#F0FF7D0000FFFFFF
(1547753408.677767) can0 0DEF0603#0101FFFFFFFFFFF5
(1547753408.678344) can0 04EF0006#641519F00000BF0E
(1547753408.678917) can0 18FEF147#FF0000FFFFFFFFFF
(1547753408.679516) can0 18F00503#7DFFFFFFFFFFFFFF
(1547753408.681593) can0 0CF00300#FF0000FF08FFFFFF
(1547753408.682167) can0 0CEFFF00#6406007DFFFFFFFF
(1547753408.682697) can0 18EF0600#640EED00FFFFFFFF
(1547753408.691647) can0 0CF00400#F0FF7D0000FFFFFF
(1547753408.697351) can0 0DEF0647#0104FFFFFFFFFFF1
(1547753408.697955) can0 0DEF0603#0101FFFFFFFFFFF5
(1547753408.698523) can0 04EF0006#64151AF00000BF0E
(1547753408.701600) can0 0CF00300#FF0000FF08FFFFFF
(1547753408.702178) can0 0CEFFF00#6406007DFFFFFFFF
(1547753408.702723) can0 18EFFF00#64100B0B2003007D
(1547753408.711655) can0 0CF00400#F0FF7D0000FFFFFF
(1547753408.717805) can0 0DEF0603#0101FFFFFFFFFFF5
(1547753408.718351) can0 04EF0006#64151BF00000BF0E
(1547753408.718952) can0 0CFE4947#FFFFFFFFFFFFFFFF
(1547753408.719529) can0 0CFE4347#0000FFFF3FFFFFFF
(1547753408.720127) can0 0CFE4447#0000FFFF3FFFFFFF
(1547753408.720683) can0 0CFFFE06#5C7F1D7F1DFFFFFF
(1547753408.721628) can0 0CF00300#FF0000FF08FFFFFF
(1547753408.722229) can0 0CEFFF00#6406007DFFFFFFFF
(1547753408.731586) can0 0CF00400#F0FF7D0000FFFFFF
(1547753408.737737) can0 0DEF0603#0101FFFFFFFFFFF5
(1547753408.738337) can0 04EF0006#64151CF00000BF0E
(1547753408.741606) can0 0CF00300#FF0000FF08FFFFFF
(1547753408.742184) can0 0CEFFF00#6406007DFFFFFFFF
(1547753408.742758) can0 18FDB300#FFFF5427FFFFFFFF
(1547753408.743355) can0 1CEFFF00#64070000FFFFFFFF
(1547753408.748408) can0 1CFFFF17#22FFFF3CFFFFFFFF
(1547753408.751662) can0 0CF00400#F0FF7D0000FFFFFF
(1547753408.757784) can0 0DEF0603#0101FFFFFFFFFFF5
(1547753408.758357) can0 04EF0006#64151DF00000BF0E
(1547753408.758935) can0 18FEF147#FF0000FFFFFFFFFF
(1547753408.759537) can0 18F00503#7DFFFFFFFFFFFFFF
(1547753408.761633) can0 0CF00300#FF0000FF08FFFFFF
(1547753408.762236) can0 0CEFFF00#6406007DFFFFFFFF
(1547753408.762805) can0 18FEF200#0000FFFFFFFFFFFF
(1547753408.771644) can0 0CF00400#F0FF7D0000FFFFFF
(1547753408.777787) can0 0DEF0603#0101FFFFFFFFFFF5
(1547753408.778355) can0 04EF0006#64151EF00000BF0E
(1547753408.781609) can0 0CF00300#FF0000FF08FFFFFF
(1547753408.782185) can0 0CEFFF00#6406007DFFFFFFFF
(1547753408.782757) can0 18EF0600#640EF700FFFFFFFF
(1547753408.791666) can0 0CF00400#F0FF7D0000FFFFFF
(1547753408.796888) can0 18EAFF06#E5FE00
(1547753408.797466) can0 0DEF0647#0104FFFFFFFFFFF1
(1547753408.798086) can0 0DEF0603#0101FFFFFFFFFFF5
(1547753408.798659) can0 04EF0006#64151FF00000BF0E
(1547753408.799232) can0 0CFFFE06#5C7F1D7F1DFFFFFF
(1547753408.799769) can0 18FEE706#C80A0000FFFFFFFF
(1547753408.801571) can0 0CF00300#FF0000FF08FFFFFF
(1547753408.802193) can0 0CEFFF00#6406007DFFFFFFFF
(1547753408.802717) can0 18EFFF00#64100B0B2003007D
(1547753408.803297) can0 18FEDF00#7D7E1DFFFFFFFFFF
(1547753408.803919) can0 18FEE500#CB0A0000FFFFFFFF
