(1547753592.368003) can0 18EEFF47#4D74300400340220
(1547753592.368571) can0 18EEFF06#4D743004000E0020
(1547753592.369166) can0 18EEFF03#4D74300400030220
(1547753592.394196) can0 18EEFF00#56F5290400000220
(1547753592.396395) can0 0CF00400#F0FF000000FFFFFF
(1547753592.396791) can0 18EAFF00#00EE00
(1547753592.406296) can0 0CF00300#FF0000FF00FFFFFF
(1547753592.406867) can0 0CEFFF00#6406007DFFFFFFFF
(1547753592.407444) can0 18FEF200#0000FFFFFFFFFFFF
(1547753592.416495) can0 0CF00400#F0FF7D0000FFFFFF
(1547753592.426398) can0 0CF00300#FF0000FF06FFFFFF
(1547753592.426968) can0 0CEFFF00#6406007DFFFFFFFF
(1547753592.427545) can0 18EF0600#640E0302FFFFFFFF
(1547753592.436422) can0 0CF00400#F0FF7D0000FFFFFF
(1547753592.439571) can0 18EEFF17#0C6E240400130220
(1547753592.446447) can0 0CF00300#FF0000FF06FFFFFF
(1547753592.447018) can0 0CEFFF00#6406007DFFFFFFFF
(1547753592.447595) can0 18EFFF00#64100B0B0000007D
(1547753592.448168) can0 18FEDF00#7DFA1CFFFFFFFFFF
(1547753592.448719) can0 1CECFF00#20220005FFE3FE00
(1547753592.456473) can0 0CF00400#F0FF7D0000FFFFFF
(1547753592.466398) can0 0CF00300#FF0000FF06FFFFFF
(1547753592.466994) can0 0CEFFF00#6406007DFFFFFFFF
(1547753592.467571) can0 18FEEF00#FFFFFFFEFFFFFFFA
(1547753592.476435) can0 0CF00400#F0FF7D0000FFFFFF
(1547753592.486399) can0 0CF00300#FF0000FF06FFFFFF
(1547753592.486970) can0 0CEFFF00#6406007DFFFFFFFF
(1547753592.496449) can0 0CF00400#F0FF7D0000FFFFFF
(1547753592.499573) can0 1CEBFF00#01201CDD6842DCA0
(1547753592.506447) can0 0CF00300#FF0000FF06FFFFFF
(1547753592.507020) can0 0CEFFF00#6406007DFFFFFFFF
(1547753592.507597) can0 18FEF200#0000FFFFFFFFFFFF
(1547753592.516447) can0 0CF00400#F0FF7D0000FFFFFF
(1547753592.526398) can0 0CF00300#FF0000FF06FFFFFF
(1547753592.526995) can0 0CEFFF00#6406007DFFFFFFFF
(1547753592.527573) can0 18EF0600#640E0D02FFFFFFFF
(1547753592.536473) can0 0CF00400#F0FF7D0000FFFFFF
(1547753592.546446) can0 0CF00300#FF0000FF06FFFFFF
(1547753592.547020) can0 0CEFFF00#6406007DFFFFFFFF
(1547753592.547598) can0 18EFFF00#64100B0B0000007D
(1547753592.548171) can0 18FEF600#FF0047FF00FFFFFF
(1547753592.548746) can0 1CEBFF00#020FD58D20E37A31
(1547753592.556522) can0 0CF00400#F0FF7D0000FFFFFF
(1547753592.566448) can0 18EFFA00#6401FF0000FFFFFF
(1547753592.567022) can0 0CEFFF00#6406007DFFFFFFFF
(1547753592.567596) can0 0CF00300#FF0000FF06FFFFFF
(1547753592.576468) can0 0CF00400#F0FF7D0000FFFFFF
(1547753592.586420) can0 0CF00300#FF0000FF06FFFFFF
(1547753592.587045) can0 0CEFFF00#6406007DFFFFFFFF
(1547753592.596500) can0 0CF00400#F0FF7D0000FFFFFF
(1547753592.599699) can0 1CEBFF00#03F1C044FFFF0401
(1547753592.606499) can0 0CF00300#FF0000FF06FFFFFF
(1547753592.607097) can0 0CEFFF00#6406007DFFFFFFFF
(1547753592.607673) can0 18FEF200#0000FFFFFFFFFFFF
(1547753592.616522) can0 0CF00400#F0FF7D0000FFFFFF
(1547753592.626449) can0 0CF00300#FF0000FF06FFFFFF
(1547753592.627024) can0 0CEFFF00#6406007DFFFFFFFF
(1547753592.627600) can0 18EF0600#640E1706FFFFFFFF
(1547753592.629449) can0 0DEF0603#0101FFFFFFFFFFF5
(1547753592.629997) can0 04EF0006#641510F00000930E
(1547753592.630598) can0 0C000006#30FFFFFFF8FFFFFF
(1547753592.636502) can0 0CF00400#F0FF7D0000FFFFFF
(1547753592.646424) can0 0CF00300#FF0000FF06FFFFFF
(1547753592.647019) can0 0CEFFF00#6406007DFFFFFFFF
(1547753592.647572) can0 18EEFF00#56F5290400000220
(1547753592.648145) can0 18EFFF00#64100B0B0000007D
(1547753592.648721) can0 1CEBFF00#04204E0001FAC9FA
(1547753592.649358) can0 0DEF0647#0104FFFFFFFFFFF1
(1547753592.649971) can0 0DEF0603#0101FFFFFFFFFFF5
(1547753592.650523) can0 04EF0006#641510F00000930E
(1547753592.651082) can0 0CFFFE06#5C271D271DFFFFFF
(1547753592.651667) can0 18FFFB06#00057DF8FFFFFFFF
(1547753592.652075) can0 18EAFF47#00EE00
(1547753592.656499) can0 0CF00400#F0FF7D0000FFFFFF
(1547753592.666450) can0 0CF00300#FF0000FF06FFFFFF
(1547753592.667047) can0 0CEFFF00#6406007DFFFFFFFF
(1547753592.667625) can0 18FEEE00#4B42FFFFFFFFFFFF
(1547753592.669450) can0 0DEF0603#0101FFFFFFFFFFF5
(1547753592.670028) can0 04EF0006#641510F00000930E
(1547753592.676524) can0 0CF00400#F0FF7D0000FFFFFF
(1547753592.686478) can0 0CF00300#FF0000FF06FFFFFF
(1547753592.687049) can0 0CEFFF00#6406007DFFFFFFFF
(1547753592.689425) can0 0DEF0603#0101FFFFFFFFFFF5
(1547753592.690002) can0 04EF0006#641510F00000930E
(1547753592.690575) can0 0CFE4947#FFFFFFFFFFFFFFFF
(1547753592.691150) can0 0CFE4347#FFFFFFFFFFFFFFFF
(1547753592.691749) can0 0CFE4447#0000FFFF3FFFFFFF
(1547753592.696501) can0 0CF00400#F0FF7D0000FFFFFF
(1547753592.697078) can0 18FEDF00#7D261DFFFFFFFFFF
(1547753592.699920) can0 18EEFF00#56F5290400000220
(1547753592.700524) can0 1CEBFF00#05C05D0000FFFFFF
(1547753592.706469) can0 0CF00300#FF0000FF06FFFFFF
(1547753592.707080) can0 0CEFFF00#6406007DFFFFFFFF
(1547753592.707649) can0 18FEF200#0000FFFFFFFFFFFF
(1547753592.709452) can0 0DEF0603#0101FFFFFFFFFFF5
(1547753592.710024) can0 04EF0006#641510F00000930E
(1547753592.716500) can0 0CF00400#F0FF7D0000FFFFFF
(1547753592.720178) can0 18EAFF17#00EE00
(1547753592.726452) can0 0CF00300#FF0000FF06FFFFFF
(1547753592.727025) can0 0CEFFF00#6406007DFFFFFFFF
(1547753592.727600) can0 18EF0600#640E2100FFFFFFFF
(1547753592.729450) can0 0DEF0603#0101FFFFFFFFFFF5
(1547753592.729999) can0 04EF0006#641510F00000930E
(1547753592.730575) can0 18FEF147#FF0000FFFFFFFFFF
(1547753592.731201) can0 18F00503#FFFFFFFFFFFFFFFF
(1547753592.736525) can0 0CF00400#F0FF7D0000FFFFFF
(1547753592.740276) can0 1CFFFF17#22FFFF3CFFFFFFFF
(1547753592.746452) can0 0CF00300#FF0000FF06FFFFFF
(1547753592.747051) can0 0CEFFF00#6406007DFFFFFFFF
(1547753592.747625) can0 18EFFF00#64100B0B0000007D
(1547753592.748199) can0 18FEF700#FFFFFFFFFFFFFA00
(1547753592.748747) can0 18EEFF00#56F5290400000220
(1547753592.749402) can0 0DEF0647#0104FFFFFFFFFFF1
(1547753592.749999) can0 0DEF0603#0101FFFFFFFFFFF5
(1547753592.750520) can0 04EF0006#641510F00000930E
(1547753592.756496) can0 0CF00400#F0FF7D0000FFFFFF
(1547753592.766422) can0 0CF00300#FF0000FF06FFFFFF
(1547753592.767013) can0 0CEFFF00#6406007DFFFFFFFF
(1547753592.769453) can0 0DEF0603#0101FFFFFFFFFFF5
(1547753592.769999) can0 04EF0006#641510F00000930E
(1547753592.770578) can0 0CFE4947#FFFFFFFFFFFFFFFF
(1547753592.771176) can0 0CFE4347#FFFFFFFFFFFFFFFF
(1547753592.771777) can0 0CFE4447#0000FFFF3FFFFFFF
(1547753592.772352) can0 0CFFFE06#5C271D271DFFFFFF
(1547753592.776527) can0 0CF00400#F0FF7D0000FFFFFF
(1547753592.786453) can0 0CF00300#FF0000FF06FFFFFF
(1547753592.787051) can0 0CEFFF00#6406007DFFFFFFFF
(1547753592.789420) can0 0DEF0603#0101FFFFFFFFFFF5
(1547753592.790006) can0 04EF0006#641510F00000930E
(1547753592.796501) can0 0CF00400#F0FF7D0000FFFFFF
(1547753592.798051) can0 18EEFF47#4D74300400340220
(1547753592.798629) can0 18EEFF06#4D743004000E0020
(1547753592.799201) can0 18EEFF03#4D74300400030220
(1547753592.806480) can0 0CF00300#FF0000FF06FFFFFF
(1547753592.807075) can0 0CEFFF00#6406007DFFFFFFFF
(1547753592.807653) can0 18FEF200#0000FFFFFFFFFFFF
(1547753592.809452) can0 0DEF0603#0101FFFFFFFFFFF5
(1547753592.810026) can0 04EF0006#641510F00000930E
(1547753592.810603) can0 18FEF147#FF0000FFFFFFFFFF
(1547753592.811170) can0 18F00503#FFFFFFFFFFFFFFFF
(1547753592.816471) can0 0CF00400#F0FF7D0000FFFFFF
(1547753592.826479) can0 0CF00300#FF0000FF06FFFFFF
(1547753592.827076) can0 0CEFFF00#6406007DFFFFFFFF
(1547753592.827628) can0 18EF0600#640E2B00FFFFFFFF
(1547753592.829452) can0 0DEF0603#0101FFFFFFFFFFF5
(1547753592.829998) can0 04EF0006#641510F00000930E
(1547753592.836527) can0 0CF00400#F0FF7D0000FFFFFF
(1547753592.840204) can0 18EA0017#09FF00
(1547753592.846477) can0 0CF00300#FF0000FF06FFFFFF
(1547753592.847053) can0 0CEFFF00#6406007DFFFFFFFF
(1547753592.847627) can0 18EFFF00#64100B0B0000007D
(1547753592.848201) can0 18FED500#FFFFFCFFFFFFFFFF
(1547753592.848780) can0 18FF0900#454355FFFFFFFFFF
(1547753592.849403) can0 0DEF0647#0104FFFFFFFFFFF1
(1547753592.850004) can0 0DEF0603#0101FFFFFFFFFFF5
(1547753592.850546) can0 04EF0006#641510F00000930E
(1547753592.851090) can0 0CFFFE06#5C271D271DFFFFFF
(1547753592.856497) can0 0CF00400#F0FF7D0000FFFFFF
(1547753592.866450) can0 0CF00300#FF0000FF06FFFFFF
(1547753592.867022) can0 0CEFFF00#6406007DFFFFFFFF
(1547753592.869405) can0 0DEF0603#0101FFFFFFFFFFF5
(1547753592.869949) can0 04EF0006#641510F00000930E
(1547753592.876487) can0 0CF00400#F0FF7D0000FFFFFF
(1547753592.886428) can0 0CF00300#FF0000FF06FFFFFF
(1547753592.887025) can0 0CEFFF00#6406007DFFFFFFFF
(1547753592.887603) can0 18FDB300#FFFFC227FFFFFFFF
(1547753592.889428) can0 0DEF0603#0101FFFFFFFFFFF5
(1547753592.890001) can0 04EF0006#641510F00000930E
(1547753592.890577) can0 0CFE4947#FFFFFFFFFFFFFFFF
(1547753592.891151) can0 0CFE4347#FFFFFFFFFFFFFFFF
(1547753592.891753) can0 0CFE4447#0000FFFF3FFFFFFF
(1547753592.896490) can0 0CF00400#F0FF7D0000FFFFFF
(1547753592.906442) can0 0CF00300#FF0000FF06FFFFFF
(1547753592.907025) can0 0CEFFF00#6406007DFFFFFFFF
(1547753592.907628) can0 18FEF200#0000FFFFFFFFFFFF
(1547753592.909415) can0 0DEF0603#0101FFFFFFFFFFF5
(1547753592.910001) can0 04EF0006#641510F00000930E
(1547753592.916503) can0 0CF00400#F0FF7D0000FFFFFF
(1547753592.926482) can0 0CF00300#FF0000FF06FFFFFF
(1547753592.927009) can0 0CEFFF00#6406007DFFFFFFFF
(1547753592.927630) can0 18EF0600#640E3500FFFFFFFF
(1547753592.929479) can0 0DEF0603#0101FFFFFFFFFFF5
(1547753592.930030) can0 04EF0006#641510F00000930E
(1547753592.930604) can0 18FEF147#FF0000FFFFFFFFFF
(1547753592.931203) can0 18F00503#FFFFFFFFFFFFFFFF
(1547753592.936529) can0 0CF00400#F0FF7D0000FFFFFF
(1547753592.946481) can0 0CF00300#FF0000FF06FFFFFF
(1547753592.947054) can0 0CEFFF00#6406007DFFFFFFFF
(1547753592.947633) can0 18EFFF00#64100B0B0000007D
(1547753592.948204) can0 18FEDF00#7D261DFFFFFFFFFF
(1547753592.949379) can0 0DEF0647#0104FFFFFFFFFFF1
(1547753592.950004) can0 0DEF0603#0101FFFFFFFFFFF5
(1547753592.950555) can0 04EF0006#641510F00000930E
(1547753592.956529) can0 0CF00400#F0FF7D0000FFFFFF
(1547753592.960233) can0 18EA4717#09FF00
(1547753592.960631) can0 18EA0617#09FF00
(1547753592.966484) can0 0CF00300#FF0000FF06FFFFFF
(1547753592.967054) can0 0CEFFF00#6406007DFFFFFFFF
(1547753592.967598) can0 18FEEF00#FFFFFF00FFFFFFFA
(1547753592.969757) can0 0DEF0603#0101FFFFFFFFFFF5
(1547753592.970308) can0 04EF0006#641510F00000930E
(1547753592.970878) can0 0CFE4947#FFFFFFFFFFFFFFFF
(1547753592.971456) can0 18FF0947#434355FFFFFFFFFF
(1547753592.972031) can0 0CFFFF47#5DFFFFF3FFFFFFFF
(1547753592.972574) can0 18FF0906#454943FFFFFFFFFF
(1547753592.973153) can0 0CFE4347#0000FFFF3FFFFFFF
(1547753592.973749) can0 0CFE4447#0000FFFF3FFFFFFF
(1547753592.974384) can0 0CFFFE06#5C271D271DFFFFFF
(1547753592.976499) can0 0CF00400#F0FF7D0000FFFFFF
(1547753592.986483) can0 0CF00300#FF0000FF06FFFFFF
(1547753592.987053) can0 0CEFFF00#6406007DFFFFFFFF
(1547753592.989676) can0 0DEF0603#0101FFFFFFFFFFF5
(1547753592.990277) can0 04EF0006#641510F00000930E
(1547753592.996533) can0 0CF00400#F0FF7D0000FFFFFF
(1547753593.000280) can0 18EA0317#09FF00
(1547753593.006535) can0 0CF00300#FF0000FF06FFFFFF
(1547753593.007114) can0 0CEFFF00#6406007DFFFFFFFF
(1547753593.007681) can0 18FEF200#0000FFFFFFFFFFFF
(1547753593.009756) can0 0DEF0603#0101FFFFFFFFFFF5
(1547753593.010308) can0 04EF0006#641511F00000930E
(1547753593.010879) can0 18FF0903#505452FFFFFFFFFF
(1547753593.011480) can0 18FEF147#FF0000FFFFFFFFFF
(1547753593.012081) can0 18F00503#7DFFFFFFFFFFFFFF
(1547753593.016502) can0 0CF00400#F0FF7D0000FFFFFF
(1547753593.026452) can0 0CF00300#FF0000FF06FFFFFF
(1547753593.027062) can0 0CEFFF00#6406007DFFFFFFFF
(1547753593.027631) can0 18EF0600#640E3F00FFFFFFFF
(1547753593.029726) can0 0DEF0603#0101FFFFFFFFFFF5
(1547753593.030306) can0 04EF0006#641512F00000930E
(1547753593.036534) can0 0CF00400#F0FF7D0000FFFFFF
(1547753593.046483) can0 0CF00300#FF0000FF06FFFFFF
(1547753593.047057) can0 0CEFFF00#6406007DFFFFFFFF
(1547753593.047632) can0 18EFFF00#64100B0B0000007D
(1547753593.048204) can0 18FEF600#FF0042FF00FFFFFF
(1547753593.049432) can0 0DEF0647#0104FFFFFFFFFFF1
(1547753593.050032) can0 0DEF0603#0101FFFFFFFFFFF5
(1547753593.050607) can0 04EF0006#641513F00000930E
(1547753593.051180) can0 0CFFFE06#5C271D271DFFFFFF
(1547753593.051726) can0 18FFFF06#73FFFFFFFFFFFFFF
(1547753593.054652) can0 18EEFF17#0C6E240400130220
(1547753593.056501) can0 0CF00400#F0FF7D0000FFFFFF
(1547753593.066486) can0 0CF00300#FF0000FF06FFFFFF
(1547753593.067057) can0 0CEFFF00#6406007DFFFFFFFF
(1547753593.069711) can0 0DEF0603#0101FFFFFFFFFFF5
(1547753593.070283) can0 04EF0006#641514F00000930E
(1547753593.076507) can0 0CF00400#F0FF7D0000FFFFFF
(1547753593.086461) can0 0CF00300#FF0000FF06FFFFFF
(1547753593.087057) can0 0CEFFF00#6406007DFFFFFFFF
(1547753593.089733) can0 0DEF0603#0101FFFFFFFFFFF5
(1547753593.090284) can0 04EF0006#641515F00000930E
(1547753593.090856) can0 0CFE4947#FFFFFFFFFFFFFFFF
(1547753593.091461) can0 1CFDDF47#FCFFFFFFFFFFFFFF
(1547753593.092032) can0 0CFE4347#0000FFFF3FFFFFFF
(1547753593.092634) can0 0CFE4447#0000FFFF3FFFFFFF
(1547753593.096504) can0 0CF00400#F0FF7D0000FFFFFF
(1547753593.097081) can0 18FFFA00#022C0000180C0000
(1547753593.106535) can0 0CF00300#FF0000FF06FFFFFF
(1547753593.107108) can0 0CEFFF00#6406007DFFFFFFFF
(1547753593.107707) can0 18FEF200#0000FFFFFFFFFFFF
(1547753593.109727) can0 0DEF0603#0101FFFFFFFFFFF5
(1547753593.110309) can0 04EF0006#641516F00000930E
(1547753593.116538) can0 0CF00400#F0FF7D0000FFFFFF
(1547753593.126488) can0 0CF00300#FF0000FF06FFFFFF
(1547753593.127058) can0 0CEFFF00#6406007DFFFFFFFF
(1547753593.127633) can0 18EF0600#640E4900FFFFFFFF
(1547753593.128207) can0 18FEF500#C8FFFFFFFF3DFFFF
(1547753593.129783) can0 0DEF0603#0101FFFFFFFFFFF5
(1547753593.130337) can0 04EF0006#641517F00000930E
(1547753593.130908) can0 18FEF147#FF0000FFFFFFFFFF
(1547753593.131510) can0 18F00647#FFCFFFFFFFFFFFFF
(1547753593.132109) can0 18F00503#7DFFFFFFFFFFFFFF
(1547753593.136536) can0 0CF00400#F0FF7D0000FFFFFF
(1547753593.146454) can0 0CF00300#FF0000FF06FFFFFF
(1547753593.147065) can0 0CEFFF00#6406007DFFFFFFFF
(1547753593.147634) can0 18EFFF00#64100B0B0000007D
(1547753593.149396) can0 0DEF0647#0104FFFFFFFFFFF1
(1547753593.150034) can0 0DEF0603#0101FFFFFFFFFFF5
(1547753593.150583) can0 04EF0006#641518F00000930E
(1547753593.156562) can0 0CF00400#F0FF7D0000FFFFFF
(1547753593.166486) can0 0CF00300#FF0000FF06FFFFFF
(1547753593.167059) can0 0CEFFF00#6406007DFFFFFFFF
(1547753593.167635) can0 18FE6900#66258826FFFF60FE
(1547753593.169760) can0 0DEF0603#0101FFFFFFFFFFF5
(1547753593.170335) can0 04EF0006#641519F00000930E
(1547753593.170909) can0 0CFE4947#FFFFFFFFFFFFFFFF
(1547753593.171509) can0 0CFE4347#0000FFFF3FFFFFFF
(1547753593.172109) can0 0CFE4447#0000FFFF3FFFFFFF
(1547753593.172684) can0 0CFFFE06#5C271D271DFFFFFF
(1547753593.176538) can0 0CF00400#F0FF7D0000FFFFFF
(1547753593.186487) can0 0CF00300#FF0000FF06FFFFFF
(1547753593.187059) can0 0CEFFF00#6406007DFFFFFFFF
(1547753593.189703) can0 0DEF0603#0101FFFFFFFFFFF5
(1547753593.190294) can0 04EF0006#64151AF00000930E
(1547753593.196534) can0 0CF00400#F0FF7D0000FFFFFF
(1547753593.197109) can0 18FEDF00#7D261DFFFFFFFFFF
(1547753593.206537) can0 0CF00300#FF0000FF06FFFFFF
(1547753593.207109) can0 0CEFFF00#6406007DFFFFFFFF
(1547753593.207710) can0 18FEF200#0000FFFFFFFFFFFF
(1547753593.209764) can0 0DEF0603#0101FFFFFFFFFFF5
(1547753593.210313) can0 04EF0006#64151BF00000930E
(1547753593.210909) can0 18FEF147#FF0000FFFFFFFFFF
(1547753593.211485) can0 18F00503#7DFFFFFFFFFFFFFF
(1547753593.216530) can0 0CF00400#F0FF7D0000FFFFFF
(1547753593.226488) can0 0CF00300#FF0000FF06FFFFFF
(1547753593.227085) can0 0CEFFF00#6406007DFFFFFFFF
(1547753593.227636) can0 18EF0600#640E5300FFFFFFFF
(1547753593.229761) can0 0DEF0603#0101FFFFFFFFFFF5
(1547753593.230315) can0 04EF0006#64151CF00000930E
(1547753593.236538) can0 0CF00400#F0FF7D0000FFFFFF
(1547753593.246513) can0 0CF00300#FF0000FF06FFFFFF
(1547753593.247086) can0 0CEFFF00#6406007DFFFFFFFF
(1547753593.247661) can0 18EFFF00#64100B0B0000007D
(1547753593.249437) can0 0DEF0647#0104FFFFFFFFFFF1
(1547753593.250038) can0 0DEF0603#0101FFFFFFFFFFF5
(1547753593.250611) can0 04EF0006#64151DF00000930E
(1547753593.251115) can0 0CFFFE06#5C271D271DFFFFFF
(1547753593.252812) can0 18FECA06#00FF00000000FFFF
(1547753593.254342) can0 18FECA47#00FF00000000FFFF
(1547753593.255538) can0 18FECA03#00FF00000000FFFF
(1547753593.256534) can0 0CF00400#F0FF7D0000FFFFFF
(1547753593.266488) can0 0CF00300#FF0000FF06FFFFFF
(1547753593.267085) can0 0CEFFF00#6406007DFFFFFFFF
(1547753593.269736) can0 0DEF0603#0101FFFFFFFFFFF5
(1547753593.270310) can0 04EF0006#64151EF00000930E
(1547753593.276540) can0 0CF00400#F0FF7D0000FFFFFF
(1547753593.286490) can0 0CF00300#FF0000FF06FFFFFF
(1547753593.287087) can0 0CEFFF00#6406007DFFFFFFFF
(1547753593.287636) can0 18FD7C00#F880F0F000CF03FC
(1547753593.289761) can0 0DEF0603#0101FFFFFFFFFFF5
(1547753593.290314) can0 04EF0006#64151FF00000930E
(1547753593.290885) can0 0CFE4947#FFFFFFFFFFFFFFFF
(1547753593.291488) can0 0CFE4347#0000FFFF3FFFFFFF
(1547753593.292086) can0 0CFE4447#0000FFFF3FFFFFFF
(1547753593.296533) can0 0CF00400#F0FF7D0000FFFFFF
(1547753593.306485) can0 0CF00300#FF0000FF06FFFFFF
(1547753593.307093) can0 0CEFFF00#6406007DFFFFFFFF
(1547753593.307662) can0 18FEF200#0000FFFFFFFFFFFF
(1547753593.309732) can0 0DEF0603#0101FFFFFFFFFFF5
(1547753593.310316) can0 04EF0006#641510F00000930E
(1547753593.316542) can0 0CF00400#F0FF7D0000FFFFFF
(1547753593.321706) can0 18FECA17#00FF00000000FFFF
(1547753593.326517) can0 0CF00300#FF0000FF06FFFFFF
(1547753593.327087) can0 0CEFFF00#6406007DFFFFFFFF
(1547753593.327663) can0 18EF0600#640E5D00FFFFFFFF
(1547753593.329763) can0 0DEF0603#0101FFFFFFFFFFF5
(1547753593.330313) can0 04EF0006#641511F00000930E
(1547753593.330884) can0 18FEF147#FF0000FFFFFFFFFF
(1547753593.331493) can0 18F00503#7DFFFFFFFFFFFFFF
(1547753593.336545) can0 0CF00400#F0FF7D0000FFFFFF
(1547753593.346490) can0 0CF00300#FF0000FF06FFFFFF
(1547753593.347063) can0 0CEFFF00#6406007DFFFFFFFF
(1547753593.347638) can0 18EFFF00#64100B0B0000007D
(1547753593.349438) can0 0DEF0647#0104FFFFFFFFFFF1
(1547753593.350062) can0 0DEF0603#0101FFFFFFFFFFF5
(1547753593.350614) can0 04EF0006#641512F00000930E
(1547753593.356564) can0 0CF00400#F0FF7D0000FFFFFF
(1547753593.366492) can0 0CF00300#FF0000FF06FFFFFF
(1547753593.367063) can0 0CEFFF00#6406007DFFFFFFFF
(1547753593.368988) can0 18EAFF06#E5FE00
(1547753593.369893) can0 0DEF0603#0101FFFFFFFFFFF5
(1547753593.370464) can0 04EF0006#641513F00000930E
(1547753593.371088) can0 0CFE4947#FFFFFFFFFFFFFFFF
(1547753593.371667) can0 18FEE706#C80A0000FFFFFFFF
(1547753593.372241) can0 0CFE4347#0000FFFF3FFFFFFF
(1547753593.372864) can0 0CFE4447#0000FFFF3FFFFFFF
(1547753593.373408) can0 0CFFFE06#5C271D271DFFFFFF
(1547753593.376510) can0 0CF00400#F0FF7D0000FFFFFF
(1547753593.386459) can0 0CF00300#FF0000FF06FFFFFF
(1547753593.387038) can0 0CEFFF00#6406007DFFFFFFFF
(1547753593.387613) can0 18FDB300#FFFFC227FFFFFFFF
(1547753593.388259) can0 1CEFFF00#64070000FFFFFFFF
(1547753593.389883) can0 0DEF0603#0101FFFFFFFFFFF5
(1547753593.390464) can0 04EF0006#641514F00000930E
(1547753593.396566) can0 0CF00400#F0FF7D0000FFFFFF
(1547753593.399939) can0 18FEE500#CC0A0000FFFFFFFF
(1547753593.400515) can0 1CFFFF17#22FFFF3CFFFFFFFF
(1547753593.400914) can0 18EA0017#E5FE00
(1547753593.406566) can0 0CF00300#FF0000FF06FFFFFF
(1547753593.407138) can0 0CEFFF00#6406007DFFFFFFFF
(1547753593.407715) can0 18FEF200#0000FFFFFFFFFFFF
(1547753593.409871) can0 0DEF0603#0101FFFFFFFFFFF5
(1547753593.410414) can0 04EF0006#641515F00000930E
(1547753593.410986) can0 18FEF147#FF0000FFFFFFFFFF
(1547753593.411577) can0 18F00503#7DFFFFFFFFFFFFFF
(1547753593.416515) can0 0CF00400#F0FF7D0000FFFFFF
(1547753593.426490) can0 0CF00300#FF0000FF06FFFFFF
(1547753593.427062) can0 0CEFFF00#6406007DFFFFFFFF
(1547753593.427639) can0 18EF0600#640E6700FFFFFFFF
(1547753593.429864) can0 0DEF0603#0101FFFFFFFFFFF5
(1547753593.430438) can0 04EF0006#641516F00000930E
(1547753593.436539) can0 0CF00400#F0FF7D0000FFFFFF
(1547753593.446465) can0 0CF00300#FF0000FF06FFFFFF
(1547753593.447037) can0 0CEFFF00#6406007DFFFFFFFF
(1547753593.447614) can0 18EFFF00#64100B0B0000007D
(1547753593.448211) can0 18FEDF00#7D261DFFFFFFFFFF
(1547753593.448791) can0 18FEE500#CC0A0000FFFFFFFF
(1547753593.449465) can0 0DEF0647#0104FFFFFFFFFFF1
(1547753593.450125) can0 0DEF0603#0101FFFFFFFFFFF5
(1547753593.450689) can0 04EF0006#641517F00000930E
(1547753593.451251) can0 0CFFFE06#5C271D271DFFFFFF
(1547753593.456515) can0 0CF00400#F0FF7D0000FFFFFF
(1547753593.466490) can0 0CF00300#FF0000FF06FFFFFF
(1547753593.467062) can0 0CEFFF00#6406007DFFFFFFFF
(1547753593.467636) can0 18FEEF00#FFFFFF00FFFFFFFA
(1547753593.469889) can0 0DEF0603#0101FFFFFFFFFFF5
(1547753593.470439) can0 04EF0006#641518F00000930E
(1547753593.476516) can0 0CF00400#F0FF7D0000FFFFFF
(1547753593.486466) can0 0CF00300#FF0000FF06FFFFFF
(1547753593.487038) can0 0CEFFF00#6406007DFFFFFFFF
(1547753593.489841) can0 0DEF0603#0101FFFFFFFFFFF5
(1547753593.490379) can0 04EF0006#641519F00000930E
(1547753593.490952) can0 0CFE4947#FFFFFFFFFFFFFFFF
(1547753593.491553) can0 0CFFFF47#5DFFFFF3FFFFFFFF
(1547753593.492152) can0 0CFE4347#0000FFFF3FFFFFFF
(1547753593.492752) can0 0CFE4447#0000FFFF3FFFFFFF
(1547753593.496475) can0 0CF00400#F0FF7D0000FFFFFF
(1547753593.506516) can0 0CF00300#FF0000FF06FFFFFF
(1547753593.507088) can0 0CEFFF00#6406007DFFFFFFFF
(1547753593.507665) can0 18FEF200#0000FFFFFFFFFFFF
(1547753593.509836) can0 0DEF0603#0101FFFFFFFFFFF5
(1547753593.510415) can0 04EF0006#64151AF00000930E
(1547753593.516490) can0 0CF00400#F0FF7D0000FFFFFF
(1547753593.526442) can0 0CF00300#FF0000FF06FFFFFF
(1547753593.527039) can0 0CEFFF00#6406007DFFFFFFFF
(1547753593.527615) can0 18EF0600#640E7100FFFFFFFF
(1547753593.529841) can0 0DEF0603#0101FFFFFFFFFFF5
(1547753593.530415) can0 04EF0006#64151BF00000930E
(1547753593.530988) can0 18FEF147#FF0000FFFFFFFFFF
(1547753593.531591) can0 18FFFB06#001BFFFFFFFFFFFF
(1547753593.532229) can0 18F00503#7DFFFFFFFFFFFFFF
(1547753593.536512) can0 0CF00400#F0FF7D0000FFFFFF
(1547753593.546438) can0 0CF00300#FF0000FF06FFFFFF
(1547753593.547039) can0 0CEFFF00#6406007DFFFFFFFF
(1547753593.547615) can0 18EFFF00#64100B0B0000007D
(1547753593.548189) can0 18FEF600#FF0041FF00FFFFFF
(1547753593.549416) can0 0DEF0647#0104FFFFFFFFFFF1
(1547753593.550014) can0 0DEF0603#0101FFFFFFFFFFF5
(1547753593.550565) can0 04EF0006#64151CF00000930E
(1547753593.556517) can0 0CF00400#F0FF7D0000FFFFFF
(1547753593.566442) can0 18EFFA00#6401FF0000FFFFFF
(1547753593.567015) can0 0CEFFF00#6406007DFFFFFFFF
(1547753593.567592) can0 0CF00300#FF0000FF06FFFFFF
(1547753593.569867) can0 0DEF0603#0101FFFFFFFFFFF5
(1547753593.570416) can0 04EF0006#64151DF00000930E
(1547753593.571016) can0 0CFE4947#FFFFFFFFFFFFFFFF
(1547753593.571567) can0 18FE6847#3BFFFFFFFFFFFFFF
(1547753593.572166) can0 0CFE4347#0000FFFF3FFFFFFF
(1547753593.572737) can0 18FFFF06#73FFFFFFFFFFFFFF
(1547753593.573312) can0 0CFE4447#0000FFFF3FFFFFFF
(1547753593.573915) can0 0CFFFE06#5C271D271DFFFFFF
(1547753593.576492) can0 0CF00400#F0FF7D0000FFFFFF
(1547753593.586468) can0 0CF00300#FF0000FF06FFFFFF
(1547753593.587041) can0 0CEFFF00#6406007DFFFFFFFF
(1547753593.589817) can0 0DEF0603#0101FFFFFFFFFFF5
(1547753593.590392) can0 04EF0006#64151EF00000930E
(1547753593.596492) can0 0CF00400#F0FF7D0000FFFFFF
(1547753593.606493) can0 0CF00300#FF0000FF06FFFFFF
(1547753593.607066) can0 0CEFFF00#6406007DFFFFFFFF
(1547753593.607642) can0 18FEF200#0000FFFFFFFFFFFF
(1547753593.609842) can0 0DEF0603#0101FFFFFFFFFFF5
(1547753593.610417) can0 04EF0006#64151FF00000930E
(1547753593.610991) can0 0CFFFF47#5EFFFFFFFFFFFFFF
(1547753593.611567) can0 18FEF147#FF0000FFFFFFFFFF
(1547753593.612167) can0 18FEFC47#FFFFFFFFFFFFFFFF
(1547753593.612763) can0 18EF0047#F220610FFFFFFFFF
(1547753593.613367) can0 18F00647#FFCFFFFFFFFFFFFF
(1547753593.613966) can0 1CFDDF47#FCFFFFFFFFFFFFFF
(1547753593.614542) can0 18F00503#7DFFFFFFFFFFFFFF
(1547753593.616518) can0 0CF00400#F0FF7D0000FFFFFF
(1547753593.626469) can0 0CF00300#FF0000FF06FFFFFF
(1547753593.627041) can0 0CEFFF00#6406007DFFFFFFFF
(1547753593.627617) can0 18EF0600#640E7B00FFFFFFFF
(1547753593.629868) can0 0DEF0603#0101FFFFFFFFFFF5
(1547753593.630417) can0 04EF0006#641510F00000930E
(1547753593.630990) can0 0C000006#30FFFFFFF8FFFFFF
(1547753593.636493) can0 0CF00400#F0FF7D0000FFFFFF
(1547753593.646469) can0 0CF00300#FF0000FF06FFFFFF
(1547753593.647041) can0 0CEFFF00#6406007DFFFFFFFF
(1547753593.647618) can0 18EFFF00#64100B0B0000007D
(1547753593.649393) can0 0DEF0647#0104FFFFFFFFFFF1
(1547753593.650017) can0 0DEF0603#0101FFFFFFFFFFF5
(1547753593.650568) can0 04EF0006#641511F00000930E
(1547753593.651116) can0 0CFFFE06#5C271D271DFFFFFF
(1547753593.651719) can0 18FFFB06#00057DF8FFFFFFFF
(1547753593.656514) can0 0CF00400#F0FF7D0000FFFFFF
(1547753593.666465) can0 0CF00300#FF0000FF06FFFFFF
(1547753593.667042) can0 0CEFFF00#6406007DFFFFFFFF
(1547753593.667619) can0 18FEEE00#4B42FFFFFFFFFFFF
(1547753593.669865) can0 0DEF0603#0101FFFFFFFFFFF5
(1547753593.670418) can0 04EF0006#641512F00000930E
(1547753593.676494) can0 0CF00400#F0FF7D0000FFFFFF
(1547753593.686471) can0 0CF00300#FF0000FF06FFFFFF
(1547753593.687067) can0 0CEFFF00#6406007DFFFFFFFF
(1547753593.689844) can0 0DEF0603#0101FFFFFFFFFFF5
(1547753593.690419) can0 04EF0006#641513F00000930E
(1547753593.690992) can0 0CFE4947#FFFFFFFFFFFFFFFF
(1547753593.691594) can0 0CFE4347#0000FFFF3FFFFFFF
(1547753593.692192) can0 0CFE4447#0000FFFF3FFFFFFF
(1547753593.696520) can0 0CF00400#F0FF7D0000FFFFFF
(1547753593.697092) can0 18FEDF00#7D261DFFFFFFFFFF
(1547753593.706516) can0 0CF00300#FF0000FF06FFFFFF
(1547753593.707092) can0 0CEFFF00#6406007DFFFFFFFF
(1547753593.707666) can0 18FEF200#0000FFFFFFFFFFFF
(1547753593.709870) can0 0DEF0603#0101FFFFFFFFFFF5
(1547753593.710419) can0 04EF0006#641514F00000930E
(1547753593.716520) can0 0CF00400#F0FF7D0000FFFFFF
(1547753593.726447) can0 0CF00300#FF0000FF06FFFFFF
(1547753593.727043) can0 0CEFFF00#6406007DFFFFFFFF
(1547753593.727620) can0 18EF0600#640E8500FFFFFFFF
(1547753593.729870) can0 0DEF0603#0101FFFFFFFFFFF5
(1547753593.730421) can0 04EF0006#641515F00000930E
(1547753593.730993) can0 18FEF147#FF0000FFFFFFFFFF
(1547753593.731595) can0 18F00503#7DFFFFFFFFFFFFFF
(1547753593.736521) can0 0CF00400#F0FF7D0000FFFFFF
(1547753593.746472) can0 0CF00300#FF0000FF06FFFFFF
(1547753593.747043) can0 0CEFFF00#6406007DFFFFFFFF
(1547753593.747620) can0 18EFFF00#64100B0B0000007D
(1547753593.748245) can0 18FEF700#FFFFFFFFFFFFFA00
(1547753593.749417) can0 0DEF0647#0104FFFFFFFFFFF1
(1547753593.750018) can0 0DEF0603#0101FFFFFFFFFFF5
(1547753593.750595) can0 04EF0006#641516F00000930E
(1547753593.756521) can0 0CF00400#F0FF7D0000FFFFFF
(1547753593.766477) can0 0CF00300#FF0000FF06FFFFFF
(1547753593.767050) can0 0CEFFF00#6406007DFFFFFFFF
(1547753593.769851) can0 0DEF0603#0101FFFFFFFFFFF5
(1547753593.770401) can0 04EF0006#641517F00000930E
(1547753593.770999) can0 0CFE4947#FFFFFFFFFFFFFFFF
(1547753593.771576) can0 0CFE4347#0000FFFF3FFFFFFF
(1547753593.772199) can0 0CFE4447#0000FFFF3FFFFFFF
(1547753593.772776) can0 0CFFFE06#5C271D271DFFFFFF
(1547753593.776520) can0 0CF00400#F0FF7D0000FFFFFF
(1547753593.786470) can0 0CF00300#FF0000FF06FFFFFF
(1547753593.787050) can0 0CEFFF00#6406007DFFFFFFFF
(1547753593.789844) can0 0DEF0603#0101FFFFFFFFFFF5
(1547753593.790401) can0 04EF0006#641518F00000930E
(1547753593.796527) can0 0CF00400#F0FF7D0000FFFFFF
(1547753593.806502) can0 0CF00300#FF0000FF06FFFFFF
(1547753593.807099) can0 0CEFFF00#6406007DFFFFFFFF
(1547753593.807677) can0 18FEF200#0000FFFFFFFFFFFF
(1547753593.809877) can0 0DEF0603#0101FFFFFFFFFFF5
(1547753593.810426) can0 04EF0006#641519F00000930E
(1547753593.811025) can0 18FEF147#FF0000FFFFFFFFFF
(1547753593.811603) can0 18F00503#7DFFFFFFFFFFFFFF
(1547753593.816528) can0 0CF00400#F0FF7D0000FFFFFF
(1547753593.826477) can0 0CF00300#FF0000FF06FFFFFF
(1547753593.827050) can0 0CEFFF00#6406007DFFFFFFFF
(1547753593.827652) can0 18EF0600#640E8F00FFFFFFFF
(1547753593.829852) can0 0DEF0603#0101FFFFFFFFFFF5
(1547753593.830401) can0 04EF0006#64151AF00000930E
(1547753593.836522) can0 0CF00400#F0FF7D0000FFFFFF
(1547753593.846474) can0 0CF00300#FF0000FF06FFFFFF
(1547753593.847046) can0 0CEFFF00#6406007DFFFFFFFF
(1547753593.847597) can0 18EFFF00#64100B0B0000007D
(1547753593.848196) can0 18FED500#FFFFFCFFFFFFFFFF
(1547753593.849422) can0 0DEF0647#0104FFFFFFFFFFF1
(1547753593.850045) can0 0DEF0603#0101FFFFFFFFFFF5
(1547753593.850597) can0 04EF0006#64151BF00000930E
(1547753593.851170) can0 0CFFFE06#5C271D271DFFFFFF
(1547753593.856523) can0 0CF00400#F0FF7D0000FFFFFF
(1547753593.866473) can0 0CF00300#FF0000FF06FFFFFF
(1547753593.867071) can0 0CEFFF00#6406007DFFFFFFFF
(1547753593.869848) can0 0DEF0603#0101FFFFFFFFFFF5
(1547753593.870423) can0 04EF0006#64151CF00000930E
(1547753593.876523) can0 0CF00400#F0FF7D0000FFFFFF
(1547753593.886449) can0 0CF00300#FF0000FF06FFFFFF
(1547753593.887047) can0 0CEFFF00#6406007DFFFFFFFF
(1547753593.887623) can0 18FDB300#FFFFC227FFFFFFFF
(1547753593.889874) can0 0DEF0603#0101FFFFFFFFFFF5
(1547753593.890423) can0 04EF0006#64151DF00000930E
(1547753593.890997) can0 0CFE4947#FFFFFFFFFFFFFFFF
(1547753593.891599) can0 0CFE4347#0000FFFF3FFFFFFF
(1547753593.892197) can0 0CFE4447#0000FFFF3FFFFFFF
(1547753593.896520) can0 0CF00400#F0FF7D0000FFFFFF
(1547753593.906520) can0 0CF00300#FF0000FF06FFFFFF
(1547753593.907097) can0 0CEFFF00#6406007DFFFFFFFF
(1547753593.907699) can0 18FEF200#0000FFFFFFFFFFFF
(1547753593.909870) can0 0DEF0603#0101FFFFFFFFFFF5
(1547753593.910423) can0 04EF0006#64151EF00000930E
(1547753593.916525) can0 0CF00400#F0FF7D0000FFFFFF
(1547753593.926476) can0 0CF00300#FF0000FF06FFFFFF
(1547753593.927047) can0 0CEFFF00#6406007DFFFFFFFF
(1547753593.927624) can0 18EF0600#640E9900FFFFFFFF
(1547753593.929875) can0 0DEF0603#0101FFFFFFFFFFF5
(1547753593.930424) can0 04EF0006#64151FF00000930E
(1547753593.930997) can0 18FEF147#FF0000FFFFFFFFFF
(1547753593.931599) can0 18F00503#7DFFFFFFFFFFFFFF
(1547753593.936549) can0 0CF00400#F0FF7D5801FFFFFF
(1547753593.946526) can0 0CF00300#FF0000FF06FFFFFF
(1547753593.947098) can0 0CEFFF00#6406FE7CFFFFFFFF
(1547753593.947699) can0 18EFFF00#641000000000007D
(1547753593.948275) can0 18FEDF00#7D261DFFFFFFFFFF
(1547753593.949844) can0 0DEF0647#0104FFFFFFFFFFF1
(1547753593.950600) can0 0DEF0603#0101FFFFFFFFFFF5
(1547753593.951824) can0 04EF0006#641510F00000930E
(1547753593.956576) can0 0CF00400#F0FF7D7602FFFFFF
(1547753593.966527) can0 0CF00300#FF0000FF06FFFFFF
(1547753593.967098) can0 0CEFFF00#6406FC7CFFFFFFFF
(1547753593.967676) can0 18FEEF00#FFFFFF00FFFFFFFA
(1547753593.970276) can0 0DEF0603#0101FFFFFFFFFFF5
(1547753593.971499) can0 04EF0006#641510F00000930E
(1547753593.972074) can0 0CFE4947#FFFFFFFFFFFFFFFF
(1547753593.972676) can0 0CFFFF47#5DFFFFF3FFFFFFFF
(1547753593.973250) can0 0CFE4347#0000FFFF3FFFFFFF
(1547753593.973875) can0 0CFE4447#0000FFFF3FFFFFFF
(1547753593.974445) can0 0CFFFE06#5C271D271DFFFFFF
(1547753593.976600) can0 0CF00400#F0FF7DD802FFFFFF
(1547753593.986526) can0 0CF00300#FF0000FF06FFFFFF
(1547753593.987099) can0 0CEFFF00#6406FC7CFFFFFFFF
(1547753593.990252) can0 0DEF0603#0101FFFFFFFFFFF5
(1547753593.991464) can0 04EF0006#641510F00000930E
(1547753593.996576) can0 0CF00400#F0FF7D1C03FFFFFF
(1547753594.006552) can0 0CF00300#FF0000FF06FFFFFF
(1547753594.007125) can0 0CEFFF00#6406FB7CFFFFFFFF
(1547753594.007701) can0 18FEF200#0000FFFFFFFFFFFF
(1547753594.010252) can0 0DEF0603#0101FFFFFFFFFFF5
(1547753594.011476) can0 04EF0006#641510F00000930E
(1547753594.012074) can0 18FEF147#FF0000FFFFFFFFFF
(1547753594.012676) can0 18F00503#7DFFFFFFFFFFFFFF
(1547753594.016501) can0 0CF00400#F0FF7D4803FFFFFF
(1547753594.026703) can0 0CF00300#FF0000FF06FFFFFF
(1547753594.027251) can0 0CEFFF00#6406FB7CFFFFFFFF
(1547753594.027849) can0 18EF0600#640EA30AFFFFFFFF
(1547753594.030277) can0 0DEF0603#0101FFFFFFFFFFF5
(1547753594.031501) can0 04EF0006#641510F00000930E
(1547753594.036502) can0 0CF00400#F0FF7D8003FFFFFF
(1547753594.046478) can0 0CF00300#FF0000FF06FFFFFF
(1547753594.047050) can0 0CEFFF00#6406FB7CFFFFFFFF
(1547753594.047626) can0 18EFFF00#641000004001007D
(1547753594.048200) can0 18FEF600#FF0042FF00FFFFFF
(1547753594.049827) can0 0DEF0647#0104FFFFFFFFFFF1
(1547753594.050453) can0 0DEF0603#0101FFFFFFFFFFF5
(1547753594.051652) can0 04EF0006#641510F00000930E
(1547753594.052200) can0 0CFFFE06#5C271D271DFFFFFF
(1547753594.056573) can0 0CF00400#F0FF7D7003FFFFFF
(1547753594.066403) can0 0CF00300#FF0000FF06FFFFFF
(1547753594.066975) can0 0CEFFF00#6406FB7CFFFFFFFF
(1547753594.076467) can0 0CF00400#F0FF7D1403FFFFFF
(1547753594.080218) can0 1CFFFF17#22FFFF3CFFFFFFFF
(1547753594.086420) can0 0CF00300#FF0000FF06FFFFFF
(1547753594.086989) can0 0CEFFF00#6406FB7CFFFFFFFF
(1547753594.096445) can0 0CF00400#F0FF7DCA02FFFFFF
(1547753594.097015) can0 18FFFA00#022C0000180C00A5
(1547753594.106445) can0 0CF00300#FF0000FF06FFFFFF
(1547753594.107015) can0 0CEFFF00#6406FC7CFFFFFFFF
(1547753594.107616) can0 18FEF200#0000FFFFFFFFFFFF
(1547753594.116470) can0 0CF00400#F0FF7D8802FFFFFF
(1547753594.126420) can0 0CF00300#FF0000FF06FFFFFF
(1547753594.126990) can0 0CEFFF00#6406FC7CFFFFFFFF
(1547753594.127567) can0 18EF0600#640EAD0AFFFFFFFF
(1547753594.128140) can0 18FEF500#C8FFFFFFFF3CFFFF
(1547753594.136527) can0 0CF00400#F0FF7DCA02FFFFFF
(1547753594.146477) can0 0CF00300#FF0000FF06FFFFFF
(1547753594.147072) can0 0CEFFF00#6406FC7CFFFFFFFF
(1547753594.147647) can0 18EFFF00#641000004001007D
(1547753594.156503) can0 0CF00400#F0FF7DE203FFFFFF
(1547753594.166504) can0 0CF00300#FF0000FF06FFFFFF
(1547753594.167073) can0 0CEFFF00#6406FA7CFFFFFFFF
(1547753594.167623) can0 18FE6900#72258A26FFFF60FE
(1547753594.176529) can0 0CF00400#F0FF7DEC04FFFFFF
(1547753594.186451) can0 0CF00300#FF0000FF06FFFFFF
(1547753594.187047) can0 0CEFFF00#6406F87CFFFFFFFF
(1547753594.196552) can0 0CF00400#F0FF7D5605FFFFFF
(1547753594.197125) can0 18FEDF00#7E261DFFFFFFFFFF
(1547753594.206500) can0 0CF00300#FF0000FF06FFFFFF
(1547753594.207071) can0 0CEFFF00#6406F87CFFFFFFFF
(1547753594.207649) can0 18FEF200#0000FFFFFFFFFFFF
(1547753594.216528) can0 0CF00400#F0FF7D7605FFFFFF
(1547753594.226478) can0 0CF00300#FF0000FF06FFFFFF
(1547753594.227047) can0 0CEFFF00#6406F77CFFFFFFFF
(1547753594.227627) can0 18EF0600#640EB70AFFFFFFFF
(1547753594.236529) can0 0CF00400#F0FF7DAA05FFFFFF
(1547753594.246478) can0 0CF00300#FF0000FF06FFFFFF
(1547753594.247074) can0 0CEFFF00#6406F77CFFFFFFFF
(1547753594.247649) can0 18EFFF00#641000004001007D
(1547753594.256528) can0 0CF00400#F0FF7DC405FFFFFF
(1547753594.266479) can0 0CF00300#FF0000FF06FFFFFF
(1547753594.267074) can0 0CEFFF00#6406F77CFFFFFFFF
(1547753594.276528) can0 0CF00400#F0FF7DE205FFFFFF
(1547753594.286505) can0 0CF00300#FF0000FF06FFFFFF
(1547753594.287075) can0 0CEFFF00#6406F77CFFFFFFFF
(1547753594.287651) can0 18FD7C00#F880F1F000CF03FC
(1547753594.296528) can0 0CF00400#F0FF7DA805FFFFFF
(1547753594.306529) can0 0CF00300#FF0000FF06FFFFFF
(1547753594.307101) can0 0CEFFF00#6406F77CFFFFFFFF
(1547753594.307677) can0 18FEF200#0000FFFFFFFFFFFF
(1547753594.316530) can0 0CF00400#F0FF7DA005FFFFFF
(1547753594.326471) can0 0CF00300#FF0000FF06FFFFFF
(1547753594.327069) can0 0CEFFF00#6406F77CFFFFFFFF
(1547753594.327621) can0 18EF0600#640EC10EFFFFFFFF
(1547753594.336550) can0 0CF00400#F0FF7DA005FFFFFF
(1547753594.346474) can0 0CF00300#FF0000FF06FFFFFF
(1547753594.347047) can0 0CEFFF00#6406F77CFFFFFFFF
(1547753594.347619) can0 18EFFF00#641000004001007D
(1547753594.356552) can0 0CF00400#F0FF7DA005FFFFFF
(1547753594.366500) can0 0CF00300#FF0000FF06FFFFFF
(1547753594.367071) can0 0CEFFF00#6406F77CFFFFFFFF
(1547753594.376521) can0 0CF00400#F0FF7DA005FFFFFF
(1547753594.386477) can0 0CF00300#FF0000FF06FFFFFF
(1547753594.387070) can0 0CEFFF00#6406F77CFFFFFFFF
(1547753594.387624) can0 18FDB300#FFFFB627FFFFFFFF
(1547753594.388220) can0 1CEFFF00#64070000FFFFFFFF
(1547753594.396523) can0 0CF00400#F0FF7DA005FFFFFF
(1547753594.406525) can0 0CF00300#FF0000FF06FFFFFF
(1547753594.407095) can0 0CEFFF00#6406F77CFFFFFFFF
(1547753594.407673) can0 18FEF200#0000FFFFFFFFFFFF
(1547753594.416528) can0 0CF00400#F0FF7D2E05FFFFFF
(1547753594.426477) can0 0CF00300#FF0000FF06FFFFFF
(1547753594.427073) can0 0CEFFF00#6406F87CFFFFFFFF
(1547753594.427647) can0 18EF0600#640ECB0EFFFFFFFF
(1547753594.436547) can0 0CF00400#F0FF7D1C05FFFFFF
(1547753594.446478) can0 0CF00300#FF0000FF06FFFFFF
(1547753594.447071) can0 0CEFFF00#6406F87CFFFFFFFF
(1547753594.447646) can0 18EFFF00#641000004001007D
(1547753594.448223) can0 18FEDF00#80FC1CFFFFFFFFFF
(1547753594.456524) can0 0CF00400#F0FF7D1C05FFFFFF
(1547753594.466503) can0 0CF00300#FF0000FF06FFFFFF
(1547753594.467073) can0 0CEFFF00#6406F87CFFFFFFFF
(1547753594.467648) can0 18FEEF00#FFFFFF12FFFFFFFA
(1547753594.476549) can0 0CF00400#F0FF7D1C05FFFFFF
(1547753594.486504) can0 0CF00300#FF0000FF06FFFFFF
(1547753594.487071) can0 0CEFFF00#6406F87CFFFFFFFF
(1547753594.496475) can0 0CF00400#F0FF7D1C05FFFFFF
(1547753594.506528) can0 0CF00300#FF0000FF06FFFFFF
(1547753594.507123) can0 0CEFFF00#6406F87CFFFFFFFF
(1547753594.507701) can0 18FEF200#0000FFFFFFFFFFFF
(1547753594.516561) can0 0CF00400#F0FF7D9606FFFFFF
(1547753594.526514) can0 0CF00300#FF0000FF06FFFFFF
(1547753594.527084) can0 0CEFFF00#6406F67CFFFFFFFF
(1547753594.527632) can0 18EF0600#640ED50EFFFFFFFF
(1547753594.536510) can0 0CF00400#F0FF7DAA06FFFFFF
(1547753594.546513) can0 0CF00300#FF0000FF06FFFFFF
(1547753594.547082) can0 0CEFFF00#6406F57CFFFFFFFF
(1547753594.547660) can0 18EFFF00#641000004001007D
(1547753594.548232) can0 18FEF600#FF0042FF00FFFFFF
(1547753594.556536) can0 0CF00400#F0FF7DAA06FFFFFF
(1547753594.566484) can0 18EFFA00#6401FF0000FFFFFF
(1547753594.567058) can0 0CEFFF00#6406F57CFFFFFFFF
(1547753594.567634) can0 0CF00300#FF0000FF06FFFFFF
(1547753594.576473) can0 0CF00400#F0FF7DAA06FFFFFF
(1547753594.586466) can0 0CF00300#FF0000FF06FFFFFF
(1547753594.587083) can0 0CEFFF00#6406F57CFFFFFFFF
(1547753594.596541) can0 0CF00400#F0FF7DAA06FFFFFF
(1547753594.606512) can0 0CF00300#FF0000FF06FFFFFF
(1547753594.607081) can0 0CEFFF00#6406F57CFFFFFFFF
(1547753594.607634) can0 18FEF200#0000FFFFFFFFFFFF
(1547753594.616533) can0 0CF00400#F0FF7D2E05FFFFFF
(1547753594.626508) can0 0CF00300#FF0000FF06FFFFFF
(1547753594.627056) can0 0CEFFF00#6406F87CFFFFFFFF
(1547753594.627680) can0 18EF0600#640EDF0EFFFFFFFF
(1547753594.636562) can0 0CF00400#F0FF7D5604FFFFFF
(1547753594.646508) can0 0CF00300#FF0000FF06FFFFFF
(1547753594.647079) can0 0CEFFF00#6406F97CFFFFFFFF
(1547753594.647658) can0 18EFFF00#641000004001007D
(1547753594.656559) can0 0CF00400#F0FF7D5204FFFFFF
(1547753594.666512) can0 0CF00300#FF0000FF06FFFFFF
(1547753594.667078) can0 0CEFFF00#6406F97CFFFFFFFF
(1547753594.667657) can0 18FEEE00#4B42FFFFFFFFFFFF
(1547753594.676532) can0 0CF00400#F0FF7DBC07FFFFFF
(1547753594.686508) can0 0CF00300#FF0000FF06FFFFFF
(1547753594.687077) can0 0CEFFF00#6406F47CFFFFFFFF
(1547753594.696532) can0 0CF00400#F0FF7DB009FFFFFF
(1547753594.697127) can0 18FEDF00#7FFA1CFFFFFFFFFF
(1547753594.706534) can0 0CF00300#FF0064FF06FFFFFF
(1547753594.707130) can0 0CEFFF00#6406F07CFFFFFFFF
(1547753594.707652) can0 18FEF200#0000FFFFFFFFFFFF
(1547753594.716583) can0 0CF00400#FEFF7DC606FFFFFF
(1547753594.726610) can0 0CF00300#FF0064FF06FFFFFF
(1547753594.727178) can0 0CEFFF00#64068C7DFFFFFFFF
(1547753594.727757) can0 18EF0600#640EE90EFFFFFFFF
(1547753594.736609) can0 0CF00400#FEFFB72206FFFFFF
(1547753594.740247) can0 1CFFFF17#22FFFF3CFFFFFFFF
(1547753594.746526) can0 0CF00300#FF0064FF06FFFFFF
(1547753594.747089) can0 0CEFFF00#64068C7DFFFFFFFF
(1547753594.747665) can0 18EFFF00#641000004901007D
(1547753594.748329) can0 18FEF700#FFFFFFFFFFFFC500
(1547753594.756581) can0 0CF00400#FEFFB75205FFFFFF
(1547753594.766559) can0 0CF00300#FF0064FF06FFFFFF
(1547753594.767129) can0 0CEFFF00#64068C7DFFFFFFFF
(1547753594.776610) can0 0CF00400#FEFFB62605FFFFFF
(1547753594.786536) can0 0CF00300#FF0064FF06FFFFFF
(1547753594.787105) can0 0CEFFF00#64068C7DFFFFFFFF
(1547753594.796585) can0 0CF00400#FEFFB6AA06FFFFFF
(1547753594.806606) can0 0CF00300#FF0064FF06FFFFFF
(1547753594.807156) can0 0CEFFF00#64068C7DFFFFFFFF
(1547753594.807758) can0 18FEF200#1A00FFFFFFFFFFFF
(1547753594.816608) can0 0CF00400#FEFFB77607FFFFFF
(1547753594.826606) can0 0CF00300#FF0064FF06FFFFFF
(1547753594.827180) can0 0CEFFF00#64068C7DFFFFFFFF
(1547753594.827732) can0 18EF0600#640EF30EFFFFFFFF
(1547753594.836635) can0 0CF00400#FEFFB79A07FFFFFF
(1547753594.846585) can0 0CF00300#FF0064FF06FFFFFF
(1547753594.847157) can0 0CEFFF00#64068C7DFFFFFFFF
(1547753594.847730) can0 18EFFF00#641000004C01007D
(1547753594.848333) can0 18FED500#FFFFFCFFFFFFFFFF
(1547753594.856633) can0 0CF00400#FEFFB78207FFFFFF
(1547753594.866562) can0 0CF00300#FF0064FF06FFFFFF
(1547753594.867134) can0 0CEFFF00#64068C7DFFFFFFFF
(1547753594.876548) can0 0CF00400#FEFFB73207FFFFFF
(1547753594.886566) can0 0CF00300#FF0064FF06FFFFFF
(1547753594.887139) can0 0CEFFF00#64068C7DFFFFFFFF
(1547753594.887714) can0 18FDB300#FFFFB627FFFFFFFF
(1547753594.896593) can0 0CF00400#FEFFB7B406FFFFFF
(1547753594.906569) can0 0CF00300#FF0064FF06FFFFFF
(1547753594.907139) can0 0CEFFF00#64068C7DFFFFFFFF
(1547753594.907716) can0 18FEF200#1B00FFFFFFFFFFFF
(1547753594.916594) can0 0CF00400#FEFFB77C06FFFFFF
(1547753594.926589) can0 0CF00300#FF0064FF06FFFFFF
(1547753594.927182) can0 0CEFFF00#64068C7DFFFFFFFF
(1547753594.927733) can0 18EF0600#640EFD0EFFFFFFFF
(1547753594.936633) can0 0CF00400#FEFFB7BA05FFFFFF
(1547753594.946588) can0 0CF00300#FF0064FF06FFFFFF
(1547753594.947159) can0 0CEFFF00#64068C7DFFFFFFFF
(1547753594.947734) can0 18EFFF00#641000004901007D
(1547753594.948334) can0 18FEDF00#80201CFFFFFFFFFF
(1547753594.956660) can0 0CF00400#FEFFB63005FFFFFF
(1547753594.966565) can0 0CF00300#FF0064FF06FFFFFF
(1547753594.967135) can0 0CEFFF00#64068C7DFFFFFFFF
(1547753594.967711) can0 18FEEF00#FFFFFF42FFFFFFFA
(1547753594.976639) can0 0CF00400#FEFFB62408FFFFFF
(1547753594.986614) can0 0CF00300#FF0064FF06FFFFFF
(1547753594.987181) can0 0CEFFF00#64068C7DFFFFFFFF
(1547753594.996584) can0 0CF00400#FEFFB88C0BFFFFFF
(1547753595.006640) can0 0CF00300#FF0064FF06FFFFFF
(1547753595.007210) can0 0CEFFF00#64068C7DFFFFFFFF
(1547753595.007811) can0 18FEF200#3000FFFFFFFFFFFF
(1547753595.016640) can0 0CF00400#FEFFBA600CFFFFFF
(1547753595.026590) can0 0CF00300#FF0064FF06FFFFFF
(1547753595.027161) can0 0CEFFF00#64068C7DFFFFFFFF
(1547753595.027735) can0 18EF0600#640E070EFFFFFFFF
(1547753595.036641) can0 0CF00400#FEFFBB320CFFFFFF
(1547753595.046567) can0 0CF00300#FF0064FF06FFFFFF
(1547753595.047135) can0 0CEFFF00#64068C7DFFFFFFFF
(1547753595.047712) can0 18EFFF00#641000005401007D
(1547753595.048283) can0 18FEF600#FF0042FF00FFFFFF
(1547753595.056613) can0 0CF00400#FEFFBBD40AFFFFFF
(1547753595.066620) can0 0CF00300#FF0064FF06FFFFFF
(1547753595.067186) can0 0CEFFF00#64068C7DFFFFFFFF
(1547753595.076673) can0 0CF00400#FEFFB94009FFFFFF
(1547753595.086600) can0 0CF00300#FF0064FF06FFFFFF
(1547753595.087168) can0 0CEFFF00#64068C7DFFFFFFFF
(1547753595.096700) can0 0CF00400#FEFFB9F40DFFFFFF
(1547753595.097270) can0 18FFFA00#022C0000180C00A5
(1547753595.106680) can0 0CF00300#FF0064FF06FFFFFF
(1547753595.107245) can0 0CEFFF00#64068C7DFFFFFFFF
(1547753595.107847) can0 18FEF200#3C00FFFFFFFFFFFF
(1547753595.116649) can0 0CF00400#FEFFBC6A0DFFFFFF
(1547753595.126627) can0 0CF00300#FF0064FF06FFFFFF
(1547753595.127195) can0 0CEFFF00#64068C7DFFFFFFFF
(1547753595.127746) can0 18EF0600#640E110EFFFFFFFF
(1547753595.128346) can0 18FEF500#C8FFFFFFFF3DFFFF
(1547753595.136624) can0 0CF00400#FEFFBB140FFFFFFF
(1547753595.146602) can0 0CF00300#FF0064FF06FFFFFF
(1547753595.147172) can0 0CEFFF00#64068C7DFFFFFFFF
(1547753595.147749) can0 18EFFF00#641000009801007D
(1547753595.156672) can0 0CF00400#FEFFBCA20DFFFFFF
(1547753595.166576) can0 0CF00300#FF0064FF06FFFFFF
(1547753595.167171) can0 0CEFFF00#64068C7DFFFFFFFF
(1547753595.167721) can0 18FE6900#62258C26FFFF60FE
(1547753595.176647) can0 0CF00400#FEFFBB100FFFFFFF
(1547753595.186624) can0 0CF00300#FF0064FF06FFFFFF
(1547753595.187196) can0 0CEFFF00#64068C7DFFFFFFFF
(1547753595.196650) can0 0CF00400#FEFFBC4210FFFFFF
(1547753595.197223) can0 18FEDF00#86201CFFFFFFFFFF
(1547753595.206604) can0 0CF00300#FF0064FF06FFFFFF
(1547753595.207196) can0 0CEFFF00#64068C7DFFFFFFFF
(1547753595.207775) can0 18FEF200#4800FFFFFFFFFFFF
(1547753595.216703) can0 0CF00400#FEFFBD5410FFFFFF
(1547753595.226728) can0 0CF00300#FF0064FF06FFFFFF
(1547753595.227300) can0 0CEFFF00#64068C7DFFFFFFFF
(1547753595.227875) can0 18EF0600#640E1B0EFFFFFFFF
(1547753595.236654) can0 0CF00400#FEFFBD1211FFFFFF
(1547753595.246604) can0 0CF00300#FF0064FF06FFFFFF
(1547753595.247132) can0 0CEFFF00#64068C7DFFFFFFFF
(1547753595.247680) can0 18EFFF00#64100000CB01007D
(1547753595.256678) can0 0CF00400#FEFFBEFC11FFFFFF
(1547753595.266606) can0 0CF00300#FF0064FF06FFFFFF
(1547753595.267199) can0 0CEFFF00#64068C7DFFFFFFFF
(1547753595.276654) can0 0CF00400#FEFFBED012FFFFFF
(1547753595.286729) can0 0CF00300#FF0064FF06FFFFFF
(1547753595.287298) can0 0CEFFF00#64068C7DFFFFFFFF
(1547753595.287804) can0 18FD7C00#F880F1F000CF03FC
(1547753595.296701) can0 0CF00400#FEFFBFB813FFFFFF
(1547753595.306654) can0 0CF00300#FF0064FF06FFFFFF
(1547753595.307227) can0 0CEFFF00#64068C7DFFFFFFFF
(1547753595.307825) can0 18FEF200#5A00FFFFFFFFFFFF
(1547753595.316630) can0 0CF00400#FEFFBFA214FFFFFF
(1547753595.326608) can0 0CF00300#FF0064FF06FFFFFF
(1547753595.327172) can0 0CEFFF00#64068C7DFFFFFFFF
(1547753595.327749) can0 18EF0600#640E250EFFFFFFFF
(1547753595.336705) can0 0CF00400#FEFFBF6215FFFFFF
(1547753595.346757) can0 0CF00300#FF0064FF06FFFFFF
(1547753595.347350) can0 0CEFFF00#64068C7DFFFFFFFF
(1547753595.347923) can0 18EFFF00#641000003C02007D
(1547753595.356682) can0 0CF00400#FEFFBF8616FFFFFF
(1547753595.366659) can0 0CF00300#FF0064FF06FFFFFF
(1547753595.367225) can0 0CEFFF00#64068C7DFFFFFFFF
(1547753595.376646) can0 0CF00400#FEFFC05C17FFFFFF
(1547753595.386615) can0 0CF00300#FF0064FF06FFFFFF
(1547753595.387211) can0 0CEFFF00#64068F7DFFFFFFFF
(1547753595.387763) can0 18FDB300#FFFFC227FFFFFFFF
(1547753595.388362) can0 1CEFFF00#64070000FFFFFFFF
(1547753595.396864) can0 0CF00400#FEFFC13A18FFFFFF
(1547753595.400363) can0 1CFFFF17#22FFFF3CFFFFFFFF
(1547753595.406641) can0 0CF00300#FF0064FF06FFFFFF
(1547753595.407211) can0 0CEFFF00#6406927DFFFFFFFF
(1547753595.407788) can0 18FEF200#7000FFFFFFFFFFFF
(1547753595.416614) can0 0CF00400#FEFFC21C19FFFFFF
(1547753595.426617) can0 0CF00300#FF0064FF06FFFFFF
(1547753595.427187) can0 0CEFFF00#6406947DFFFFFFFF
(1547753595.427739) can0 18EF0600#640E2F0EFFFFFFFF
(1547753595.436742) can0 0CF00400#FEFFC3FA19FFFFFF
(1547753595.446641) can0 0CF00300#FF0064FF06FFFFFF
(1547753595.447213) can0 0CEFFF00#6406987DFFFFFFFF
(1547753595.447789) can0 18EFFF00#64100000B102007D
(1547753595.448365) can0 18FEDF00#8A201CFFFFFFFFFF
(1547753595.456691) can0 0CF00400#FEFFC5D81AFFFFFF
(1547753595.466617) can0 0CF00300#FF0064FF06FFFFFF
(1547753595.467187) can0 0CEFFF00#64069B7DFFFFFFFF
(1547753595.467766) can0 18FEEF00#FFFFFF5EFFFFFFFA
(1547753595.476692) can0 0CF00400#F8FFC6C41BFFFFFF
(1547753595.486918) can0 0CF00300#FF0064FF06FFFFFF
(1547753595.487490) can0 0CEFFF00#64069E7DFFFFFFFF
(1547753595.496768) can0 0CF00400#F8FFC8A21CFFFFFF
(1547753595.506716) can0 0CF00300#FF0064FF06FFFFFF
(1547753595.507316) can0 0CEFFF00#6406A17DFFFFFFFF
(1547753595.507864) can0 18FEF200#5500FFFFFFFFFFFF
(1547753595.516815) can0 0CF00400#F8FFC90E1DFFFFFF
(1547753595.526689) can0 0CF00300#FF0064FF06FFFFFF
(1547753595.527261) can0 0CEFFF00#6406A27DFFFFFFFF
(1547753595.527838) can0 18EF0600#640E390EFFFFFFFF
(1547753595.536866) can0 0CF00400#F8FFCA281DFFFFFF
(1547753595.546692) can0 0CF00300#FF0064FF06FFFFFF
(1547753595.547261) can0 0CEFFF00#6406A27DFFFFFFFF
(1547753595.547839) can0 18EFFF00#64100101ED02007D
(1547753595.548413) can0 18FEF600#FF0041FF00FFFFFF
(1547753595.556741) can0 0CF00400#F8FFCA801DFFFFFF
(1547753595.566766) can0 18EFFA00#6401FF0000FFFFFF
(1547753595.567340) can0 0CEFFF00#6406A27DFFFFFFFF
(1547753595.567913) can0 0CF00300#FF0064FF06FFFFFF
(1547753595.576914) can0 0CF00400#F0FFCAFA1DFFFFFF
(1547753595.586693) can0 0CF00300#FF0050FF06FFFFFF
(1547753595.587314) can0 0CEFFF00#6406917DFFFFFFFF
(1547753595.592889) can0 18EEFF47#4D74300400340220
(1547753595.593464) can0 18EEFF06#4D743004000E0020
(1547753595.594039) can0 18EEFF03#4D74300400030220
(1547753595.596741) can0 0CF00400#F0FFC3821EFFFFFF
(1547753595.606841) can0 0CF00300#FF002DFF06FFFFFF
(1547753595.607402) can0 0CEFFF00#64065B7DFFFFFFFF
(1547753595.607994) can0 18FEF200#3900FFFFFFFFFFFF
(1547753595.616889) can0 0CF00400#F0FFAF1C1FFFFFFF
(1547753595.626717) can0 0CF00300#FF000CFF06FFFFFF
(1547753595.627314) can0 0CEFFF00#6406147DFFFFFFFF
(1547753595.627864) can0 18EF0600#640E430EFFFFFFFF
(1547753595.636691) can0 0CF00400#F0FF938A1FFFFFFF
(1547753595.646690) can0 0CF00300#FF0000FF06FFFFFF
(1547753595.647264) can0 0CEFFF00#6406E07CFFFFFFFF
(1547753595.647840) can0 18EFFF00#641001010603057D
(1547753595.656691) can0 0CF00400#F1FF80AA1FFFFFFF
(1547753595.663890) can0 18EEFF17#0C6E240400130220
(1547753595.666692) can0 0CF00300#FF0000FF06FFFFFF
(1547753595.667264) can0 0CEFFF00#6406D97CFFFFFFFF
(1547753595.667841) can0 18FEEE00#4B43FFFFFFFFFFFF
(1547753595.676693) can0 0CF00400#F1FF7D821FFFFFFF
(1547753595.686669) can0 0CF00300#FF0000FF06FFFFFF
(1547753595.687239) can0 0CEFFF00#6406D97CFFFFFFFF
(1547753595.696744) can0 0CF00400#F1FF7D0A1FFFFFFF
(1547753595.697315) can0 18FEDF00#8CD61CFFFFFFFFFF
(1547753595.706669) can0 0CF00300#FF0000FF06FFFFFF
(1547753595.707239) can0 0CEFFF00#6406DA7CFFFFFFFF
(1547753595.707842) can0 18FEF200#0000FFFFFFFFFFFF
(1547753595.716694) can0 0CF00400#F1FF7DA21EFFFFFF
(1547753595.726670) can0 0CF00300#FF0009FF06FFFFFF
(1547753595.727265) can0 0CEFFF00#6406DA7CFFFFFFFF
(1547753595.727842) can0 18EF0600#640E4D0EFFFFFFFF
(1547753595.736744) can0 0CF00400#F1FF7D321EFFFFFF
(1547753595.746669) can0 0CF00300#FF0014FF06FFFFFF
(1547753595.747266) can0 0CEFFF00#6406FD7CFFFFFFFF
(1547753595.747817) can0 18EFFF00#64100101EB02067D
(1547753595.748418) can0 18FEF700#FFFFFFFFFFFFEC00
(1547753595.756694) can0 0CF00400#F1FF8AC41DFFFFFF
(1547753595.766694) can0 0CF00300#FF001BFF06FFFFFF
(1547753595.767244) can0 0CEFFF00#6406067DFFFFFFFF
(1547753595.777045) can0 0CF00400#F1FF8E5C1DFFFFFF
(1547753595.786646) can0 0CF00300#FF0023FF06FFFFFF
(1547753595.787242) can0 0CEFFF00#6406177DFFFFFFFF
(1547753595.796721) can0 0CF00400#F0FF94101DFFFFFF
(1547753595.806722) can0 0CF00300#FF004FFF06FFFFFF
(1547753595.807318) can0 0CEFFF00#6406727DFFFFFFFF
(1547753595.807892) can0 18FEF200#3D00FFFFFFFFFFFF
(1547753595.816795) can0 0CF00400#F0FFB7DC1CFFFFFF
(1547753595.826737) can0 0CF00300#FF0053FF06FFFFFF
(1547753595.827310) can0 0CEFFF00#64067C7DFFFFFFFF
(1547753595.827883) can0 18EF0600#640E570EFFFFFFFF
(1547753595.836763) can0 0CF00400#F0FFBBBE1CFFFFFF
(1547753595.846715) can0 0CF00300#FF004FFF06FFFFFF
(1547753595.847310) can0 0CEFFF00#64067F7DFFFFFFFF
(1547753595.847858) can0 18EFFF00#64100101DF02037D
(1547753595.848438) can0 18FED500#FFFFFDFFFFFFFFFF
(1547753595.854164) can0 0DEF0603#0101FFFFFFFFFFF5
(1547753595.856837) can0 0CF00400#F0FFBC141DFFFFFF
(1547753595.866884) can0 0CF00300#FF0040FF06FFFFFF
(1547753595.867455) can0 0CEFFF00#6406697DFFFFFFFF
(1547753595.874062) can0 0DEF0647#0104FFFFFFFFFFF1
(1547753595.874659) can0 0DEF0603#0101FFFFFFFFFFF5
(1547753595.875038) can0 18EAFF47#00EE00
(1547753595.875638) can0 0CFFFE06#5CFFFFFFFFFFFFFF
(1547753595.876762) can0 0CF00400#F0FFB4741DFFFFFF
(1547753595.886738) can0 0CF00300#FF0032FF06FFFFFF
(1547753595.887311) can0 0CEFFF00#6406497DFFFFFFFF
(1547753595.887885) can0 18FDB300#FFFFC227FFFFFFFF
(1547753595.894165) can0 0DEF0603#0101FFFFFFFFFFF5
(1547753595.896812) can0 0CF00400#F0FFA7BA1DFFFFFF
(1547753595.901891) can0 18EEFF00#56F5290400000220
(1547753595.906840) can0 0CF00300#FF0025FF06FFFFFF
(1547753595.907412) can0 0CEFFF00#6406327DFFFFFFFF
(1547753595.908011) can0 18FEF200#2600FFFFFFFFFFFF
(1547753595.914165) can0 0DEF0603#0101FFFFFFFFFFF5
(1547753595.914763) can0 0CFE4947#FFFFFFFFFFFFFFFF
(1547753595.915363) can0 0CFE4347#FFFFFFFFFFFFFFFF
(1547753595.915961) can0 0CFE4447#0000FFFF3FFFFFFF
(1547753595.916762) can0 0CF00400#F0FF9F041EFFFFFF
(1547753595.926735) can0 0CF00300#FF001AFF06FFFFFF
(1547753595.927305) can0 0CEFFF00#6406177DFFFFFFFF
(1547753595.927882) can0 18EF0600#640E610EFFFFFFFF
(1547753595.934205) can0 0DEF0603#0101FFFFFFFFFFF5
(1547753595.936805) can0 0CF00400#F0FF94201EFFFFFF
(1547753595.944509) can0 18EAFF17#00EE00
(1547753595.946932) can0 0CF00300#FF0012FF06FFFFFF
(1547753595.947505) can0 0CEFFF00#6406057DFFFFFFFF
(1547753595.948103) can0 18EFFF00#64100101EF02067D
(1547753595.948682) can0 18FEDF00#8B201CFFFFFFFFFF
(1547753595.949609) can0 18EEFF00#56F5290400000220
(1547753595.954212) can0 0DEF0603#0101FFFFFFFFFFF5
(1547753595.954782) can0 18FEF147#FF0000FFFFFFFFFF
(1547753595.955383) can0 18F00503#FFFFFFFFFFFFFFFF
(1547753595.956807) can0 0CF00400#F0FF8E201EFFFFFF
(1547753595.964580) can0 1CFFFF17#22FFFF3CFFFFFFFF
(1547753595.966734) can0 0CF00300#FF0000FF06FFFFFF
(1547753595.967304) can0 0CEFFF00#6406FA7CFFFFFFFF
(1547753595.967882) can0 18FEEF00#FFFFFF66FFFFFFFA
(1547753595.974112) can0 0DEF0647#0104FFFFFFFFFFF1
(1547753595.974708) can0 0DEF0603#0101FFFFFFFFFFF5
(1547753595.976709) can0 0CF00400#F1FF89FC1DFFFFFF
(1547753595.986710) can0 0CF00300#FF0000FF06FFFFFF
(1547753595.987280) can0 0CEFFF00#6406DA7CFFFFFFFF
(1547753595.994173) can0 0DEF0603#0101FFFFFFFFFFF5
(1547753595.994792) can0 0CFE4947#FFFFFFFFFFFFFFFF
(1547753595.995375) can0 0CFE4347#FFFFFFFFFFFFFFFF
(1547753595.996006) can0 0CFE4447#0000FFFF3FFFFFFF
(1547753595.996594) can0 0CFFFE06#5CFFFFFFFFFFFFFF
(1547753595.997205) can0 0CF00400#F1FF7DC81DFFFFFF
(1547753596.006668) can0 0CF00300#FF0011FF06FFFFFF
(1547753596.007256) can0 0CEFFF00#6406DA7CFFFFFFFF
(1547753596.007882) can0 18FEF200#0000FFFFFFFFFFFF
(1547753596.014163) can0 0DEF0603#0101FFFFFFFFFFF5
(1547753596.016762) can0 0CF00400#F1FF7D621DFFFFFF
(1547753596.026816) can0 0CF00300#FF0017FF06FFFFFF
(1547753596.027382) can0 0CEFFF00#6406047DFFFFFFFF
(1547753596.027934) can0 18EF0600#640E6B0EFFFFFFFF
(1547753596.034213) can0 0DEF0603#0101FFFFFFFFFFF5
(1547753596.034783) can0 18FEF147#FF0000FFFFFFFFFF
(1547753596.035383) can0 18F00503#FFFFFFFFFFFFFFFF
(1547753596.036785) can0 0CF00400#F1FF8DFA1CFFFFFF
(1547753596.046738) can0 0CF00300#FF0021FF06FFFFFF
(1547753596.047255) can0 0CEFFF00#6406157DFFFFFFFF
(1547753596.047887) can0 18EFFF00#64100101D702057D
(1547753596.048460) can0 18FEF600#FF0041FF00FFFFFF
(1547753596.054214) can0 0DEF0603#0101FFFFFFFFFFF5
(1547753596.056758) can0 0CF00400#F1FF93A61CFFFFFF
(1547753596.064515) can0 18EA0017#09FF00
(1547753596.066865) can0 0CF00300#FF003AFF06FFFFFF
(1547753596.067434) can0 0CEFFF00#6406197DFFFFFFFF
(1547753596.074082) can0 0DEF0647#0104FFFFFFFFFFF1
(1547753596.074709) can0 0DEF0603#0101FFFFFFFFFFF5
(1547753596.075358) can0 0CFFFE06#5CFFFFFFFFFFFFFF
(1547753596.076933) can0 0CF00400#F0FF955A1CFFFFFF
(1547753596.086813) can0 0CF00300#FF003EFF06FFFFFF
(1547753596.087360) can0 0CEFFF00#6406517DFFFFFFFF
(1547753596.094711) can0 0DEF0603#0101FFFFFFFFFFF5
(1547753596.095862) can0 0C000006#30FFFFFFF8FFFFFF
(1547753596.096408) can0 04EF0006#641510F00000930E
(1547753596.096984) can0 0CF00400#F0FFAA321CFFFFFF
(1547753596.097560) can0 18FFFA00#022C0000180C0081
(1547753596.102091) can0 18FF0900#454355FFFFFFFFFF
(1547753596.106790) can0 0CF00300#FF003CFF06FFFFFF
(1547753596.107361) can0 0CEFFF00#6406547DFFFFFFFF
(1547753596.107933) can0 18FEF200#3200FFFFFFFFFFFF
(1547753596.114689) can0 0DEF0603#0101FFFFFFFFFFF5
(1547753596.115884) can0 04EF0006#641510F00000930E
(1547753596.116460) can0 0CFE4947#FFFFFFFFFFFFFFFF
(1547753596.117037) can0 0CF00400#F0FFAC601CFFFFFF
(1547753596.117609) can0 0CFE4347#FFFFFFFFFFFFFFFF
(1547753596.118188) can0 18FFFB06#0005E1F8FFFFFFFF
(1547753596.118715) can0 0CFE4447#0000FFFF3FFFFFFF
(1547753596.119311) can0 0CFFFE06#5C271D271DFFFFFF
(1547753596.126789) can0 0CF00300#FF0037FF06FFFFFF
(1547753596.127360) can0 0CEFFF00#64064D7DFFFFFFFF
(1547753596.127885) can0 18EF0600#640E750AFFFFFFFF
(1547753596.128457) can0 18FEF500#C8FFFFFFFF3CFFFF
(1547753596.134716) can0 0DEF0603#0101FFFFFFFFFFF5
(1547753596.135884) can0 04EF0006#641510F00000930E
(1547753596.136809) can0 0CF00400#F0FFA9961CFFFFFF
(1547753596.146764) can0 0CF00300#FF0035FF06FFFFFF
(1547753596.147359) can0 0CEFFF00#6406457DFFFFFFFF
(1547753596.147908) can0 18EFFF00#64100101D802037D
(1547753596.154717) can0 0DEF0603#0101FFFFFFFFFFF5
(1547753596.155911) can0 04EF0006#641510F00000930E
(1547753596.156487) can0 18FEF147#FF0000FFFFFFFFFF
(1547753596.157033) can0 0CF00400#F0FFA6BC1CFFFFFF
(1547753596.157636) can0 18F00503#FFFFFFFFFFFFFFFF
(1547753596.166890) can0 0CF00300#FF0031FF06FFFFFF
(1547753596.167461) can0 0CEFFF00#64063F7DFFFFFFFF
(1547753596.168034) can0 18FE6900#3E258E26FFFF60FE
(1547753596.174616) can0 0DEF0647#0104FFFFFFFFFFF1
(1547753596.175209) can0 0DEF0603#0101FFFFFFFFFFF5
(1547753596.176362) can0 04EF0006#641510F00000930E
(1547753596.176936) can0 0CF00400#F0FFA3E41CFFFFFF
(1547753596.186766) can0 0CF00300#FF002BFF06FFFFFF
(1547753596.187363) can0 0CEFFF00#6406367DFFFFFFFF
(1547753596.194992) can0 0DEF0603#0101FFFFFFFFFFF5
(1547753596.196186) can0 04EF0006#641510F00000930E
(1547753596.196762) can0 0CFE4947#FFFFFFFFFFFFFFFF
(1547753596.197362) can0 0CF00400#F0FFA0081DFFFFFF
(1547753596.197913) can0 0CFFFF47#5DFFFFF3FFFFFFFF
(1547753596.198488) can0 18FEDF00#8B201CFFFFFFFFFF
(1547753596.199084) can0 0CFE4347#0000FFFF3FFFFFFF
(1547753596.199639) can0 0CFE4447#0000FFFF3FFFFFFF
(1547753596.206868) can0 0CF00300#FF0027FF06FFFFFF
(1547753596.207438) can0 0CEFFF00#64062C7DFFFFFFFF
(1547753596.208042) can0 18FEF200#2300FFFFFFFFFFFF
(1547753596.214992) can0 0DEF0603#0101FFFFFFFFFFF5
(1547753596.216188) can0 04EF0006#641510F00000930E
(1547753596.216864) can0 0CF00400#F0FF9C1A1DFFFFFF
(1547753596.226742) can0 0CF00300#FF0023FF06FFFFFF
(1547753596.227312) can0 0CEFFF00#6406257DFFFFFFFF
(1547753596.227886) can0 18EF0600#640E7F0AFFFFFFFF
(1547753596.234993) can0 0DEF0603#0101FFFFFFFFFFF5
(1547753596.236187) can0 04EF0006#641510F00000930E
(1547753596.236737) can0 0CFFFE06#5C271D271DFFFFFF
(1547753596.237313) can0 0CF00400#F0FF99301DFFFFFF
(1547753596.237891) can0 18FEF147#FF0000FFFFFFFFFF
(1547753596.238489) can0 18FFFB06#0005AEF8FFFFFFFF
(1547753596.239037) can0 18F00503#7DFFFFFFFFFFFFFF
(1547753596.246821) can0 0CF00300#FF001FFF06FFFFFF
(1547753596.247439) can0 0CEFFF00#64061C7DFFFFFFFF
(1547753596.248011) can0 18EFFF00#64100101E002057D
(1547753596.254942) can0 0DEF0603#0101FFFFFFFFFFF5
(1547753596.256140) can0 04EF0006#641510F00000930E
(1547753596.256838) can0 0CF00400#F0FF963E1DFFFFFF
(1547753596.266769) can0 0CF00300#FF001DFF06FFFFFF
(1547753596.267311) can0 0CEFFF00#6406157DFFFFFFFF
(1547753596.274668) can0 0DEF0647#0104FFFFFFFFFFF1
(1547753596.275262) can0 0DEF0603#0101FFFFFFFFFFF5
(1547753596.276312) can0 04EF0006#641510F00000930E
(1547753596.276887) can0 0CF00400#F0FF932C1DFFFFFF
(1547753596.277463) can0 18FFFF06#73FFFFFFFFFFFFFF
(1547753596.278038) can0 18EEFF47#4D74300400340220
(1547753596.278615) can0 18EEFF06#4D743004000E0020
(1547753596.279113) can0 18EEFF17#0C6E240400130220
(1547753596.279689) can0 18EEFF03#4D74300400030220
(1547753596.286745) can0 0CF00300#FF0020FF06FFFFFF
(1547753596.287390) can0 0CEFFF00#6406177DFFFFFFFF
(1547753596.287889) can0 18FD7C00#F880F1F000CF03FD
(1547753596.294944) can0 0DEF0603#0101FFFFFFFFFFF5
(1547753596.296189) can0 04EF0006#641510F00000930E
(1547753596.296839) can0 0CF00400#F0FF94101DFFFFFF
(1547753596.306769) can0 0CF00300#FF0022FF06FFFFFF
(1547753596.307366) can0 0CEFFF00#64061C7DFFFFFFFF
(1547753596.307937) can0 18FEF200#1A00FFFFFFFFFFFF
(1547753596.314996) can0 0DEF0603#0101FFFFFFFFFFF5
(1547753596.316190) can0 04EF0006#641510F00000930E
(1547753596.316764) can0 0CFE4947#FFFFFFFFFFFFFFFF
(1547753596.317365) can0 0CF00400#F0FF96F81CFFFFFF
(1547753596.317915) can0 0CFE4347#0000FFFF3FFFFFFF
(1547753596.318491) can0 1CFDDF47#FCFFFFFFFFFFFFFF
(1547753596.319040) can0 0CFE4447#0000FFFF3FFFFFFF
(1547753596.319616) can0 0CFFFE06#5C271D271DFFFFFF
(1547753596.326816) can0 0CF00300#FF0025FF06FFFFFF
(1547753596.327414) can0 0CEFFF00#6406207DFFFFFFFF
(1547753596.327916) can0 18EF0600#640E890AFFFFFFFF
(1547753596.334953) can0 0DEF0603#0101FFFFFFFFFFF5
(1547753596.336198) can0 04EF0006#641510F00000930E
(1547753596.336923) can0 0CF00400#F0FF98D01CFFFFFF
(1547753596.346801) can0 0CF00300#FF0028FF06FFFFFF
(1547753596.347376) can0 0CEFFF00#6406277DFFFFFFFF
(1547753596.347948) can0 18EFFF00#64100101DA02057D
(1547753596.355005) can0 0DEF0603#0101FFFFFFFFFFF5
(1547753596.356200) can0 04EF0006#641510F00000930E
(1547753596.356775) can0 18FEF147#FF0000FFFFFFFFFF
(1547753596.357373) can0 0CF00400#F0FF9AB61CFFFFFF
(1547753596.357925) can0 18F00647#FFCFFFFFFFFFFFFF
(1547753596.358525) can0 18FFFB06#0005A2F8FFFFFFFF
(1547753596.359078) can0 18F00503#7DFFFFFFFFFFFFFF
(1547753596.366732) can0 0CF00300#FF0028FF06FFFFFF
(1547753596.367376) can0 0CEFFF00#64062A7DFFFFFFFF
(1547753596.374631) can0 0DEF0647#0104FFFFFFFFFFF1
(1547753596.375237) can0 0DEF0603#0101FFFFFFFFFFF5
(1547753596.376278) can0 04EF0006#641510F00000930E
(1547753596.376870) can0 0CF00400#F0FF9BAE1CFFFFFF
(1547753596.386803) can0 0CF00300#FF0028FF06FFFFFF
(1547753596.387375) can0 0CEFFF00#64062A7DFFFFFFFF
(1547753596.387948) can0 18FDB300#FFFFC227FFFFFFFF
(1547753596.388526) can0 1CEFFF00#64070000FFFFFFFF
(1547753596.395004) can0 0DEF0603#0101FFFFFFFFFFF5
(1547753596.396199) can0 04EF0006#641511F0E818930E
(1547753596.396775) can0 0CFE4947#FFFFFFFFFFFFFFFF
(1547753596.397374) can0 0CF00400#F0FF9BA21CFFFFFF
(1547753596.397926) can0 0CFE4347#0000FFFF3FFFFFFF
(1547753596.398481) can0 0CFE4447#0000FFFF3FFFFFFF
(1547753596.406759) can0 0CF00300#FF0028FF06FFFFFF
(1547753596.407376) can0 0CEFFF00#64062A7DFFFFFFFF
(1547753596.407974) can0 18FEF200#2000FFFFFFFFFFFF
(1547753596.414958) can0 0DEF0603#0101FFFFFFFFFFF5
(1547753596.416155) can0 04EF0006#641512F03419930E
(1547753596.416953) can0 0CF00400#F0FF9B961CFFFFFF
(1547753596.426904) can0 0CF00300#FF0028FF06FFFFFF
(1547753596.427475) can0 0CEFFF00#64062B7DFFFFFFFF
(1547753596.428048) can0 18EF0600#640E9302FFFFFFFF
(1547753596.435004) can0 0DEF0603#0101FFFFFFFFFFF5
(1547753596.436226) can0 04EF0006#641513F00000930E
(1547753596.436804) can0 0CFFFE06#5C271D271DFFFFFF
(1547753596.437377) can0 0CF00400#F0FF9C941CFFFFFF
(1547753596.437929) can0 18FEF147#FF0000FFFFFFFFFF
(1547753596.438529) can0 18F00503#7DFFFFFFFFFFFFFF
(1547753596.446739) can0 0CF00300#FF0028FF06FFFFFF
(1547753596.447375) can0 0CEFFF00#64062A7DFFFFFFFF
(1547753596.447923) can0 18EFFF00#64100101D502047D
(1547753596.448455) can0 18FEDF00#8B201CFFFFFFFFFF
(1547753596.454958) can0 0DEF0603#0101FFFFFFFFFFF5
(1547753596.456202) can0 04EF0006#641514F00000930E
(1547753596.456925) can0 0CF00400#F0FF9B921CFFFFFF
(1547753596.464552) can0 18EA4717#09FF00
(1547753596.464949) can0 18EA0617#09FF00
(1547753596.465377) can0 18EA0317#09FF00
(1547753596.466981) can0 0CF00300#FF0028FF06FFFFFF
(1547753596.467553) can0 0CEFFF00#64062A7DFFFFFFFF
(1547753596.468151) can0 18FEEF00#FFFFFF66FFFFFFFA
(1547753596.474682) can0 0DEF0647#0104FFFFFFFFFFF1
(1547753596.475276) can0 0DEF0603#0101FFFFFFFFFFF5
(1547753596.476378) can0 04EF0006#641515F00000930E
(1547753596.476899) can0 0CF00400#F0FF9B861CFFFFFF
(1547753596.477479) can0 18FF0947#434355FFFFFFFFFF
(1547753596.478078) can0 18FF0906#454943FFFFFFFFFF
(1547753596.478633) can0 18FF0903#505452FFFFFFFFFF
(1547753596.479236) can0 18FFFB06#0005AAF8FFFFFFFF
(1547753596.479877) can0 18FECA06#00FF00000000FFFF
(1547753596.480476) can0 18FECA47#00FF00000000FFFF
(1547753596.481679) can0 18FECA03#00FF00000000FFFF
(1547753596.486782) can0 0CF00300#FF0028FF06FFFFFF
(1547753596.487378) can0 0CEFFF00#64062A7DFFFFFFFF
(1547753596.495004) can0 0DEF0603#0101FFFFFFFFFFF5
(1547753596.496201) can0 04EF0006#641516F00000930E
(1547753596.496851) can0 0CF00400#F0FF9B8A1CFFFFFF
(1547753596.506828) can0 0CF00300#FF0027FF06FFFFFF
(1547753596.507401) can0 0CEFFF00#6406297DFFFFFFFF
(1547753596.508003) can0 18FEF200#2000FFFFFFFFFFFF
(1547753596.515007) can0 0DEF0603#0101FFFFFFFFFFF5
(1547753596.516204) can0 04EF0006#641517F00000930E
(1547753596.516805) can0 0CFE4947#FFFFFFFFFFFFFFFF
(1547753596.517378) can0 0CF00400#F0FF9B941CFFFFFF
(1547753596.517929) can0 0CFE4347#0000FFFF3FFFFFFF
(1547753596.518529) can0 0CFE4447#0000FFFF3FFFFFFF
(1547753596.519082) can0 0CFFFE06#5C271D271DFFFFFF
(1547753596.526738) can0 0CF00300#FF0026FF06FFFFFF
(1547753596.527379) can0 0CEFFF00#6406277DFFFFFFFF
(1547753596.527881) can0 18EF0600#640E9D00FFFFFFFF
(1547753596.534958) can0 0DEF0603#0101FFFFFFFFFFF5
(1547753596.536157) can0 04EF0006#641518F08C18930E
(1547753596.536823) can0 0CF00400#F0FF9A8E1CFFFFFF
(1547753596.546052) can0 18FECA17#00FF00000000FFFF
(1547753596.546897) can0 0CF00300#FF0021FF06FFFFFF
(1547753596.547473) can0 0CEFFF00#6406277DFFFFFFFF
(1547753596.548046) can0 18EFFF00#64100101D302057D
(1547753596.548597) can0 18FEF600#FF0040FF00FFFFFF
(1547753596.554935) can0 0DEF0603#0101FFFFFFFFFFF5
(1547753596.556198) can0 04EF0006#641519F03019930E
(1547753596.556772) can0 18FEF147#FF0000FFFFFFFFFF
(1547753596.557375) can0 0CF00400#F0FF9A8A1CFFFFFF
(1547753596.557923) can0 18F00503#7DFFFFFFFFFFFFFF
(1547753596.566733) can0 18EFFA00#6401FF0000FFFFFF
(1547753596.567374) can0 0CEFFF00#6406277DFFFFFFFF
(1547753596.567923) can0 0CF00300#FF0020FF06FFFFFF
(1547753596.574671) can0 0DEF0647#0104FFFFFFFFFFF1
(1547753596.575242) can0 0DEF0603#0101FFFFFFFFFFF5
(1547753596.576423) can0 04EF0006#64151AF03019930E
(1547753596.577023) can0 0CF00400#F0FF9A881CFFFFFF
(1547753596.586821) can0 0CF00300#FF0020FF06FFFFFF
(1547753596.587396) can0 0CEFFF00#6406267DFFFFFFFF
(1547753596.594224) can0 18EAFF06#E5FE00
(1547753596.595196) can0 0DEF0603#0101FFFFFFFFFFF5
(1547753596.596395) can0 04EF0006#64151BF03019930E
(1547753596.596969) can0 0CFE4947#FFFFFFFFFFFFFFFF
(1547753596.597545) can0 0CF00400#F0FF9A801CFFFFFF
(1547753596.598126) can0 0CFE4347#0000FFFF3FFFFFFF
(1547753596.598720) can0 18FFFB06#0005A7F8FFFFFFFF
(1547753596.599295) can0 0CFE4447#0000FFFF3FFFFFFF
(1547753596.599872) can0 18FEE706#CC0A0000FFFFFFFF
(1547753596.602607) can0 18FEE500#CC0A0000FFFFFFFF
(1547753596.606764) can0 0CF00300#FF0020FF06FFFFFF
(1547753596.607336) can0 0CEFFF00#6406267DFFFFFFFF
(1547753596.607963) can0 18FEF200#1F00FFFFFFFFFFFF
(1547753596.615128) can0 0DEF0603#0101FFFFFFFFFFF5
(1547753596.616326) can0 04EF0006#64151CF02A19930E
(1547753596.616902) can0 0CF00400#F0FF9A781CFFFFFF
(1547753596.624697) can0 1CFFFF17#22FFFF3CFFFFFFFF
(1547753596.626796) can0 0CF00300#FF0020FF06FFFFFF
(1547753596.627371) can0 0CEFFF00#6406277DFFFFFFFF
(1547753596.627942) can0 18EF0600#640EA700FFFFFFFF
(1547753596.635152) can0 0DEF0603#0101FFFFFFFFFFF5
(1547753596.636320) can0 04EF0006#64151DF02F19930E
(1547753596.636896) can0 0CF00400#F0FF9A7C1CFFFFFF
(1547753596.637446) can0 0CFFFE06#5C271D271DFFFFFF
(1547753596.638044) can0 18FEF147#FF0000FFFFFFFFFF
(1547753596.638645) can0 18F00503#7DFFFFFFFFFFFFFF
(1547753596.646807) can0 0CF00300#FF0020FF06FFFFFF
(1547753596.647421) can0 0CEFFF00#6406257DFFFFFFFF
(1547753596.647994) can0 18EFFF00#64100101D102057D
(1547753596.655087) can0 0DEF0603#0101FFFFFFFFFFF5
(1547753596.656282) can0 04EF0006#64151EF02F19930E
(1547753596.656894) can0 0CF00400#F0FF997C1CFFFFFF
(1547753596.666795) can0 0CF00300#FF0020FF06FFFFFF
(1547753596.667370) can0 0CEFFF00#6406257DFFFFFFFF
(1547753596.667899) can0 18FEEE00#4B42FFFFFFFFFFFF
(1547753596.674674) can0 0DEF0647#0104FFFFFFFFFFF1
(1547753596.675370) can0 0DEF0603#0101FFFFFFFFFFF5
(1547753596.676570) can0 04EF0006#64151FF02F19930E
(1547753596.677119) can0 0CF00400#F0FF996E1CFFFFFF
(1547753596.687021) can0 0CF00300#FF0020FF06FFFFFF
(1547753596.687622) can0 0CEFFF00#6406267DFFFFFFFF
(1547753596.695150) can0 0DEF0603#0101FFFFFFFFFFF5
(1547753596.696322) can0 04EF0006#641510F0C118930E
(1547753596.696883) can0 0CF00400#F0FF9A681CFFFFFF
(1547753596.697471) can0 18FEDF00#8B201CFFFFFFFFFF
(1547753596.706825) can0 0CF00300#FF0020FF06FFFFFF
(1547753596.707353) can0 0CEFFF00#6406267DFFFFFFFF
(1547753596.707942) can0 18FEF200#1F00FFFFFFFFFFFF
(1547753596.715124) can0 0DEF0603#0101FFFFFFFFFFF5
(1547753596.716322) can0 04EF0006#641511F0C118930E
(1547753596.716851) can0 0CF00400#F0FF9A621CFFFFFF
(1547753596.717473) can0 0CFE4947#FFFFFFFFFFFFFFFF
(1547753596.718021) can0 18FFFB06#0005A7F8FFFFFFFF
(1547753596.718647) can0 0CFFFF47#5DFFFFF3FFFFFFFF
(1547753596.719183) can0 0CFE4347#0000FFFF3FFFFFFF
(1547753596.719784) can0 0CFE4447#0000FFFF3FFFFFFF
(1547753596.720424) can0 0CFFFE06#5C271D271DFFFFFF
(1547753596.726832) can0 0CF00300#FF0021FF06FFFFFF
(1547753596.727433) can0 0CEFFF00#6406267DFFFFFFFF
(1547753596.728018) can0 18EF0600#640EB100FFFFFFFF
(1547753596.735143) can0 0DEF0603#0101FFFFFFFFFFF5
(1547753596.736286) can0 04EF0006#641512F07319930E
(1547753596.736888) can0 0CF00400#F0FF9A541CFFFFFF
(1547753596.746791) can0 0CF00300#FF0021FF06FFFFFF
(1547753596.747366) can0 0CEFFF00#6406287DFFFFFFFF
(1547753596.747913) can0 18EFFF00#64100101CD02057D
(1547753596.748514) can0 18FEF700#FFFFFFFFFFFFF100
(1547753596.755069) can0 0DEF0603#0101FFFFFFFFFFF5
(1547753596.756315) can0 04EF0006#641513F0D018930E
(1547753596.756889) can0 0CF00400#F0FF9B501CFFFFFF
(1547753596.757467) can0 18FEF147#FF0000FFFFFFFFFF
(1547753596.758067) can0 18FFFB06#001BFFFFFFFFFFFF
(1547753596.758632) can0 18F00503#7DFFFFFFFFFFFFFF
(1547753596.766834) can0 0CF00300#FF0021FF06FFFFFF
(1547753596.767438) can0 0CEFFF00#6406287DFFFFFFFF
(1547753596.774667) can0 0DEF0647#0104FFFFFFFFFFF1
(1547753596.775264) can0 0DEF0603#0101FFFFFFFFFFF5
(1547753596.776432) can0 04EF0006#641514F0C918930E
(1547753596.777016) can0 0CF00400#F0FF9B541CFFFFFF
(1547753596.786792) can0 0CF00300#FF0021FF06FFFFFF
(1547753596.787366) can0 0CEFFF00#6406277DFFFFFFFF
(1547753596.795143) can0 0DEF0603#0101FFFFFFFFFFF5
(1547753596.796314) can0 04EF0006#641515F0C918930E
(1547753596.796890) can0 0CF00400#F0FF9A4E1CFFFFFF
(1547753596.797465) can0 0CFE4947#FFFFFFFFFFFFFFFF
(1547753596.798014) can0 18FE6847#3BFFFFFFFFFFFFFF
(1547753596.798641) can0 0CFE4347#0000FFFF3FFFFFFF
(1547753596.799214) can0 18FFFF06#73FFFFFFFFFFFFFF
(1547753596.799758) can0 0CFE4447#0000FFFF3FFFFFFF
(1547753596.806811) can0 0CF00300#FF0021FF06FFFFFF
(1547753596.807359) can0 0CEFFF00#6406277DFFFFFFFF
(1547753596.807949) can0 18FEF200#1F00FFFFFFFFFFFF
(1547753596.815086) can0 0DEF0603#0101FFFFFFFFFFF5
(1547753596.816315) can0 04EF0006#641516F00B19930E
(1547753596.817117) can0 0CF00400#F0FF9A441CFFFFFF
(1547753596.826816) can0 0CF00300#FF0021FF06FFFFFF
(1547753596.827390) can0 0CEFFF00#6406287DFFFFFFFF
(1547753596.827964) can0 18EF0600#640EBB00FFFFFFFF
(1547753596.835117) can0 0DEF0603#0101FFFFFFFFFFF5
(1547753596.836318) can0 04EF0006#641517F07319930E
(1547753596.836890) can0 0CF00400#F0FF9B401CFFFFFF
(1547753596.837466) can0 0CFFFF47#5EFFFFFFFFFFFFFF
(1547753596.838044) can0 18FEF147#FF0000FFFFFFFFFF
(1547753596.838617) can0 0CFFFE06#5C271D271DFFFFFF
(1547753596.839158) can0 18FEFC47#FFFFFFFFFFFFFFFF
(1547753596.839759) can0 18EF0047#F220610FFFFFFFFF
(1547753596.840366) can0 18F00647#FFCFFFFFFFFFFFFF
(1547753596.840933) can0 1CFDDF47#FCFFFFFFFFFFFFFF
(1547753596.841549) can0 18FFFB06#0005A7F8FFFFFFFF
(1547753596.842140) can0 18F00503#7DFFFFFFFFFFFFFF
(1547753596.846717) can0 0CF00300#FF0021FF06FFFFFF
(1547753596.847339) can0 0CEFFF00#6406297DFFFFFFFF
(1547753596.847892) can0 18EFFF00#64100101CB02057D
(1547753596.848489) can0 18FED500#FFFFFDFFFFFFFFFF
(1547753596.855114) can0 0DEF0603#0101FFFFFFFFFFF5
(1547753596.856315) can0 04EF0006#641518F07319930E
(1547753596.856893) can0 0CF00400#F0FF9B381CFFFFFF
(1547753596.866870) can0 0CF00300#FF0022FF06FFFFFF
(1547753596.867442) can0 0CEFFF00#6406297DFFFFFFFF
(1547753596.874702) can0 0DEF0647#0104FFFFFFFFFFF1
(1547753596.875301) can0 0DEF0603#0101FFFFFFFFFFF5
(1547753596.876476) can0 04EF0006#641519F0D018930E
(1547753596.877050) can0 0CF00400#F0FF9B2C1CFFFFFF
(1547753596.886780) can0 0CF00300#FF0022FF06FFFFFF
(1547753596.887377) can0 0CEFFF00#64062B7DFFFFFFFF
(1547753596.887926) can0 18FDB300#FFFFCE27FFFFFFFF
(1547753596.895166) can0 0DEF0603#0101FFFFFFFFFFF5
(1547753596.896335) can0 04EF0006#64151AF01119930E
(1547753596.896987) can0 0CF00400#F0FF9C301CFFFFFF
(1547753596.907067) can0 0CF00300#FF0022FF06FFFFFF
(1547753596.907613) can0 0CEFFF00#64062A7DFFFFFFFF
(1547753596.908211) can0 18FEF200#2000FFFFFFFFFFFF
(1547753596.915165) can0 0DEF0603#0101FFFFFFFFFFF5
(1547753596.916335) can0 04EF0006#64151BF00719930E
(1547753596.916916) can0 0CF00400#F0FF9B361CFFFFFF
(1547753596.917488) can0 0CFE4947#FFFFFFFFFFFFFFFF
(1547753596.918064) can0 0CFE4347#0000FFFF3FFFFFFF
(1547753596.918662) can0 0CFE4447#0000FFFF3FFFFFFF
(1547753596.919218) can0 0CFFFE06#5C271D271DFFFFFF
(1547753596.926759) can0 0CF00300#FF0022FF06FFFFFF
(1547753596.927381) can0 0CEFFF00#6406297DFFFFFFFF
(1547753596.927904) can0 18EF0600#640EC500FFFFFFFF
(1547753596.935107) can0 0DEF0603#0101FFFFFFFFFFF5
(1547753596.936281) can0 04EF0006#64151CF00719930E
(1547753596.936907) can0 0CF00400#F0FF9B2C1CFFFFFF
(1547753596.946808) can0 0CF00300#FF0022FF06FFFFFF
(1547753596.947379) can0 0CEFFF00#64062A7DFFFFFFFF
(1547753596.947954) can0 18EFFF00#64100101CA02057D
(1547753596.948530) can0 18FEDF00#8B201CFFFFFFFFFF
(1547753596.955122) can0 0DEF0603#0101FFFFFFFFFFF5
(1547753596.956330) can0 04EF0006#64151DF01119930E
(1547753596.956905) can0 18FEF147#FF0000FFFFFFFFFF
(1547753596.957480) can0 0CF00400#F0FF9B241CFFFFFF
(1547753596.958056) can0 18FFFB06#0005A9F8FFFFFFFF
(1547753596.958606) can0 18F00503#7DFFFFFFFFFFFFFF
(1547753596.966779) can0 0CF00300#FF0023FF06FFFFFF
(1547753596.967359) can0 0CEFFF00#64062B7DFFFFFFFF
(1547753596.967930) can0 18FEEF00#FFFFFF65FFFFFFFA
(1547753596.974668) can0 0DEF0647#0104FFFFFFFFFFF1
(1547753596.975270) can0 0DEF0603#0101FFFFFFFFFFF5
(1547753596.976470) can0 04EF0006#64151EF00B19930E
(1547753596.977009) can0 0CF00400#F0FF9C241CFFFFFF
(1547753596.986937) can0 0CF00300#FF0023FF06FFFFFF
(1547753596.987508) can0 0CEFFF00#64062B7DFFFFFFFF
(1547753596.995152) can0 0DEF0603#0101FFFFFFFFFFF5
(1547753596.996339) can0 04EF0006#64151FF00B19930E
(1547753596.996879) can0 0CFE4947#FFFFFFFFFFFFFFFF
(1547753596.997456) can0 0CF00400#F0FF9C1A1CFFFFFF
(1547753596.998026) can0 0CFE4347#0000FFFF3FFFFFFF
(1547753596.998626) can0 0CFE4447#0000FFFF3FFFFFFF
(1547753597.006811) can0 0CF00300#FF0024FF06FFFFFF
(1547753597.007430) can0 0CEFFF00#64062D7DFFFFFFFF
(1547753597.008004) can0 18FEF200#2100FFFFFFFFFFFF
(1547753597.015126) can0 0DEF0603#0101FFFFFFFFFFF5
(1547753597.016338) can0 04EF0006#641510F00419930E
(1547753597.016961) can0 0CF00400#F0FF9C161CFFFFFF
(1547753597.026812) can0 0CF00300#FF0023FF06FFFFFF
(1547753597.027322) can0 0CEFFF00#64062E7DFFFFFFFF
(1547753597.027956) can0 18EF0600#640ECF00FFFFFFFF
(1547753597.035176) can0 0DEF0603#0101FFFFFFFFFFF5
(1547753597.036374) can0 04EF0006#641511F00919930E
(1547753597.036946) can0 0CF00400#F0FF9D1E1CFFFFFF
(1547753597.037500) can0 0CFFFE06#5C271D271DFFFFFF
(1547753597.038098) can0 18FEF147#FF0000FFFFFFFFFF
(1547753597.038698) can0 18F00503#7DFFFFFFFFFFFFFF
(1547753597.046793) can0 0CF00300#FF0023FF06FFFFFF
(1547753597.047401) can0 0CEFFF00#64062D7DFFFFFFFF
(1547753597.047949) can0 18EFFF00#64100101C902057D
(1547753597.048491) can0 18FEF600#FF0040FF00FFFFFF
(1547753597.055145) can0 0DEF0603#0101FFFFFFFFFFF5
(1547753597.056338) can0 04EF0006#641512F00419930E
(1547753597.056951) can0 0CF00400#F0FF9C241CFFFFFF
(1547753597.066801) can0 0CF00300#FF0023FF06FFFFFF
(1547753597.067375) can0 0CEFFF00#64062B7DFFFFFFFF
(1547753597.074699) can0 0DEF0647#0104FFFFFFFFFFF1
(1547753597.075300) can0 0DEF0603#0101FFFFFFFFFFF5
(1547753597.076474) can0 04EF0006#641513F00B19930E
(1547753597.077049) can0 0CF00400#F0FF9C1C1CFFFFFF
(1547753597.077623) can0 18FFFB06#0005ACF8FFFFFFFF
(1547753597.086877) can0 0CF00300#FF0023FF06FFFFFF
(1547753597.087451) can0 0CEFFF00#64062D7DFFFFFFFF
(1547753597.095175) can0 0DEF0603#0101FFFFFFFFFFF5
(1547753597.096374) can0 0C000006#30FFFFFFF8FFFFFF
(1547753597.096896) can0 04EF0006#641514F00419930E
(1547753597.097475) can0 0CF00400#F0FF9C1A1CFFFFFF
(1547753597.098051) can0 18FFFA00#022C0000180C0081
(1547753597.106827) can0 0CF00300#FF0023FF06FFFFFF
(1547753597.107401) can0 0CEFFF00#64062E7DFFFFFFFF
(1547753597.107975) can0 18FEF200#2100FFFFFFFFFFFF
(1547753597.115153) can0 0DEF0603#0101FFFFFFFFFFF5
(1547753597.116399) can0 04EF0006#641515F00419930E
(1547753597.116973) can0 0CF00400#F0FF9D1A1CFFFFFF
(1547753597.117552) can0 0CFE4947#FFFFFFFFFFFFFFFF
(1547753597.118127) can0 0CFE4347#0000FFFF3FFFFFFF
(1547753597.118725) can0 0CFE4447#0000FFFF3FFFFFFF
(1547753597.119294) can0 0CFFFE06#5C271D271DFFFFFF
(1547753597.126865) can0 0CF00300#FF0024FF06FFFFFF
(1547753597.127476) can0 0CEFFF00#64062E7DFFFFFFFF
(1547753597.128016) can0 18EF0600#640ED900FFFFFFFF
(1547753597.128591) can0 18FEF500#C8FFFFFFFF3CFFFF
(1547753597.135125) can0 0DEF0603#0101FFFFFFFFFFF5
(1547753597.136348) can0 04EF0006#641516F00419930E
(1547753597.136953) can0 0CF00400#F0FF9D121CFFFFFF
(1547753597.146803) can0 0CF00300#FF0024FF06FFFFFF
(1547753597.147376) can0 0CEFFF00#64062F7DFFFFFFFF
(1547753597.147925) can0 18EFFF00#64100101C802057D
(1547753597.155153) can0 0DEF0603#0101FFFFFFFFFFF5
(1547753597.156376) can0 04EF0006#641517F00919930E
(1547753597.156949) can0 0CF00400#F0FF9D121CFFFFFF
(1547753597.157527) can0 18FEF147#FF0000FFFFFFFFFF
(1547753597.158129) can0 18F00503#7DFFFFFFFFFFFFFF
(1547753597.166903) can0 0CF00300#FF0023FF06FFFFFF
(1547753597.167479) can0 0CEFFF00#64062F7DFFFFFFFF
(1547753597.168050) can0 18FE6900#2A258E26FFFF60FE
(1547753597.174704) can0 0DEF0647#0104FFFFFFFFFFF1
(1547753597.175403) can0 0DEF0603#0101FFFFFFFFFFF5
(1547753597.176602) can0 04EF0006#641518F00919930E
(1547753597.177174) can0 0CF00400#F0FF9D1C1CFFFFFF
(1547753597.186805) can0 0CF00300#FF0023FF06FFFFFF
(1547753597.187378) can0 0CEFFF00#64062D7DFFFFFFFF
(1547753597.195153) can0 0DEF0603#0101FFFFFFFFFFF5
(1547753597.196403) can0 04EF0006#641519F00419930E
(1547753597.196975) can0 0CF00400#F0FF9C1A1CFFFFFF
(1547753597.197529) can0 0CFE4947#FFFFFFFFFFFFFFFF
(1547753597.198104) can0 18FEDF00#8A201CFFFFFFFFFF
(1547753597.198704) can0 0CFFFF47#5DFFFFF3FFFFFFFF
(1547753597.199278) can0 18FFFB06#0005AFF8FFFFFFFF
(1547753597.199818) can0 0CFE4347#0000FFFF3FFFFFFF
(1547753597.200419) can0 0CFE4447#0000FFFF3FFFFFFF
(1547753597.206821) can0 0CF00300#FF0024FF06FFFFFF
(1547753597.207394) can0 0CEFFF00#64062E7DFFFFFFFF
(1547753597.208008) can0 18FEF200#2100FFFFFFFFFFFF
(1547753597.215124) can0 0DEF0603#0101FFFFFFFFFFF5
(1547753597.216349) can0 04EF0006#64151AF00419930E
(1547753597.217132) can0 0CF00400#F0FF9D141CFFFFFF
(1547753597.226829) can0 0CF00300#FF0024FF06FFFFFF
(1547753597.227402) can0 0CEFFF00#64062F7DFFFFFFFF
(1547753597.227976) can0 18EF0600#640EE300FFFFFFFF
(1547753597.235153) can0 0DEF0603#0101FFFFFFFFFFF5
(1547753597.236378) can0 04EF0006#64151BF00919930E
(1547753597.236952) can0 0CF00400#F0FF9D121CFFFFFF
(1547753597.237504) can0 0CFFFE06#5C271D271DFFFFFF
(1547753597.238078) can0 18FEF147#FF0000FFFFFFFFFF
(1547753597.238679) can0 18F00503#7DFFFFFFFFFFFFFF
(1547753597.246772) can0 0CF00300#FF0024FF06FFFFFF
(1547753597.247378) can0 0CEFFF00#64062F7DFFFFFFFF
(1547753597.247953) can0 18EFFF00#64100101C902057D
(1547753597.255114) can0 0DEF0603#0101FFFFFFFFFFF5
(1547753597.256323) can0 04EF0006#64151CF00919930E
(1547753597.256900) can0 0CF00400#F0FF9D0E1CFFFFFF
(1547753597.266953) can0 0CF00300#FF0025FF06FFFFFF
(1547753597.267504) can0 0CEFFF00#6406307DFFFFFFFF
(1547753597.274648) can0 0DEF0647#0104FFFFFFFFFFF1
(1547753597.275328) can0 0DEF0603#0101FFFFFFFFFFF5
(1547753597.276529) can0 04EF0006#64151DF00219930E
(1547753597.277078) can0 0CF00400#F0FF9D021CFFFFFF
(1547753597.277654) can0 18FFFF06#73FFFFFFFFFFFFFF
(1547753597.286805) can0 0CF00300#FF0025FF06FFFFFF
(1547753597.287380) can0 0CEFFF00#6406317DFFFFFFFF
(1547753597.287953) can0 18FD7C00#F880F1F000CF03FD
(1547753597.295109) can0 0DEF0603#0101FFFFFFFFFFF5
(1547753597.296381) can0 04EF0006#64151EF01319930E
(1547753597.296953) can0 0CF00400#F0FF9E0A1CFFFFFF
(1547753597.304706) can0 1CFFFF17#22FFFF3CFFFFFFFF
(1547753597.307178) can0 0CF00300#FF0024FF06FFFFFF
(1547753597.307750) can0 0CEFFF00#6406307DFFFFFFFF
(1547753597.308325) can0 18FEF200#2300FFFFFFFFFFFF
(1547753597.315156) can0 0DEF0603#0101FFFFFFFFFFF5
(1547753597.316377) can0 04EF0006#64151FF00219930E
(1547753597.316949) can0 0CF00400#F0FF9D141CFFFFFF
(1547753597.317526) can0 0CFE4947#FFFFFFFFFFFFFFFF
(1547753597.318104) can0 1CFDDF47#FCFFFFFFFFFFFFFF
(1547753597.318701) can0 0CFE4347#0000FFFF3FFFFFFF
(1547753597.319237) can0 18FFFB06#0005B4F8FFFFFFFF
(1547753597.319810) can0 0CFE4447#0000FFFF3FFFFFFF
(1547753597.320427) can0 0CFFFE06#5C271D271DFFFFFF
(1547753597.326799) can0 0CF00300#FF0024FF06FFFFFF
(1547753597.327370) can0 0CEFFF00#64062F7DFFFFFFFF
(1547753597.327950) can0 18EF0600#640EED00FFFFFFFF
(1547753597.335124) can0 0DEF0603#0101FFFFFFFFFFF5
(1547753597.336348) can0 04EF0006#641510F00919930E
(1547753597.336930) can0 0CF00400#F0FF9D0E1CFFFFFF
(1547753597.346859) can0 0CF00300#FF0025FF06FFFFFF
(1547753597.347427) can0 0CEFFF00#6406307DFFFFFFFF
(1547753597.348001) can0 18EFFF00#64100101C802057D
(1547753597.355155) can0 0DEF0603#0101FFFFFFFFFFF5
(1547753597.356402) can0 04EF0006#641511F00219930E
(1547753597.356953) can0 0CF00400#F0FF9D0A1CFFFFFF
(1547753597.357530) can0 18FEF147#FF0000FFFFFFFFFF
(1547753597.358130) can0 18F00647#FFCFFFFFFFFFFFFF
(1547753597.358729) can0 18F00503#7DFFFFFFFFFFFFFF
(1547753597.366799) can0 0CF00300#FF0025FF06FFFFFF
(1547753597.367402) can0 0CEFFF00#6406317DFFFFFFFF
(1547753597.374730) can0 0DEF0647#0104FFFFFFFFFFF1
(1547753597.375326) can0 0DEF0603#0101FFFFFFFFFFF5
(1547753597.376499) can0 04EF0006#641512F00219930E
(1547753597.377082) can0 0CF00400#F0FF9E0C1CFFFFFF
(1547753597.386904) can0 0CF00300#FF0025FF06FFFFFF
(1547753597.387438) can0 0CEFFF00#6406317DFFFFFFFF
(1547753597.388050) can0 18FDB300#FFFFCE27FFFFFFFF
(1547753597.388654) can0 1CEFFF00#64070000FFFFFFFF
(1547753597.395180) can0 0DEF0603#0101FFFFFFFFFFF5
(1547753597.396404) can0 04EF0006#641513F00219930E
(1547753597.396978) can0 0CFE4947#FFFFFFFFFFFFFFFF
(1547753597.397528) can0 0CF00400#F0FF9E061CFFFFFF
(1547753597.398101) can0 0CFE4347#0000FFFF3FFFFFFF
(1547753597.398673) can0 0CFE4447#0000FFFF3FFFFFFF
(1547753597.406845) can0 0CF00300#FF0026FF06FFFFFF
(1547753597.407454) can0 0CEFFF00#6406327DFFFFFFFF
(1547753597.408054) can0 18FEF200#2400FFFFFFFFFFFF
(1547753597.415126) can0 0DEF0603#0101FFFFFFFFFFF5
(1547753597.416314) can0 04EF0006#641514F01319930E
(1547753597.416953) can0 0CF00400#F0FF9E021CFFFFFF
(1547753597.426828) can0 0CF00300#FF0025FF06FFFFFF
(1547753597.427378) can0 0CEFFF00#6406327DFFFFFFFF
(1547753597.427976) can0 18EF0600#640EF700FFFFFFFF
(1547753597.435157) can0 0DEF0603#0101FFFFFFFFFFF5
(1547753597.436405) can0 04EF0006#641515F01319930E
(1547753597.436953) can0 0CF00400#F0FF9E0C1CFFFFFF
(1547753597.437532) can0 0CFFFE06#5C271D271DFFFFFF
(1547753597.438108) can0 18FEF147#FF0000FFFFFFFFFF
(1547753597.438706) can0 18FFFB06#0005B4F8FFFFFFFF
(1547753597.439271) can0 18F00503#7DFFFFFFFFFFFFFF
(1547753597.446847) can0 0CF00300#FF0025FF06FFFFFF
(1547753597.447454) can0 0CEFFF00#6406317DFFFFFFFF
(1547753597.447972) can0 18EFFF00#64100101C902057D
(1547753597.448548) can0 18FEDF00#8A201CFFFFFFFFFF
(1547753597.455135) can0 0DEF0603#0101FFFFFFFFFFF5
(1547753597.456352) can0 04EF0006#641516F00219930E
(1547753597.456937) can0 0CF00400#F0FF9E121CFFFFFF
(1547753597.466833) can0 0CF00300#FF0025FF06FFFFFF
(1547753597.467405) can0 0CEFFF00#6406317DFFFFFFFF
(1547753597.467979) can0 18FEEF00#FFFFFF65FFFFFFFA
(1547753597.474735) can0 0DEF0647#0104FFFFFFFFFFF1
(1547753597.475329) can0 0DEF0603#0101FFFFFFFFFFF5
(1547753597.476505) can0 04EF0006#641517F00919930E
(1547753597.477022) can0 0CF00400#F0FF9E0E1CFFFFFF
(1547753597.486935) can0 0CF00300#FF0025FF06FFFFFF
(1547753597.487506) can0 0CEFFF00#6406317DFFFFFFFF
(1547753597.495185) can0 0DEF0603#0101FFFFFFFFFFF5
(1547753597.496382) can0 04EF0006#641518F00219930E
(1547753597.496954) can0 0CF00400#F0FF9E0E1CFFFFFF
(1547753597.506810) can0 0CF00300#FF0025FF06FFFFFF
(1547753597.507373) can0 0CEFFF00#6406317DFFFFFFFF
(1547753597.508004) can0 18FEF200#2300FFFFFFFFFFFF
(1547753597.515158) can0 0DEF0603#0101FFFFFFFFFFF5
(1547753597.516380) can0 04EF0006#641519F00219930E
(1547753597.516956) can0 0CF00400#F0FF9E0E1CFFFFFF
(1547753597.517508) can0 0CFE4947#FFFFFFFFFFFFFFFF
(1547753597.518132) can0 0CFE4347#0000FFFF3FFFFFFF
(1547753597.518706) can0 0CFE4447#0000FFFF3FFFFFFF
(1547753597.519275) can0 0CFFFE06#5C271D271DFFFFFF
(1547753597.526778) can0 0CF00300#FF0025FF06FFFFFF
(1547753597.527384) can0 0CEFFF00#6406317DFFFFFFFF
(1547753597.527923) can0 18EF0600#640E0100FFFFFFFF
(1547753597.535127) can0 0DEF0603#0101FFFFFFFFFFF5
(1547753597.536349) can0 04EF0006#64151AF00219930E
(1547753597.536935) can0 0CF00400#F0FF9E021CFFFFFF
(1547753597.546810) can0 0CF00300#FF0026FF06FFFFFF
(1547753597.547382) can0 0CEFFF00#6406337DFFFFFFFF
(1547753597.547898) can0 18EFFF00#64100101C802057D
(1547753597.548532) can0 18FEF600#FF0040FF00FFFFFF
(1547753597.549280) can0 1CECFF00#20220005FFE3FE00
(1547753597.555158) can0 0DEF0603#0101FFFFFFFFFFF5
(1547753597.556357) can0 04EF0006#64151BF01319930E
(1547753597.556955) can0 0CF00400#F0FF9E021CFFFFFF
(1547753597.557533) can0 18FEF147#FF0000FFFFFFFFFF
(1547753597.558102) can0 18FFFB06#0005B4F8FFFFFFFF
(1547753597.558732) can0 18F00503#7DFFFFFFFFFFFFFF
(1547753597.566778) can0 18EFFA00#6401FF0000FFFFFF
(1547753597.567386) can0 0CEFFF00#6406347DFFFFFFFF
(1547753597.567955) can0 0CF00300#FF0026FF06FFFFFF
(1547753597.574704) can0 0DEF0647#0104FFFFFFFFFFF1
(1547753597.575339) can0 0DEF0603#0101FFFFFFFFFFF5
(1547753597.576556) can0 04EF0006#64151CF01319930E
(1547753597.577104) can0 0CF00400#F0FF9F0A1CFFFFFF
(1547753597.586833) can0 0CF00300#FF0025FF06FFFFFF
(1547753597.587412) can0 0CEFFF00#6406337DFFFFFFFF
(1547753597.595185) can0 0DEF0603#0101FFFFFFFFFFF5
(1547753597.596409) can0 04EF0006#64151DF00219930E
(1547753597.596955) can0 0CF00400#F0FF9E0A1CFFFFFF
(1547753597.597533) can0 0CFE4947#FFFFFFFFFFFFFFFF
(1547753597.598134) can0 0CFE4347#0000FFFF3FFFFFFF
(1547753597.598733) can0 0CFE4447#0000FFFF3FFFFFFF
(1547753597.601925) can0 1CEBFF00#01201CEB6842E9A0
(1547753597.606885) can0 0CF00300#FF0026FF06FFFFFF
(1547753597.607435) can0 0CEFFF00#6406337DFFFFFFFF
(1547753597.608032) can0 18FEF200#2400FFFFFFFFFFFF
(1547753597.614226) can0 18EAFF06#E5FE00
(1547753597.615234) can0 0DEF0603#0101FFFFFFFFFFF5
(1547753597.616459) can0 04EF0006#64151EF00219930E
(1547753597.617033) can0 0CF00400#F0FF9E041CFFFFFF
(1547753597.626837) can0 0CF00300#FF0026FF06FFFFFF
(1547753597.627408) can0 0CEFFF00#6406347DFFFFFFFF
(1547753597.627982) can0 18EF0600#640E0B00FFFFFFFF
(1547753597.635186) can0 0DEF0603#0101FFFFFFFFFFF5
(1547753597.636408) can0 04EF0006#64151FF01319930E
(1547753597.636980) can0 0CF00400#F0FF9F061CFFFFFF
(1547753597.637537) can0 0CFFFE06#5C271D271DFFFFFF
(1547753597.638107) can0 18FEF147#FF0000FFFFFFFFFF
(1547753597.638708) can0 18FEE706#CC0A0000FFFFFFFF
(1547753597.639277) can0 18F00503#7DFFFFFFFFFFFFFF
(1547753597.646829) can0 0CF00300#FF0026FF06FFFFFF
(1547753597.647433) can0 0CEFFF00#6406347DFFFFFFFF
(1547753597.647941) can0 18EFFF00#64100101C902057D
(1547753597.649402) can0 18FEE500#CC0A0000FFFFFFFF
(1547753597.649945) can0 1CEBFF00#020FE38D20F17A31
(1547753597.655187) can0 0DEF0603#0101FFFFFFFFFFF5
(1547753597.656409) can0 04EF0006#641510F01319930E
(1547753597.656958) can0 0CF00400#F0FF9F041CFFFFFF
(1547753597.666963) can0 0CF00300#FF0026FF06FFFFFF
(1547753597.667535) can0 0CEFFF00#6406347DFFFFFFFF
(1547753597.668110) can0 18FEEE00#4B43FFFFFFFFFFFF
(1547753597.674737) can0 0DEF0647#0104FFFFFFFFFFF1
(1547753597.675409) can0 0DEF0603#0101FFFFFFFFFFF5
(1547753597.676638) can0 04EF0006#641511F01319930E
(1547753597.677208) can0 0CF00400#F0FF9FFA1BFFFFFF
(1547753597.677784) can0 18FFFB06#0005B7F8FFFFFFFF
(1547753597.686838) can0 0CF00300#FF0027FF06FFFFFF
(1547753597.687385) can0 0CEFFF00#6406367DFFFFFFFF
(1547753597.695188) can0 0DEF0603#0101FFFFFFFFFFF5
(1547753597.696410) can0 04EF0006#641512F00C19930E
(1547753597.696983) can0 0CF00400#F0FFA0061CFFFFFF
(1547753597.697560) can0 18FEDF00#8A201CFFFFFFFFFF
(1547753597.702186) can0 1CEBFF00#03FAC044FFFF0401
(1547753597.707035) can0 0CF00300#FF0026FF06FFFFFF
(1547753597.707610) can0 0CEFFF00#6406347DFFFFFFFF
(1547753597.708211) can0 18FEF200#2500FFFFFFFFFFFF
(1547753597.715160) can0 0DEF0603#0101FFFFFFFFFFF5
(1547753597.716411) can0 04EF0006#641513F01319930E
(1547753597.716982) can0 0CF00400#F0FF9F161CFFFFFF
(1547753597.717561) can0 0CFE4947#FFFFFFFFFFFFFFFF
(1547753597.718161) can0 0CFFFF47#5DFFFFF3FFFFFFFF
(1547753597.718763) can0 0CFE4347#0000FFFF3FFFFFFF
(1547753597.719355) can0 0CFE4447#0000FFFF3FFFFFFF
(1547753597.719907) can0 0CFFFE06#5C271D271DFFFFFF
(1547753597.726839) can0 0CF00300#FF0025FF06FFFFFF
(1547753597.727411) can0 0CEFFF00#6406327DFFFFFFFF
(1547753597.727954) can0 18EF0600#640E1500FFFFFFFF
(1547753597.735160) can0 0DEF0603#0101FFFFFFFFFFF5
(1547753597.736357) can0 04EF0006#641514F00919930E
(1547753597.736965) can0 0CF00400#F0FF9E181CFFFFFF
(1547753597.746914) can0 0CF00300#FF0025FF06FFFFFF
(1547753597.747486) can0 0CEFFF00#6406327DFFFFFFFF
(1547753597.748060) can0 18EFFF00#64100101CB02057D
(1547753597.748662) can0 18FEF700#FFFFFFFFFFFF1801
(1547753597.749661) can0 1CEBFF00#04204E0001FAC9FA
(1547753597.755190) can0 0DEF0603#0101FFFFFFFFFFF5
(1547753597.756413) can0 04EF0006#641515F00419930E
(1547753597.756939) can0 18FEF147#FF0000FFFFFFFFFF
(1547753597.757510) can0 0CF00400#F0FF9E1A1CFFFFFF
(1547753597.758109) can0 18FFFB06#001BFFFFFFFFFFFF
(1547753597.758762) can0 18F00503#7DFFFFFFFFFFFFFF
(1547753597.766843) can0 0CF00300#FF0025FF06FFFFFF
(1547753597.767411) can0 0CEFFF00#6406327DFFFFFFFF
(1547753597.774741) can0 0DEF0647#0104FFFFFFFFFFF1
(1547753597.775336) can0 0DEF0603#0101FFFFFFFFFFF5
(1547753597.776508) can0 04EF0006#641516F00419930E
(1547753597.777119) can0 0CF00400#F0FF9E1E1CFFFFFF
(1547753597.786841) can0 0CF00300#FF0025FF06FFFFFF
(1547753597.787414) can0 0CEFFF00#6406327DFFFFFFFF
(1547753597.795190) can0 0DEF0603#0101FFFFFFFFFFF5
(1547753597.796413) can0 04EF0006#641517F00419930E
(1547753597.796985) can0 0CFE4947#FFFFFFFFFFFFFFFF
(1547753597.797538) can0 0CF00400#F0FF9E1A1CFFFFFF
(1547753597.798137) can0 0CFE4347#0000FFFF3FFFFFFF
(1547753597.798712) can0 18FE6847#3BFFFFFFFFFFFFFF
(1547753597.799288) can0 0CFE4447#0000FFFF3FFFFFFF
(1547753597.799831) can0 18FFFF06#73FFFFFFFFFFFFFF
(1547753597.800431) can0 18FFFB06#0005B5F8FFFFFFFF
(1547753597.802659) can0 1CEBFF00#05C05D0000FFFFFF
(1547753597.806832) can0 0CF00300#FF0025FF06FFFFFF
(1547753597.807438) can0 0CEFFF00#6406327DFFFFFFFF
(1547753597.808037) can0 18FEF200#2400FFFFFFFFFFFF
(1547753597.815188) can0 0DEF0603#0101FFFFFFFFFFF5
(1547753597.816412) can0 04EF0006#641518F00419930E
(1547753597.816964) can0 0CF00400#F0FF9E161CFFFFFF
(1547753597.826843) can0 0CF00300#FF0025FF06FFFFFF
(1547753597.827417) can0 0CEFFF00#6406337DFFFFFFFF
(1547753597.827994) can0 18EF0600#640E1F00FFFFFFFF
(1547753597.835191) can0 0DEF0603#0101FFFFFFFFFFF5
(1547753597.836415) can0 04EF0006#641519F00919930E
(1547753597.836963) can0 0CF00400#F0FF9E221CFFFFFF
(1547753597.837542) can0 0CFFFF47#5EFFFFFFFFFFFFFF
(1547753597.838119) can0 18FEF147#FF0000FFFFFFFFFF
(1547753597.838692) can0 0CFFFE06#5C271D271DFFFFFF
(1547753597.839233) can0 18FEFC47#FFFFFFFFFFFFFFFF
(1547753597.839808) can0 18EF0047#F220610FFFFFFFFF
(1547753597.840443) can0 18F00647#FFCFFFFFFFFFFFFF
(1547753597.841036) can0 1CFDDF47#FCFFFFFFFFFFFFFF
(1547753597.841575) can0 18F00503#7DFFFFFFFFFFFFFF
(1547753597.846894) can0 0CF00300#FF0024FF06FFFFFF
(1547753597.847439) can0 0CEFFF00#6406307DFFFFFFFF
(1547753597.848019) can0 18EFFF00#64100101CC02057D
(1547753597.848589) can0 18FED500#FFFFFDFFFFFFFFFF
(1547753597.855134) can0 0DEF0603#0101FFFFFFFFFFF5
(1547753597.856392) can0 04EF0006#64151AF00B19930E
(1547753597.856938) can0 0CF00400#F0FF9E2C1CFFFFFF
(1547753597.866871) can0 0CF00300#FF0024FF06FFFFFF
(1547753597.867419) can0 0CEFFF00#64062F7DFFFFFFFF
(1547753597.874719) can0 0DEF0647#0104FFFFFFFFFFF1
(1547753597.875343) can0 0DEF0603#0101FFFFFFFFFFF5
(1547753597.876493) can0 04EF0006#64151BF01119930E
(1547753597.877067) can0 0CF00400#F0FF9D241CFFFFFF
(1547753597.886968) can0 0CF00300#FF0025FF06FFFFFF
(1547753597.887563) can0 0CEFFF00#6406307DFFFFFFFF
(1547753597.888137) can0 18FDB300#FFFFCE27FFFFFFFF
(1547753597.895139) can0 0DEF0603#0101FFFFFFFFFFF5
(1547753597.896363) can0 04EF0006#64151CF00B19930E
(1547753597.896912) can0 0CF00400#F0FF9E241CFFFFFF
(1547753597.906864) can0 0CF00300#FF0024FF06FFFFFF
(1547753597.907438) can0 0CEFFF00#6406307DFFFFFFFF
(1547753597.908012) can0 18FEF200#2300FFFFFFFFFFFF
(1547753597.915141) can0 0DEF0603#0101FFFFFFFFFFF5
(1547753597.916364) can0 04EF0006#64151DF00B19930E
(1547753597.916912) can0 0CF00400#F0FF9E261CFFFFFF
(1547753597.917489) can0 0CFE4947#FFFFFFFFFFFFFFFF
(1547753597.918063) can0 18FFFB06#0005B5F8FFFFFFFF
(1547753597.918640) can0 0CFE4347#0000FFFF3FFFFFFF
(1547753597.919224) can0 0CFE4447#0000FFFF3FFFFFFF
(1547753597.919800) can0 0CFFFE06#5C271D271DFFFFFF
(1547753597.926815) can0 0CF00300#FF0025FF06FFFFFF
(1547753597.927390) can0 0CEFFF00#6406307DFFFFFFFF
(1547753597.927962) can0 18EF0600#640E2900FFFFFFFF
(1547753597.935139) can0 0DEF0603#0101FFFFFFFFFFF5
(1547753597.936364) can0 04EF0006#64151EF00B19930E
(1547753597.936913) can0 0CF00400#F0FF9E1E1CFFFFFF
(1547753597.946815) can0 0CF00300#FF0025FF06FFFFFF
(1547753597.947415) can0 0CEFFF00#6406327DFFFFFFFF
(1547753597.947963) can0 18EFFF00#64100101CC02057D
(1547753597.948540) can0 18FEDF00#8B201CFFFFFFFFFF
(1547753597.955165) can0 0DEF0603#0101FFFFFFFFFFF5
(1547753597.956389) can0 04EF0006#64151FF00419930E
(1547753597.956963) can0 0CF00400#F0FF9E201CFFFFFF
(1547753597.957540) can0 18FEF147#FF0000FFFFFFFFFF
(1547753597.958139) can0 18F00503#7DFFFFFFFFFFFFFF
(1547753597.964677) can0 1CFFFF17#22FFFF3CFFFFFFFF
(1547753597.966866) can0 0CF00300#FF0025FF06FFFFFF
(1547753597.967415) can0 0CEFFF00#6406307DFFFFFFFF
(1547753597.968013) can0 18FEEF00#FFFFFF65FFFFFFFA
(1547753597.974691) can0 0DEF0647#0104FFFFFFFFFFF1
(1547753597.975315) can0 0DEF0603#0101FFFFFFFFFFF5
(1547753597.976490) can0 04EF0006#641510F00B19930E
(1547753597.977038) can0 0CF00400#F0FF9E2A1CFFFFFF
(1547753597.986842) can0 0CF00300#FF0024FF06FFFFFF
(1547753597.987416) can0 0CEFFF00#64062F7DFFFFFFFF
(1547753597.995167) can0 0DEF0603#0101FFFFFFFFFFF5
(1547753597.996366) can0 04EF0006#641511F01119930E
(1547753597.996914) can0 0CF00400#F0FF9D2C1CFFFFFF
(1547753597.997490) can0 0CFE4947#FFFFFFFFFFFFFFFF
(1547753597.998090) can0 0CFE4347#0000FFFF3FFFFFFF
(1547753597.998690) can0 0CFE4447#0000FFFF3FFFFFFF
(1547753598.006866) can0 0CF00300#FF0024FF06FFFFFF
(1547753598.007441) can0 0CEFFF00#64062F7DFFFFFFFF
(1547753598.007989) can0 18FEF200#2300FFFFFFFFFFFF
(1547753598.015130) can0 0DEF0603#0101FFFFFFFFFFF5
(1547753598.016352) can0 04EF0006#641512F01119930E
(1547753598.016965) can0 0CF00400#F0FF9D281CFFFFFF
(1547753598.026868) can0 0CF00300#FF0024FF06FFFFFF
(1547753598.027442) can0 0CEFFF00#64062F7DFFFFFFFF
(1547753598.028014) can0 18EF0600#640E3300FFFFFFFF
(1547753598.035168) can0 0DEF0603#0101FFFFFFFFFFF5
(1547753598.036365) can0 04EF0006#641513F01119930E
(1547753598.036915) can0 0CF00400#F0FF9D2C1CFFFFFF
(1547753598.037468) can0 0CFFFE06#5C271D271DFFFFFF
(1547753598.038040) can0 18FEF147#FF0000FFFFFFFFFF
(1547753598.038641) can0 18FFFB06#0005AFF8FFFFFFFF
(1547753598.039228) can0 18F00503#7DFFFFFFFFFFFFFF
(1547753598.046854) can0 0CF00300#FF0024FF06FFFFFF
(1547753598.047446) can0 0CEFFF00#64062E7DFFFFFFFF
(1547753598.047985) can0 18EFFF00#64100101CD02057D
(1547753598.048591) can0 18FEF600#FF003FFF00FFFFFF
(1547753598.055143) can0 0DEF0603#0101FFFFFFFFFFF5
(1547753598.056367) can0 04EF0006#641514F01119930E
(1547753598.056965) can0 0CF00400#F0FF9D281CFFFFFF
(1547753598.066968) can0 0CF00300#FF0024FF06FFFFFF
(1547753598.067544) can0 0CEFFF00#64062F7DFFFFFFFF
(1547753598.074718) can0 0DEF0647#0104FFFFFFFFFFF1
(1547753598.075316) can0 0DEF0603#0101FFFFFFFFFFF5
(1547753598.076492) can0 04EF0006#641515F01119930E
(1547753598.077066) can0 0CF00400#F0FF9D201CFFFFFF
(1547753598.086819) can0 0CF00300#FF0025FF06FFFFFF
(1547753598.087392) can0 0CEFFF00#6406307DFFFFFFFF
(1547753598.095169) can0 0DEF0603#0101FFFFFFFFFFF5
(1547753598.096319) can0 0C000006#30FFFFFFF8FFFFFF
(1547753598.096868) can0 04EF0006#641516F00B19930E
(1547753598.097443) can0 0CF00400#F0FF9E281CFFFFFF
(1547753598.097991) can0 18FFFA00#022C0000180C0081
(1547753598.107119) can0 0CF00300#FF0024FF06FFFFFF
(1547753598.107694) can0 0CEFFF00#64062F7DFFFFFFFF
(1547753598.108267) can0 18FEF200#2300FFFFFFFFFFFF
(1547753598.115168) can0 0DEF0603#0101FFFFFFFFFFF5
(1547753598.116368) can0 04EF0006#641517F01119930E
(1547753598.116917) can0 0CF00400#F0FF9D321CFFFFFF
(1547753598.117493) can0 0CFE4947#FFFFFFFFFFFFFFFF
(1547753598.118066) can0 0CFE4347#0000FFFF3FFFFFFF
(1547753598.118670) can0 0CFE4447#0000FFFF3FFFFFFF
(1547753598.119254) can0 0CFFFE06#5C271D271DFFFFFF
(1547753598.126808) can0 0CF00300#FF0023FF06FFFFFF
(1547753598.127394) can0 0CEFFF00#64062D7DFFFFFFFF
(1547753598.127953) can0 18EF0600#640E3D00FFFFFFFF
(1547753598.128543) can0 18FEF500#C8FFFFFFFF3CFFFF
(1547753598.135144) can0 0DEF0603#0101FFFFFFFFFFF5
(1547753598.136369) can0 04EF0006#641518F00719930E
(1547753598.136892) can0 0CF00400#F0FF9D2E1CFFFFFF
(1547753598.146870) can0 0CF00300#FF0024FF06FFFFFF
(1547753598.147444) can0 0CEFFF00#64062E7DFFFFFFFF
(1547753598.148017) can0 18EFFF00#64100101CD02057D
(1547753598.155169) can0 0DEF0603#0101FFFFFFFFFFF5
(1547753598.156369) can0 04EF0006#641519F01119930E
(1547753598.156942) can0 18FEF147#FF0000FFFFFFFFFF
(1547753598.157494) can0 0CF00400#F0FF9D2A1CFFFFFF
(1547753598.158067) can0 18FFFB06#0005AFF8FFFFFFFF
(1547753598.158670) can0 18F00503#7DFFFFFFFFFFFFFF
(1547753598.166833) can0 0CF00300#FF0024FF06FFFFFF
(1547753598.167420) can0 0CEFFF00#64062E7DFFFFFFFF
(1547753598.167992) can0 18FE6900#10259026FFFF60FE
(1547753598.174708) can0 0DEF0647#0104FFFFFFFFFFF1
(1547753598.175395) can0 0DEF0603#0101FFFFFFFFFFF5
(1547753598.176569) can0 04EF0006#64151AF01119930E
(1547753598.177143) can0 0CF00400#F0FF9D2C1CFFFFFF
(1547753598.186946) can0 0CF00300#FF0024FF06FFFFFF
(1547753598.187519) can0 0CEFFF00#64062E7DFFFFFFFF
(1547753598.195197) can0 0DEF0603#0101FFFFFFFFFFF5
(1547753598.196398) can0 04EF0006#64151BF01119930E
(1547753598.196970) can0 0CFE4947#FFFFFFFFFFFFFFFF
(1547753598.197522) can0 0CF00400#F0FF9D241CFFFFFF
(1547753598.198120) can0 0CFFFF47#5DFFFFF3FFFFFFFF
(1547753598.198699) can0 18FEDF00#8B201CFFFFFFFFFF
(1547753598.199271) can0 0CFE4347#0000FFFF3FFFFFFF
(1547753598.199831) can0 0CFE4447#0000FFFF3FFFFFFF
(1547753598.206868) can0 0CF00300#FF0025FF06FFFFFF
(1547753598.207440) can0 0CEFFF00#64062F7DFFFFFFFF
(1547753598.208019) can0 18FEF200#2300FFFFFFFFFFFF
(1547753598.215176) can0 0DEF0603#0101FFFFFFFFFFF5
(1547753598.216396) can0 04EF0006#64151CF00B19930E
(1547753598.216947) can0 0CF00400#F0FF9D1C1CFFFFFF
(1547753598.226877) can0 0CF00300#FF0024FF06FFFFFF
(1547753598.227422) can0 0CEFFF00#6406317DFFFFFFFF
(1547753598.228023) can0 18EF0600#640E4700FFFFFFFF
(1547753598.235201) can0 0DEF0603#0101FFFFFFFFFFF5
(1547753598.236446) can0 04EF0006#64151DF00419930E
(1547753598.237022) can0 0CF00400#F0FF9E281CFFFFFF
(1547753598.237572) can0 0CFFFE06#5C271D271DFFFFFF
(1547753598.238149) can0 18FEF147#FF0000FFFFFFFFFF
(1547753598.238747) can0 18F00503#7DFFFFFFFFFFFFFF
(1547753598.246886) can0 0CF00300#FF0024FF06FFFFFF
(1547753598.247498) can0 0CEFFF00#64062E7DFFFFFFFF
(1547753598.248074) can0 18EFFF00#64100101CD02057D
(1547753598.255167) can0 0DEF0603#0101FFFFFFFFFFF5
(1547753598.256368) can0 04EF0006#64151EF01119930E
(1547753598.256926) can0 0CF00400#F0FF9D2E1CFFFFFF
(1547753598.266848) can0 0CF00300#FF0024FF06FFFFFF
(1547753598.267448) can0 0CEFFF00#64062E7DFFFFFFFF
(1547753598.274749) can0 0DEF0647#0104FFFFFFFFFFF1
(1547753598.275347) can0 0DEF0603#0101FFFFFFFFFFF5
