(1547755222.607938) can0 18EEFF47#4D74300400340220
(1547755222.608484) can0 18EEFF06#4D743004000E0020
(1547755222.609083) can0 18EEFF03#4D74300400030220
(1547755222.636610) can0 18EEFF00#56F5290400000220
(1547755222.638816) can0 0CF00400#F0FF000000FFFFFF
(1547755222.639183) can0 18EAFF00#00EE00
(1547755222.648710) can0 0CF00300#FF0000FF00FFFFFF
(1547755222.649281) can0 0CEFFF00#6406007DFFFFFFFF
(1547755222.649859) can0 18FEF200#0000FFFFFFFFFFFF
(1547755222.658937) can0 0CF00400#F0FF7D0000FFFFFF
(1547755222.668808) can0 0CF00300#FF0000FF06FFFFFF
(1547755222.669337) can0 0CEFFF00#6406007DFFFFFFFF
(1547755222.669957) can0 18EF0600#640E0302FFFFFFFF
(1547755222.678852) can0 0CF00400#F0FF7D0000FFFFFF
(1547755222.688855) can0 0CF00300#FF0000FF06FFFFFF
(1547755222.689426) can0 0CEFFF00#6406007DFFFFFFFF
(1547755222.690003) can0 18EFFF00#64100B0B0000007D
(1547755222.690603) can0 18FEDF00#7DFE1CFFFFFFFFFF
(1547755222.691152) can0 1CECFF00#20220005FFE3FE00
(1547755222.698797) can0 0CF00400#F0FF7D0000FFFFFF
(1547755222.708802) can0 0CF00300#FF0000FF06FFFFFF
(1547755222.709378) can0 0CEFFF00#6406007DFFFFFFFF
(1547755222.709978) can0 18FEEF00#FFFFFFFEFFFFFFFA
(1547755222.718823) can0 0CF00400#F0FF7D0000FFFFFF
(1547755222.728806) can0 0CF00300#FF0000FF06FFFFFF
(1547755222.729376) can0 0CEFFF00#6406007DFFFFFFFF
(1547755222.738855) can0 0CF00400#F0FF7D0000FFFFFF
(1547755222.741977) can0 1CEBFF00#01201CDD6842DCA0
(1547755222.748854) can0 0CF00300#FF0000FF06FFFFFF
(1547755222.749426) can0 0CEFFF00#6406007DFFFFFFFF
(1547755222.750028) can0 18FEF200#0000FFFFFFFFFFFF
(1547755222.758879) can0 0CF00400#F0FF7D0000FFFFFF
(1547755222.768831) can0 0CF00300#FF0000FF06FFFFFF
(1547755222.769401) can0 0CEFFF00#6406007DFFFFFFFF
(1547755222.769977) can0 18EF0600#640E0D02FFFFFFFF
(1547755222.778854) can0 0CF00400#F0FF7D0000FFFFFF
(1547755222.788829) can0 0CF00300#FF0000FF06FFFFFF
(1547755222.789403) can0 0CEFFF00#6406007DFFFFFFFF
(1547755222.789978) can0 18EFFF00#64100B0B0000007D
(1547755222.790549) can0 18FEF600#FF0045FF00FFFFFF
(1547755222.791103) can0 1CEBFF00#020FD58D20E37A31
(1547755222.798845) can0 0CF00400#F0FF7D0000FFFFFF
(1547755222.808806) can0 18EFFA00#6401FF0000FFFFFF
(1547755222.809380) can0 0CEFFF00#6406007DFFFFFFFF
(1547755222.809951) can0 0CF00300#FF0000FF06FFFFFF
(1547755222.818823) can0 0CF00400#F0FF7D0000FFFFFF
(1547755222.828831) can0 0CF00300#FF0000FF06FFFFFF
(1547755222.829430) can0 0CEFFF00#6406007DFFFFFFFF
(1547755222.838879) can0 0CF00400#F0FF7D0000FFFFFF
(1547755222.842076) can0 1CEBFF00#03F1C044FFFF0401
(1547755222.848853) can0 0CF00300#FF0000FF06FFFFFF
(1547755222.849429) can0 0CEFFF00#6406007DFFFFFFFF
(1547755222.850028) can0 18FEF200#0000FFFFFFFFFFFF
(1547755222.858881) can0 0CF00400#F0FF7D0000FFFFFF
(1547755222.868831) can0 0CF00300#FF0000FF06FFFFFF
(1547755222.869401) can0 0CEFFF00#6406007DFFFFFFFF
(1547755222.869978) can0 04EF0006#641510F00000930E
(1547755222.870554) can0 0DEF0603#0101FFFFFFFFFFF5
(1547755222.871127) can0 18EF0600#640E1706FFFFFFFF
(1547755222.871671) can0 0C000006#30FFFFFFF8FFFFFF
(1547755222.878824) can0 0CF00400#F0FF7D0000FFFFFF
(1547755222.888831) can0 0CF00300#FF0000FF06FFFFFF
(1547755222.889428) can0 0CEFFF00#6406007DFFFFFFFF
(1547755222.889946) can0 04EF0006#641510F00000930E
(1547755222.890573) can0 0DEF0647#0104FFFFFFFFFFF1
(1547755222.891105) can0 18EEFF00#56F5290400000220
(1547755222.891703) can0 0DEF0603#0101FFFFFFFFFFF5
(1547755222.892275) can0 18EFFF00#64100B0B0000007D
(1547755222.892827) can0 0CFFFE06#5C271D271DFFFFFF
(1547755222.893397) can0 18FFFB06#00057DF8FFFFFFFF
(1547755222.893957) can0 1CEBFF00#04204E0001FAC9FA
(1547755222.894332) can0 18EAFF47#00EE00
(1547755222.898823) can0 0CF00400#F0FF7D0000FFFFFF
(1547755222.908796) can0 0CF00300#FF0000FF06FFFFFF
(1547755222.909409) can0 0CEFFF00#6406007DFFFFFFFF
(1547755222.909976) can0 04EF0006#641510F00000930E
(1547755222.910551) can0 0DEF0603#0101FFFFFFFFFFF5
(1547755222.911128) can0 18FEEE00#5842FFFFFFFFFFFF
(1547755222.918881) can0 0CF00400#F0FF7D0000FFFFFF
(1547755222.928828) can0 0CF00300#FF0000FF06FFFFFF
(1547755222.929428) can0 0CEFFF00#6406007DFFFFFFFF
(1547755222.929979) can0 04EF0006#641510F00000930E
(1547755222.930553) can0 0DEF0603#0101FFFFFFFFFFF5
(1547755222.931152) can0 0CFE4947#FFFFFFFFFFFFFFFF
(1547755222.931752) can0 0CFE4347#FFFFFFFFFFFFFFFF
(1547755222.932352) can0 0CFE4447#0000FFFF3FFFFFFF
(1547755222.938845) can0 0CF00400#F0FF7D0000FFFFFF
(1547755222.939413) can0 18FEDF00#7D261DFFFFFFFFFF
(1547755222.942295) can0 18EEFF00#56F5290400000220
(1547755222.942927) can0 1CEBFF00#05C05D0000FFFFFF
(1547755222.948846) can0 0CF00300#FF0000FF06FFFFFF
(1547755222.949385) can0 0CEFFF00#6406007DFFFFFFFF
(1547755222.950001) can0 04EF0006#641510F00000930E
(1547755222.950601) can0 0DEF0603#0101FFFFFFFFFFF5
(1547755222.951177) can0 18FEF200#0000FFFFFFFFFFFF
(1547755222.958844) can0 0CF00400#F0FF7D0000FFFFFF
(1547755222.968829) can0 0CF00300#FF0000FF06FFFFFF
(1547755222.969401) can0 0CEFFF00#6406007DFFFFFFFF
(1547755222.969953) can0 04EF0006#641510F00000930E
(1547755222.970519) can0 0DEF0603#0101FFFFFFFFFFF5
(1547755222.971083) can0 18EF0600#640E2100FFFFFFFF
(1547755222.971703) can0 18FEF147#FF0000FFFFFFFFFF
(1547755222.972303) can0 18F00503#FFFFFFFFFFFFFFFF
(1547755222.978879) can0 0CF00400#F0FF7D0000FFFFFF
(1547755222.988831) can0 0CF00300#FF0000FF06FFFFFF
(1547755222.989429) can0 0CEFFF00#6406007DFFFFFFFF
(1547755222.989978) can0 04EF0006#641510F00000930E
(1547755222.990550) can0 0DEF0647#0104FFFFFFFFFFF1
(1547755222.991129) can0 18EFFF00#64100B0B0000007D
(1547755222.991671) can0 0DEF0603#0101FFFFFFFFFFF5
(1547755222.992275) can0 18FEF700#FFFFFFFFFFFFA600
(1547755222.998904) can0 0CF00400#F0FF7D0000FFFFFF
(1547755223.008827) can0 0CF00300#FF0000FF06FFFFFF
(1547755223.009372) can0 0CEFFF00#6406007DFFFFFFFF
(1547755223.009976) can0 04EF0006#641510F00000930E
(1547755223.010549) can0 0DEF0603#0101FFFFFFFFFFF5
(1547755223.011153) can0 0CFE4947#FFFFFFFFFFFFFFFF
(1547755223.011753) can0 0CFE4347#FFFFFFFFFFFFFFFF
(1547755223.012353) can0 0CFE4447#0000FFFF3FFFFFFF
(1547755223.012897) can0 0CFFFE06#5C271D271DFFFFFF
(1547755223.018846) can0 0CF00400#F0FF7D0000FFFFFF
(1547755223.028797) can0 0CF00300#FF0000FF06FFFFFF
(1547755223.029375) can0 0CEFFF00#6406007DFFFFFFFF
(1547755223.029935) can0 04EF0006#641510F00000930E
(1547755223.030576) can0 0DEF0603#0101FFFFFFFFFFF5
(1547755223.038848) can0 0CF00400#F0FF7D0000FFFFFF
(1547755223.042958) can0 18EEFF47#4D74300400340220
(1547755223.043525) can0 18EEFF06#4D743004000E0020
(1547755223.044101) can0 18EEFF03#4D74300400030220
(1547755223.048881) can0 0CF00300#FF0000FF06FFFFFF
(1547755223.049450) can0 0CEFFF00#6406007DFFFFFFFF
(1547755223.050002) can0 04EF0006#641510F00000930E
(1547755223.050603) can0 0DEF0603#0101FFFFFFFFFFF5
(1547755223.051177) can0 18FEF147#FF0000FFFFFFFFFF
(1547755223.051718) can0 18FEF200#0000FFFFFFFFFFFF
(1547755223.052297) can0 18F00503#FFFFFFFFFFFFFFFF
(1547755223.058845) can0 0CF00400#F0FF7D0000FFFFFF
(1547755223.068829) can0 0CF00300#FF0000FF06FFFFFF
(1547755223.069429) can0 0CEFFF00#6406007DFFFFFFFF
(1547755223.069977) can0 04EF0006#641510F00000930E
(1547755223.070550) can0 0DEF0603#0101FFFFFFFFFFF5
(1547755223.071128) can0 18EF0600#640E2B00FFFFFFFF
(1547755223.078880) can0 0CF00400#F0FF7D0000FFFFFF
(1547755223.088830) can0 0CF00300#FF0000FF06FFFFFF
(1547755223.089404) can0 0CEFFF00#6406007DFFFFFFFF
(1547755223.089951) can0 04EF0006#641510F00000930E
(1547755223.090519) can0 0DEF0647#0104FFFFFFFFFFF1
(1547755223.091094) can0 18EFFF00#64100B0B0000007D
(1547755223.091702) can0 0DEF0603#0101FFFFFFFFFFF5
(1547755223.092280) can0 18FED500#FFFFFCFFFFFFFFFF
(1547755223.092851) can0 0CFFFE06#5C271D271DFFFFFF
(1547755223.098839) can0 0CF00400#F0FF7D0000FFFFFF
(1547755223.108798) can0 0CF00300#FF0000FF06FFFFFF
(1547755223.109434) can0 0CEFFF00#6406007DFFFFFFFF
(1547755223.109950) can0 04EF0006#641510F00000930E
(1547755223.110603) can0 0DEF0603#0101FFFFFFFFFFF5
(1547755223.118844) can0 0CF00400#F0FF7D0000FFFFFF
(1547755223.128856) can0 0CF00300#FF0000FF06FFFFFF
(1547755223.129427) can0 0CEFFF00#6406007DFFFFFFFF
(1547755223.129976) can0 04EF0006#641510F00000930E
(1547755223.130602) can0 0DEF0603#0101FFFFFFFFFFF5
(1547755223.131114) can0 18FDB300#FFFF4C2AFFFFFFFF
(1547755223.131696) can0 0CFE4947#FFFFFFFFFFFFFFFF
(1547755223.132267) can0 0CFE4347#FFFFFFFFFFFFFFFF
(1547755223.132903) can0 0CFE4447#0000FFFF3FFFFFFF
(1547755223.138876) can0 0CF00400#F0FF7D0000FFFFFF
(1547755223.148873) can0 0CF00300#FF0000FF06FFFFFF
(1547755223.149457) can0 0CEFFF00#6406007DFFFFFFFF
(1547755223.150000) can0 04EF0006#641510F00000930E
(1547755223.150598) can0 0DEF0603#0101FFFFFFFFFFF5
(1547755223.151181) can0 18FEF200#0000FFFFFFFFFFFF
(1547755223.158927) can0 0CF00400#F0FF7DB005FFFFFF
(1547755223.168927) can0 0CF00300#FF0000FF06FFFFFF
(1547755223.169504) can0 0CEFFF00#6406F77CFFFFFFFF
(1547755223.170077) can0 0DEF0603#0101FFFFFFFFFFF5
(1547755223.170624) can0 18EF0600#640E3500FFFFFFFF
(1547755223.171166) can0 04EF0006#641510F00000930E
(1547755223.171743) can0 18FEF147#FF0000FFFFFFFFFF
(1547755223.172347) can0 18F00503#FFFFFFFFFFFFFFFF
(1547755223.178901) can0 0CF00400#F0FF7DCA05FFFFFF
(1547755223.188879) can0 0CF00300#FF0000FF06FFFFFF
(1547755223.189458) can0 0CEFFF00#6406F77CFFFFFFFF
(1547755223.190050) can0 0DEF0647#0104FFFFFFFFFFF1
(1547755223.190651) can0 18EFFF00#641000000000007D
(1547755223.191222) can0 0DEF0603#0101FFFFFFFFFFF5
(1547755223.191776) can0 04EF0006#641510F00000930E
(1547755223.192348) can0 18FEDF00#7F261DFFFFFFFFFF
(1547755223.198922) can0 0CF00400#F0FF7DCC05FFFFFF
(1547755223.208897) can0 0CF00300#FF0000FF06FFFFFF
(1547755223.209469) can0 0CEFFF00#6406F77CFFFFFFFF
(1547755223.210075) can0 0DEF0603#0101FFFFFFFFFFF5
(1547755223.210651) can0 18FEEF00#FFFFFF10FFFFFFFA
(1547755223.211208) can0 04EF0006#641510F00000930E
(1547755223.211777) can0 0CFE4947#FFFFFFFFFFFFFFFF
(1547755223.212349) can0 0CFFFF47#5DFFFFF3FFFFFFFF
(1547755223.219057) can0 0CF00400#F0FF7DCC05FFFFFF
(1547755223.228877) can0 0CF00300#FF0000FF06FFFFFF
(1547755223.229478) can0 0CEFFF00#6406F77CFFFFFFFF
(1547755223.238954) can0 0CF00400#F0FF7DCC05FFFFFF
(1547755223.248955) can0 0CF00300#FF0000FF06FFFFFF
(1547755223.249529) can0 0CEFFF00#6406F77CFFFFFFFF
(1547755223.250103) can0 18FEF200#0000FFFFFFFFFFFF
(1547755223.258956) can0 0CF00400#F0FF7DCC05FFFFFF
(1547755223.268929) can0 0CF00300#FF0000FF06FFFFFF
(1547755223.269505) can0 0CEFFF00#6406F77CFFFFFFFF
(1547755223.270077) can0 18EF0600#640E3F00FFFFFFFF
(1547755223.278957) can0 0CF00400#F0FF7D5005FFFFFF
(1547755223.288902) can0 0CF00300#FF0000FF06FFFFFF
(1547755223.289503) can0 0CEFFF00#6406F87CFFFFFFFF
(1547755223.290079) can0 18EFFF00#641000000000007D
(1547755223.290655) can0 18FEF600#FF0041FF00FFFFFF
(1547755223.298952) can0 0CF00400#F0FF7D4E05FFFFFF
(1547755223.308928) can0 0CF00300#FF0000FF06FFFFFF
(1547755223.309468) can0 0CEFFF00#6406F87CFFFFFFFF
(1547755223.318979) can0 0CF00400#F0FF7D4E05FFFFFF
(1547755223.328919) can0 0CF00300#FF0000FF06FFFFFF
(1547755223.329523) can0 0CEFFF00#6406F87CFFFFFFFF
(1547755223.338970) can0 0CF00400#F0FF7D4E05FFFFFF
(1547755223.339567) can0 18FFFA00#022C0000180C0000
(1547755223.348924) can0 0CF00300#FF0000FF06FFFFFF
(1547755223.349570) can0 0CEFFF00#6406F87CFFFFFFFF
(1547755223.350145) can0 18FEF200#0000FFFFFFFFFFFF
(1547755223.358971) can0 0CF00400#F0FF7DA606FFFFFF
(1547755223.368944) can0 0CF00300#FF0000FF06FFFFFF
(1547755223.369519) can0 0CEFFF00#6406F67CFFFFFFFF
(1547755223.370096) can0 18EF0600#640E4900FFFFFFFF
(1547755223.370670) can0 18FEF500#C8FFFFFFFF3BFFFF
(1547755223.378970) can0 0CF00400#F0FF7DDC06FFFFFF
(1547755223.388945) can0 0CF00300#FF0000FF06FFFFFF
(1547755223.389520) can0 0CEFFF00#6406F57CFFFFFFFF
(1547755223.390095) can0 18EFFF00#641000000000007D
(1547755223.398994) can0 0CF00400#F0FF7DDC06FFFFFF
(1547755223.408945) can0 0CF00300#FF0000FF06FFFFFF
(1547755223.409520) can0 0CEFFF00#6406F57CFFFFFFFF
(1547755223.410069) can0 18FE6900#44252828FFFF60FE
(1547755223.418981) can0 0CF00400#F0FF7DDC06FFFFFF
(1547755223.428931) can0 0CF00300#FF0000FF06FFFFFF
(1547755223.429542) can0 0CEFFF00#6406F57CFFFFFFFF
(1547755223.438967) can0 0CF00400#F0FF7DDC06FFFFFF
(1547755223.439535) can0 18FEDF00#81021DFFFFFFFFFF
(1547755223.448963) can0 0CF00300#FF0000FF06FFFFFF
(1547755223.449539) can0 0CEFFF00#6406F57CFFFFFFFF
(1547755223.450113) can0 18FEF200#0000FFFFFFFFFFFF
(1547755223.458968) can0 0CF00400#F0FF7D6005FFFFFF
(1547755223.468946) can0 0CF00300#FF0000FF06FFFFFF
(1547755223.469513) can0 0CEFFF00#6406F87CFFFFFFFF
(1547755223.470089) can0 18EF0600#640E5306FFFFFFFF
(1547755223.478968) can0 0CF00400#F0FF7D8604FFFFFF
(1547755223.488942) can0 0CF00300#FF0000FF06FFFFFF
(1547755223.489538) can0 0CEFFF00#6406F97CFFFFFFFF
(1547755223.490112) can0 18EFFF00#641000000000007D
(1547755223.498993) can0 0CF00400#F0FF7D8204FFFFFF
(1547755223.508942) can0 0CF00300#FF0000FF06FFFFFF
(1547755223.509515) can0 0CEFFF00#6406F97CFFFFFFFF
(1547755223.518993) can0 0CF00400#F0FF7D0608FFFFFF
(1547755223.528943) can0 0CF00300#FF0000FF06FFFFFF
(1547755223.529514) can0 0CEFFF00#6406F37CFFFFFFFF
(1547755223.530066) can0 18FD7C00#F880F0F000CF03FC
(1547755223.538991) can0 0CF00400#FEFF7D3808FFFFFF
(1547755223.548993) can0 0CF00300#FF0064FF06FFFFFF
(1547755223.549563) can0 0CEFFF00#64068C7DFFFFFFFF
(1547755223.550165) can0 18FEF200#2000FFFFFFFFFFFF
(1547755223.559018) can0 0CF00400#FEFFB8D006FFFFFF
(1547755223.568943) can0 0CF00300#FF0064FF06FFFFFF
(1547755223.569513) can0 0CEFFF00#64068C7DFFFFFFFF
(1547755223.570088) can0 18EF0600#640E5D06FFFFFFFF
(1547755223.578988) can0 0CF00400#FEFFB72806FFFFFF
(1547755223.588968) can0 0CF00300#FF0064FF06FFFFFF
(1547755223.589540) can0 0CEFFF00#64068C7DFFFFFFFF
(1547755223.590112) can0 18EFFF00#641000000000007D
(1547755223.599018) can0 0CF00400#FEFFB75605FFFFFF
(1547755223.608968) can0 0CF00300#FF0064FF06FFFFFF
(1547755223.609540) can0 0CEFFF00#64068C7DFFFFFFFF
(1547755223.619019) can0 0CF00400#FEFFB6B405FFFFFF
(1547755223.628943) can0 0CF00300#FF0064FF06FFFFFF
(1547755223.629516) can0 0CEFFF00#64068C7DFFFFFFFF
(1547755223.630112) can0 18FDB300#FFFF402AFFFFFFFF
(1547755223.630689) can0 1CEFFF00#64070000FFFFFFFF
(1547755223.639019) can0 0CF00400#FEFFB62E07FFFFFF
(1547755223.648994) can0 0CF00300#FF0064FF06FFFFFF
(1547755223.649564) can0 0CEFFF00#64068C7DFFFFFFFF
(1547755223.650137) can0 18FEF200#1C00FFFFFFFFFFFF
(1547755223.659017) can0 0CF00400#FEFFB7C607FFFFFF
(1547755223.668964) can0 0CF00300#FF0064FF06FFFFFF
(1547755223.669508) can0 0CEFFF00#64068C7DFFFFFFFF
(1547755223.670114) can0 18EF0600#640E6706FFFFFFFF
(1547755223.679016) can0 0CF00400#FEFFB7D007FFFFFF
(1547755223.688968) can0 0CF00300#FF0064FF06FFFFFF
(1547755223.689539) can0 0CEFFF00#64068C7DFFFFFFFF
(1547755223.690140) can0 18EFFF00#641000000000007D
(1547755223.690715) can0 18FEDF00#81201CFFFFFFFFFF
(1547755223.699014) can0 0CF00400#FEFFB7A007FFFFFF
(1547755223.708988) can0 0CF00300#FF0064FF06FFFFFF
(1547755223.709567) can0 0CEFFF00#64068C7DFFFFFFFF
(1547755223.710137) can0 18FEEF00#FFFFFF3BFFFFFFFA
(1547755223.719043) can0 0CF00400#FEFFB73807FFFFFF
(1547755223.728992) can0 0CF00300#FF0064FF06FFFFFF
(1547755223.729565) can0 0CEFFF00#64068C7DFFFFFFFF
(1547755223.739016) can0 0CF00400#FEFFB7D806FFFFFF
(1547755223.749017) can0 0CF00300#FF0064FF06FFFFFF
(1547755223.749615) can0 0CEFFF00#64068C7DFFFFFFFF
(1547755223.750163) can0 18FEF200#1C00FFFFFFFFFFFF
(1547755223.759019) can0 0CF00400#FEFFB75A06FFFFFF
(1547755223.768968) can0 0CF00300#FF0064FF06FFFFFF
(1547755223.769542) can0 0CEFFF00#64068C7DFFFFFFFF
(1547755223.770113) can0 18EF0600#640E7106FFFFFFFF
(1547755223.778993) can0 0CF00400#FEFFB79405FFFFFF
(1547755223.788968) can0 0CF00300#FF0064FF06FFFFFF
(1547755223.789537) can0 0CEFFF00#64068C7DFFFFFFFF
(1547755223.790137) can0 18EFFF00#641000000000007D
(1547755223.790717) can0 18FEF600#FF0041FF00FFFFFF
(1547755223.799018) can0 0CF00400#FEFFB6F206FFFFFF
(1547755223.808943) can0 18EFFA00#6401FF0000FFFFFF
(1547755223.809515) can0 0CEFFF00#64068C7DFFFFFFFF
(1547755223.810089) can0 0CF00300#FF0064FF06FFFFFF
(1547755223.819018) can0 0CF00400#FEFFB7BC0AFFFFFF
(1547755223.828988) can0 0CF00300#FF0064FF06FFFFFF
(1547755223.829566) can0 0CEFFF00#64068C7DFFFFFFFF
(1547755223.839042) can0 0CF00400#FEFFB9AC0CFFFFFF
(1547755223.848989) can0 0CF00300#FF0064FF06FFFFFF
(1547755223.849566) can0 0CEFFF00#64068C7DFFFFFFFF
(1547755223.850140) can0 18FEF200#3500FFFFFFFFFFFF
(1547755223.859017) can0 0CF00400#FEFFBBC80CFFFFFF
(1547755223.869038) can0 0CF00300#FF0064FF06FFFFFF
(1547755223.869617) can0 0CEFFF00#64068C7DFFFFFFFF
(1547755223.870189) can0 18EF0600#640E7B06FFFFFFFF
(1547755223.879091) can0 0CF00400#FEFFBBE80BFFFFFF
(1547755223.889013) can0 0CF00300#FF0064FF06FFFFFF
(1547755223.889618) can0 0CEFFF00#64068C7DFFFFFFFF
(1547755223.890187) can0 18EFFF00#641000000000007D
(1547755223.899068) can0 0CF00400#FEFFBA060AFFFFFF
(1547755223.909013) can0 0CF00300#FF0064FF06FFFFFF
(1547755223.909618) can0 0CEFFF00#64068C7DFFFFFFFF
(1547755223.910162) can0 18FEEE00#5842FFFFFFFFFFFF
(1547755223.919020) can0 0CF00400#FEFFB9CC0DFFFFFF
(1547755223.928992) can0 0CF00300#FF0064FF06FFFFFF
(1547755223.929567) can0 0CEFFF00#64068C7DFFFFFFFF
(1547755223.939065) can0 0CF00400#FEFFBB3C0FFFFFFF
(1547755223.939639) can0 18FEDF00#83201CFFFFFFFFFF
(1547755223.949040) can0 0CF00300#FF0064FF06FFFFFF
(1547755223.949622) can0 0CEFFF00#64068C7DFFFFFFFF
(1547755223.950198) can0 18FEF200#4200FFFFFFFFFFFF
(1547755223.959173) can0 0CF00400#FEFFBC480FFFFFFF
(1547755223.969047) can0 0CF00300#FF0064FF06FFFFFF
(1547755223.969649) can0 0CEFFF00#64068C7DFFFFFFFF
(1547755223.970198) can0 18EF0600#640E8506FFFFFFFF
(1547755223.979125) can0 0CF00400#FEFFBC240EFFFFFF
(1547755223.988997) can0 0CF00300#FF0064FF06FFFFFF
(1547755223.989625) can0 0CEFFF00#64068C7DFFFFFFFF
(1547755223.990172) can0 18EFFF00#641000000000007D
(1547755223.990747) can0 18FEF700#FFFFFFFFFFFFC900
(1547755223.999023) can0 0CF00400#FEFFBC540FFFFFFF
(1547755224.008995) can0 0CF00300#FF0064FF06FFFFFF
(1547755224.009626) can0 0CEFFF00#64068C7DFFFFFFFF
(1547755224.019047) can0 0CF00400#FEFFBC0E10FFFFFF
(1547755224.028952) can0 0CF00300#FF0064FF06FFFFFF
(1547755224.029571) can0 0CEFFF00#64068C7DFFFFFFFF
(1547755224.039038) can0 0CF00400#FEFFBDCA10FFFFFF
(1547755224.049214) can0 0CF00300#FF0064FF06FFFFFF
(1547755224.049797) can0 0CEFFF00#64068C7DFFFFFFFF
(1547755224.050371) can0 18FEF200#4B00FFFFFFFFFFFF
(1547755224.059027) can0 0CF00400#FEFFBDCE11FFFFFF
(1547755224.069004) can0 0CF00300#FF0064FF06FFFFFF
(1547755224.069563) can0 0CEFFF00#64068C7DFFFFFFFF
(1547755224.070148) can0 18EF0600#640E8F06FFFFFFFF
(1547755224.079051) can0 0CF00400#FEFFBEB212FFFFFF
(1547755224.089002) can0 0CF00300#FF0064FF06FFFFFF
(1547755224.089627) can0 0CEFFF00#64068C7DFFFFFFFF
(1547755224.090171) can0 18EFFF00#641000000000007D
(1547755224.090776) can0 18FED500#FFFFFCFFFFFFFFFF
(1547755224.099077) can0 0CF00400#FEFFBE8013FFFFFF
(1547755224.109151) can0 0CF00300#FF0064FF06FFFFFF
(1547755224.109726) can0 0CEFFF00#64068C7DFFFFFFFF
(1547755224.119029) can0 0CF00400#FEFFBF9814FFFFFF
(1547755224.129000) can0 0CF00300#FF0064FF06FFFFFF
(1547755224.129573) can0 0CEFFF00#64068C7DFFFFFFFF
(1547755224.130174) can0 18FDB300#FFFF4C2AFFFFFFFF
(1547755224.139026) can0 0CF00400#FEFFBF8C15FFFFFF
(1547755224.149027) can0 0CF00300#FF0064FF06FFFFFF
(1547755224.149626) can0 0CEFFF00#64068C7DFFFFFFFF
(1547755224.150173) can0 18FEF200#6200FFFFFFFFFFFF
(1547755224.159177) can0 0CF00400#FEFFBF6A16FFFFFF
(1547755224.168967) can0 0CF00300#FF0064FF06FFFFFF
(1547755224.169534) can0 0CEFFF00#64068C7DFFFFFFFF
(1547755224.170108) can0 18EF0600#640E9906FFFFFFFF
(1547755224.179036) can0 0CF00400#FEFFC07E17FFFFFF
(1547755224.188986) can0 0CF00300#FF0064FF06FFFFFF
(1547755224.189584) can0 0CEFFF00#64068F7DFFFFFFFF
(1547755224.190156) can0 18EFFF00#641000000000007D
(1547755224.190734) can0 18FEDF00#89201CFFFFFFFFFF
(1547755224.199023) can0 0CF00400#FEFFC14618FFFFFF
(1547755224.209073) can0 0CF00300#FF0064FF06FFFFFF
(1547755224.209649) can0 0CEFFF00#6406927DFFFFFFFF
(1547755224.210219) can0 18FEEF00#FFFFFF5AFFFFFFFA
(1547755224.219050) can0 0CF00400#FEFFC23219FFFFFF
(1547755224.229000) can0 0CF00300#FF0064FF06FFFFFF
(1547755224.229572) can0 0CEFFF00#6406957DFFFFFFFF
(1547755224.239000) can0 0CF00400#FEFFC4201AFFFFFF
(1547755224.249000) can0 0CF00300#FF0064FF06FFFFFF
(1547755224.249571) can0 0CEFFF00#6406977DFFFFFFFF
(1547755224.250145) can0 18FEF200#7900FFFFFFFFFFFF
(1547755224.259100) can0 0CF00400#FEFFC5041BFFFFFF
(1547755224.269150) can0 0CF00300#FF0064FF06FFFFFF
(1547755224.269723) can0 0CEFFF00#64069B7DFFFFFFFF
(1547755224.270318) can0 18EF0600#640EA306FFFFFFFF
(1547755224.279025) can0 0CF00400#F8FFC6F01BFFFFFF
(1547755224.289097) can0 0CF00300#FF0064FF06FFFFFF
(1547755224.289649) can0 0CEFFF00#64069E7DFFFFFFFF
(1547755224.290244) can0 18EFFF00#64100101D602007D
(1547755224.290821) can0 18FEF600#FF003DFF00FFFFFF
(1547755224.299050) can0 0CF00400#F8FFC8DE1CFFFFFF
(1547755224.308975) can0 0CF00300#FF0064FF06FFFFFF
(1547755224.309572) can0 0CEFFF00#6406A17DFFFFFFFF
(1547755224.319025) can0 0CF00400#F0FFC9D21DFFFFFF
(1547755224.329044) can0 0CF00300#FF0058FF06FFFFFF
(1547755224.329614) can0 0CEFFF00#6406A17DFFFFFFFF
(1547755224.339143) can0 0CF00400#F0FFCA5E1EFFFFFF
(1547755224.339713) can0 18FFFA00#022C0000180C0081
(1547755224.349068) can0 0CF00300#FF003DFF06FFFFFF
(1547755224.349606) can0 0CEFFF00#6406717DFFFFFFFF
(1547755224.350212) can0 18FEF200#3F00FFFFFFFFFFFF
(1547755224.359044) can0 0CF00400#F0FFB7EC1EFFFFFF
(1547755224.368994) can0 0CF00300#FF001BFF06FFFFFF
(1547755224.369566) can0 0CEFFF00#6406337DFFFFFFFF
(1547755224.370141) can0 18EF0600#640EAD06FFFFFFFF
(1547755224.370713) can0 18FEF500#C8FFFFFFFF3AFFFF
(1547755224.379046) can0 0CF00400#F0FF9F6C1FFFFFFF
(1547755224.388994) can0 0CF00300#FF0003FF06FFFFFF
(1547755224.389566) can0 0CEFFF00#6406F67CFFFFFFFF
(1547755224.390140) can0 18EFFF00#641001011003007D
(1547755224.398995) can0 0CF00400#F0FF88B41FFFFFFF
(1547755224.408992) can0 0CF00300#FF0000FF06FFFFFF
(1547755224.409565) can0 0CEFFF00#6406D97CFFFFFFFF
(1547755224.410115) can0 18FE6900#C4242A28FFFF60FE
(1547755224.419020) can0 0CF00400#F1FF7D981FFFFFFF
(1547755224.428964) can0 0CF00300#FF0000FF06FFFFFF
(1547755224.429541) can0 0CEFFF00#6406D97CFFFFFFFF
(1547755224.436639) can0 18EEFF47#4D74300400340220
(1547755224.437212) can0 18EEFF06#4D743004000E0020
(1547755224.437789) can0 18EEFF03#4D74300400030220
(1547755224.439040) can0 0CF00400#F1FF7D581FFFFFFF
(1547755224.439614) can0 18FEDF00#8CCC1CFFFFFFFFFF
(1547755224.448988) can0 0CF00300#FF0000FF06FFFFFF
(1547755224.449576) can0 0CEFFF00#6406D97CFFFFFFFF
(1547755224.450139) can0 18FEF200#0000FFFFFFFFFFFF
(1547755224.459014) can0 0CF00400#F1FF7DF01EFFFFFF
(1547755224.468989) can0 0CF00300#FF0000FF06FFFFFF
(1547755224.469567) can0 0CEFFF00#6406DA7CFFFFFFFF
(1547755224.470115) can0 18EF0600#640EB706FFFFFFFF
(1547755224.479019) can0 0CF00400#F1FF7D961EFFFFFF
(1547755224.488991) can0 0CF00300#FF000DFF06FFFFFF
(1547755224.489544) can0 0CEFFF00#6406E67CFFFFFFFF
(1547755224.490116) can0 18EFFF00#64100101FD02067D
(1547755224.499144) can0 0CF00400#F1FF82301EFFFFFF
(1547755224.507763) can0 18EEFF17#0C6E240400130220
(1547755224.509015) can0 0CF00300#FF0015FF06FFFFFF
(1547755224.509620) can0 0CEFFF00#6406FC7CFFFFFFFF
(1547755224.519045) can0 0CF00400#F1FF8AC61DFFFFFF
(1547755224.528990) can0 0CF00300#FF0018FF06FFFFFF
(1547755224.529620) can0 0CEFFF00#6406097DFFFFFFFF
(1547755224.530139) can0 18FD7C00#F880F1F500CF03FD
(1547755224.539144) can0 0CF00400#F1FF8F821DFFFFFF
(1547755224.549090) can0 0CF00300#FF001DFF06FFFFFF
(1547755224.549666) can0 0CEFFF00#6406097DFFFFFFFF
(1547755224.550237) can0 18FEF200#1100FFFFFFFFFFFF
(1547755224.559045) can0 0CF00400#F1FF8F361DFFFFFF
(1547755224.568989) can0 0CF00300#FF0021FF06FFFFFF
(1547755224.569565) can0 0CEFFF00#6406157DFFFFFFFF
(1547755224.570138) can0 18EF0600#640EC106FFFFFFFF
(1547755224.579065) can0 0CF00400#F0FF93F61CFFFFFF
(1547755224.589391) can0 0CF00300#FF0050FF06FFFFFF
(1547755224.589964) can0 0CEFFF00#6406757DFFFFFFFF
(1547755224.590541) can0 18EFFF00#64100101F002037D
(1547755224.599040) can0 0CF00400#F0FFB8CE1CFFFFFF
(1547755224.608989) can0 0CF00300#FF004FFF06FFFFFF
(1547755224.609566) can0 0CEFFF00#64067B7DFFFFFFFF
(1547755224.619040) can0 0CF00400#F0FFBB001DFFFFFF
(1547755224.629067) can0 0CF00300#FF0042FF06FFFFFF
(1547755224.629645) can0 0CEFFF00#64066D7DFFFFFFFF
(1547755224.630212) can0 18FDB300#FFFF582AFFFFFFFF
(1547755224.630788) can0 1CEFFF00#64070000FFFFFFFF
(1547755224.639090) can0 0CF00400#F0FFB55A1DFFFFFF
(1547755224.649064) can0 0CF00300#FF0033FF06FFFFFF
(1547755224.649641) can0 0CEFFF00#6406507DFFFFFFFF
(1547755224.650239) can0 18FEF200#3300FFFFFFFFFFFF
(1547755224.659090) can0 0CF00400#F0FFAAB81DFFFFFF
(1547755224.669036) can0 0CF00300#FF0024FF06FFFFFF
(1547755224.669643) can0 0CEFFF00#6406327DFFFFFFFF
(1547755224.670237) can0 18EF0600#640ECB06FFFFFFFF
(1547755224.679082) can0 0CF00400#F0FF9F1C1EFFFFFF
(1547755224.689018) can0 0CF00300#FF0013FF06FFFFFF
(1547755224.689616) can0 0CEFFF00#64060F7DFFFFFFFF
(1547755224.690163) can0 18EFFF00#64100101FE02037D
(1547755224.690742) can0 18FEDF00#8B201CFFFFFFFFFF
(1547755224.697890) can0 0DEF0603#0101FFFFFFFFFFF5
(1547755224.699066) can0 0CF00400#F0FF91481EFFFFFF
(1547755224.709015) can0 0CF00300#FF000BFF06FFFFFF
(1547755224.709586) can0 0CEFFF00#6406F77CFFFFFFFF
(1547755224.710162) can0 18FEEF00#FFFFFF63FFFFFFFA
(1547755224.717757) can0 0DEF0647#0104FFFFFFFFFFF1
(1547755224.718388) can0 0DEF0603#0101FFFFFFFFFFF5
(1547755224.718788) can0 18EAFF47#00EE00
(1547755224.719362) can0 0CF00400#F1FF884E1EFFFFFF
(1547755224.719941) can0 0CFFFE06#5CFFFFFFFFFFFFFF
(1547755224.728992) can0 0CF00300#FF0000FF06FFFFFF
(1547755224.729565) can0 0CEFFF00#6406DA7CFFFFFFFF
(1547755224.737920) can0 0DEF0603#0101FFFFFFFFFFF5
(1547755224.739015) can0 0CF00400#F1FF7D361EFFFFFF
(1547755224.743894) can0 18EEFF00#56F5290400000220
(1547755224.749093) can0 0CF00300#FF0000FF06FFFFFF
(1547755224.749667) can0 0CEFFF00#6406DA7CFFFFFFFF
(1547755224.750209) can0 18FEF200#0000FFFFFFFFFFFF
(1547755224.757897) can0 0DEF0603#0101FFFFFFFFFFF5
(1547755224.758514) can0 0CFE4947#FFFFFFFFFFFFFFFF
(1547755224.759091) can0 0CF00400#F1FF7DEC1DFFFFFF
(1547755224.759664) can0 0CFE4347#FFFFFFFFFFFFFFFF
(1547755224.760231) can0 0CFE4447#0000FFFF3FFFFFFF
(1547755224.768946) can0 0CF00300#FF000CFF06FFFFFF
(1547755224.769567) can0 0CEFFF00#6406DA7CFFFFFFFF
(1547755224.770118) can0 18EF0600#640ED506FFFFFFFF
(1547755224.777896) can0 0DEF0603#0101FFFFFFFFFFF5
(1547755224.779065) can0 0CF00400#F1FF7D9A1DFFFFFF
(1547755224.788345) can0 18EAFF17#00EE00
(1547755224.789014) can0 0CF00300#FF0013FF06FFFFFF
(1547755224.789616) can0 0CEFFF00#6406F87CFFFFFFFF
(1547755224.790162) can0 18EFFF00#64100101F002057D
(1547755224.790707) can0 18FEF600#FF003DFF00FFFFFF
(1547755224.791613) can0 18EEFF00#56F5290400000220
(1547755224.797892) can0 0DEF0603#0101FFFFFFFFFFF5
(1547755224.798487) can0 18FEF147#FF0000FFFFFFFFFF
(1547755224.799091) can0 18F00503#FFFFFFFFFFFFFFFF
(1547755224.799588) can0 0CF00400#F1FF88421DFFFFFF
(1547755224.808371) can0 1CFFFF17#22FFFF3CFFFFFFFF
(1547755224.809042) can0 18EFFA00#6401FF0000FFFFFF
(1547755224.809614) can0 0CEFFF00#6406077DFFFFFFFF
(1547755224.810188) can0 0CF00300#FF0019FF06FFFFFF
(1547755224.817819) can0 0DEF0647#0104FFFFFFFFFFF1
(1547755224.818411) can0 0DEF0603#0101FFFFFFFFFFF5
(1547755224.819066) can0 0CF00400#F1FF8EE41CFFFFFF
(1547755224.828994) can0 0CF00300#FF001DFF06FFFFFF
(1547755224.829565) can0 0CEFFF00#6406147DFFFFFFFF
(1547755224.837919) can0 0DEF0603#0101FFFFFFFFFFF5
(1547755224.838512) can0 0CFE4947#FFFFFFFFFFFFFFFF
(1547755224.839116) can0 0CFE4347#FFFFFFFFFFFFFFFF
(1547755224.839689) can0 0CF00400#F1FF93A41CFFFFFF
(1547755224.840213) can0 0CFE4447#0000FFFF3FFFFFFF
(1547755224.840816) can0 0CFFFE06#5CFFFFFFFFFFFFFF
(1547755224.849069) can0 0CF00300#FF0039FF06FFFFFF
(1547755224.849641) can0 0CEFFF00#64061C7DFFFFFFFF
(1547755224.850238) can0 18FEF200#1A00FFFFFFFFFFFF
(1547755224.857872) can0 0DEF0603#0101FFFFFFFFFFF5
(1547755224.859067) can0 0CF00400#F0FF96741CFFFFFF
(1547755224.869020) can0 0CF00300#FF003AFF06FFFFFF
(1547755224.869615) can0 0CEFFF00#64064C7DFFFFFFFF
(1547755224.870165) can0 18EF0600#640EDF06FFFFFFFF
(1547755224.877893) can0 0DEF0603#0101FFFFFFFFFFF5
(1547755224.878489) can0 18FEF147#FF0000FFFFFFFFFF
(1547755224.879089) can0 18F00503#FFFFFFFFFFFFFFFF
(1547755224.879640) can0 0CF00400#F0FFA8561CFFFFFF
(1547755224.889168) can0 0CF00300#FF003BFF06FFFFFF
(1547755224.889742) can0 0CEFFF00#64064F7DFFFFFFFF
(1547755224.890243) can0 18EFFF00#64100101E202037D
(1547755224.897870) can0 0DEF0603#0101FFFFFFFFFFF5
(1547755224.899089) can0 0CF00400#F0FFAA381CFFFFFF
(1547755224.908368) can0 18EA0017#09FF00
(1547755224.909040) can0 0CF00300#FF003BFF06FFFFFF
(1547755224.909640) can0 0CEFFF00#6406527DFFFFFFFF
(1547755224.910213) can0 18FEEE00#5842FFFFFFFFFFFF
(1547755224.917819) can0 0DEF0647#0104FFFFFFFFFFF1
(1547755224.918413) can0 0DEF0603#0101FFFFFFFFFFF5
(1547755224.919039) can0 0CFFFE06#5CFFFFFFFFFFFFFF
(1547755224.919614) can0 0CF00400#F0FFAB601CFFFFFF
(1547755224.928992) can0 0CF00300#FF0036FF06FFFFFF
(1547755224.929568) can0 0CEFFF00#64064C7DFFFFFFFF
(1547755224.938396) can0 0DEF0603#0101FFFFFFFFFFF5
(1547755224.939090) can0 0CF00400#F0FFA8AA1CFFFFFF
(1547755224.939665) can0 0C000006#30FFFFFFF8FFFFFF
(1547755224.940212) can0 04EF0006#641510F00000930E
(1547755224.940814) can0 18FEDF00#8B201CFFFFFFFFFF
(1547755224.944216) can0 18FF0900#454355FFFFFFFFFF
(1547755224.949064) can0 0CF00300#FF0031FF06FFFFFF
(1547755224.949664) can0 0CEFFF00#6406417DFFFFFFFF
(1547755224.950238) can0 18FEF200#2B00FFFFFFFFFFFF
(1547755224.958342) can0 0DEF0603#0101FFFFFFFFFFF5
(1547755224.959089) can0 0CF00400#F0FFA4DE1CFFFFFF
(1547755224.959664) can0 04EF0006#641510F00000930E
(1547755224.960238) can0 0CFE4947#FFFFFFFFFFFFFFFF
(1547755224.960815) can0 18FFFB06#0005D0F8FFFFFFFF
(1547755224.961394) can0 0CFE4347#FFFFFFFFFFFFFFFF
(1547755224.961943) can0 0CFE4447#0000FFFF3FFFFFFF
(1547755224.962567) can0 0CFFFE06#5C271D271DFFFFFF
(1547755224.969059) can0 0CF00300#FF002BFF06FFFFFF
(1547755224.969692) can0 0CEFFF00#6406377DFFFFFFFF
(1547755224.970241) can0 18EF0600#640EE900FFFFFFFF
(1547755224.978392) can0 0DEF0603#0101FFFFFFFFFFF5
(1547755224.979214) can0 0CF00400#F0FFA00E1DFFFFFF
(1547755224.979763) can0 04EF0006#641510F00000930E
(1547755224.989045) can0 0CF00300#FF0024FF06FFFFFF
(1547755224.989617) can0 0CEFFF00#64062A7DFFFFFFFF
(1547755224.990164) can0 18EFFF00#64100101EF02057D
(1547755224.990739) can0 18FEF700#FFFFFFFFFFFFEE00
(1547755224.998395) can0 0DEF0603#0101FFFFFFFFFFF5
(1547755224.999040) can0 0CF00400#F0FF9B3A1DFFFFFF
(1547755224.999615) can0 04EF0006#641510F00000930E
(1547755225.000140) can0 18FEF147#FF0000FFFFFFFFFF
(1547755225.000743) can0 18F00503#FFFFFFFFFFFFFFFF
(1547755225.009070) can0 0CF00300#FF001EFF06FFFFFF
(1547755225.009692) can0 0CEFFF00#64061B7DFFFFFFFF
(1547755225.018295) can0 0DEF0647#0104FFFFFFFFFFF1
(1547755225.018917) can0 0DEF0603#0101FFFFFFFFFFF5
(1547755225.019487) can0 0CF00400#F0FF964C1DFFFFFF
(1547755225.020063) can0 04EF0006#641510F00000930E
(1547755225.029069) can0 0CF00300#FF001BFF06FFFFFF
(1547755225.029641) can0 0CEFFF00#6406137DFFFFFFFF
(1547755225.038669) can0 0DEF0603#0101FFFFFFFFFFF5
(1547755225.039214) can0 0CF00400#F0FF93541DFFFFFF
(1547755225.039890) can0 04EF0006#641510F00000930E
(1547755225.040416) can0 0CFE4947#FFFFFFFFFFFFFFFF
(1547755225.041065) can0 0CFFFF47#5DFFFFF3FFFFFFFF
(1547755225.041644) can0 0CFE4347#0000FFFF3FFFFFFF
(1547755225.042238) can0 0CFE4447#0000FFFF3FFFFFFF
(1547755225.048969) can0 0CF00300#FF0000FF06FFFFFF
(1547755225.049619) can0 0CEFFF00#64060C7DFFFFFFFF
(1547755225.050163) can0 18FEF200#1100FFFFFFFFFFFF
(1547755225.058668) can0 0DEF0603#0101FFFFFFFFFFF5
(1547755225.059240) can0 0CF00400#FEFF90501DFFFFFF
(1547755225.059865) can0 04EF0006#641510F00000930E
(1547755225.068995) can0 0CF00300#FF000FFF06FFFFFF
(1547755225.069566) can0 0CEFFF00#6406DB7CFFFFFFFF
(1547755225.070139) can0 18EF0600#640EF300FFFFFFFF
(1547755225.078668) can0 0DEF0603#0101FFFFFFFFFFF5
(1547755225.079238) can0 0CF00400#FEFF7D2C1DFFFFFF
(1547755225.079864) can0 04EF0006#641510F00000930E
(1547755225.080389) can0 0CFFFE06#5C271D271DFFFFFF
(1547755225.080963) can0 18FEF147#FF0000FFFFFFFFFF
(1547755225.081619) can0 18FFFB06#00058BF8FFFFFFFF
(1547755225.082214) can0 18F00503#7DFFFFFFFFFFFFFF
(1547755225.088993) can0 0CF00300#FF001CFF06FFFFFF
(1547755225.089617) can0 0CEFFF00#6406027DFFFFFFFF
(1547755225.090140) can0 18EFFF00#64100101EB02057D
(1547755225.090713) can0 18FED500#FFFFFDFFFFFFFFFF
(1547755225.098635) can0 0DEF0603#0101FFFFFFFFFFF5
(1547755225.099219) can0 0CF00400#FEFF8CD01CFFFFFF
(1547755225.099863) can0 04EF0006#641510F00000930E
(1547755225.109041) can0 0CF00300#FF0023FF06FFFFFF
(1547755225.109620) can0 0CEFFF00#6406157DFFFFFFFF
(1547755225.118343) can0 0DEF0647#0104FFFFFFFFFFF1
(1547755225.118966) can0 0DEF0603#0101FFFFFFFFFFF5
(1547755225.119512) can0 0CF00400#FEFF937C1CFFFFFF
(1547755225.120088) can0 04EF0006#641510F00000930E
(1547755225.120622) can0 18FFFF06#73FFFFFFFFFFFFFF
(1547755225.121593) can0 18EEFF47#4D74300400340220
(1547755225.122215) can0 18EEFF06#4D743004000E0020
(1547755225.122792) can0 18EEFF03#4D74300400030220
(1547755225.123337) can0 18EEFF17#0C6E240400130220
(1547755225.128965) can0 0CF00300#FF0025FF06FFFFFF
(1547755225.129617) can0 0CEFFF00#64061E7DFFFFFFFF
(1547755225.130165) can0 18FDB300#FFFF582AFFFFFFFF
(1547755225.138665) can0 0DEF0603#0101FFFFFFFFFFF5
(1547755225.139215) can0 0CF00400#F0FF97421CFFFFFF
(1547755225.139865) can0 04EF0006#641510F00000930E
(1547755225.149241) can0 0CF00300#FF0031FF06FFFFFF
(1547755225.149789) can0 0CEFFF00#64063A7DFFFFFFFF
(1547755225.150388) can0 18FEF200#2800FFFFFFFFFFFF
(1547755225.158666) can0 0DEF0603#0101FFFFFFFFFFF5
(1547755225.159239) can0 0CF00400#F0FFA2101CFFFFFF
(1547755225.159867) can0 04EF0006#641510F00000930E
(1547755225.160416) can0 0CFE4947#FFFFFFFFFFFFFFFF
(1547755225.161041) can0 1CFDDF47#FCFFFFFFFFFFFFFF
(1547755225.161616) can0 0CFE4347#0000FFFF3FFFFFFF
(1547755225.162215) can0 0CFE4447#0000FFFF3FFFFFFF
(1547755225.162735) can0 0CFFFE06#5C271D271DFFFFFF
(1547755225.168983) can0 0CF00300#FF0033FF06FFFFFF
(1547755225.169550) can0 0CEFFF00#6406407DFFFFFFFF
(1547755225.170128) can0 18EF0600#640EFD00FFFFFFFF
(1547755225.178624) can0 0DEF0603#0101FFFFFFFFFFF5
(1547755225.179195) can0 0CF00400#F0FFA3221CFFFFFF
(1547755225.179871) can0 04EF0006#641510F00000930E
(1547755225.189023) can0 0CF00300#FF002FFF06FFFFFF
(1547755225.189598) can0 0CEFFF00#64063C7DFFFFFFFF
(1547755225.190169) can0 18EFFF00#64100101DC02037D
(1547755225.190747) can0 18FEDF00#8B201CFFFFFFFFFF
(1547755225.198624) can0 0DEF0603#0101FFFFFFFFFFF5
(1547755225.199170) can0 0CF00400#F0FFA2521CFFFFFF
(1547755225.199805) can0 04EF0006#641510F00000930E
(1547755225.200420) can0 18FEF147#FF0000FFFFFFFFFF
(1547755225.201022) can0 18F00647#FFCFFFFFFFFFFFFF
(1547755225.201580) can0 18FFFB06#0005C0F8FFFFFFFF
(1547755225.202203) can0 18F00503#7DFFFFFFFFFFFFFF
(1547755225.208998) can0 0CF00300#FF002CFF06FFFFFF
(1547755225.209574) can0 0CEFFF00#6406357DFFFFFFFF
(1547755225.210145) can0 18FEEF00#FFFFFF63FFFFFFFA
(1547755225.218299) can0 0DEF0647#0104FFFFFFFFFFF1
(1547755225.218923) can0 0DEF0603#0101FFFFFFFFFFF5
(1547755225.219469) can0 0CF00400#F0FFA0741CFFFFFF
(1547755225.220021) can0 04EF0006#641510F00000930E
(1547755225.228999) can0 0CF00300#FF002AFF06FFFFFF
(1547755225.229573) can0 0CEFFF00#6406307DFFFFFFFF
(1547755225.238606) can0 0DEF0603#0101FFFFFFFFFFF5
(1547755225.239195) can0 0CF00400#F0FF9E921CFFFFFF
(1547755225.239846) can0 04EF0006#641511F0C718930E
(1547755225.240403) can0 0CFE4947#FFFFFFFFFFFFFFFF
(1547755225.241007) can0 0CFE4347#0000FFFF3FFFFFFF
(1547755225.241624) can0 0CFE4447#0000FFFF3FFFFFFF
(1547755225.249024) can0 0CF00300#FF0028FF06FFFFFF
(1547755225.249596) can0 0CEFFF00#64062B7DFFFFFFFF
(1547755225.250170) can0 18FEF200#2100FFFFFFFFFFFF
(1547755225.258623) can0 0DEF0603#0101FFFFFFFFFFF5
(1547755225.259170) can0 0CF00400#F0FF9CB01CFFFFFF
(1547755225.259821) can0 04EF0006#641512F07F18930E
(1547755225.269049) can0 0CF00300#FF0020FF06FFFFFF
(1547755225.269623) can0 0CEFFF00#6406277DFFFFFFFF
(1547755225.270194) can0 18EF0600#640E0700FFFFFFFF
(1547755225.278623) can0 0DEF0603#0101FFFFFFFFFFF5
(1547755225.279270) can0 0CF00400#F0FF9ABE1CFFFFFF
(1547755225.279821) can0 04EF0006#641513F03019930E
(1547755225.280378) can0 0CFFFE06#5C271D271DFFFFFF
(1547755225.280955) can0 18FEF147#FF0000FFFFFFFFFF
(1547755225.281575) can0 18F00503#7DFFFFFFFFFFFFFF
(1547755225.289007) can0 0CF00300#FF001FFF06FFFFFF
(1547755225.289599) can0 0CEFFF00#6406247DFFFFFFFF
(1547755225.290170) can0 18EFFF00#64100101E702057D
(1547755225.290730) can0 18FEF600#FF003CFF00FFFFFF
(1547755225.298623) can0 0DEF0603#0101FFFFFFFFFFF5
(1547755225.299195) can0 0CF00400#F0FF99C81CFFFFFF
(1547755225.299804) can0 04EF0006#641514F0E518930E
(1547755225.308305) can0 18EA4717#09FF00
(1547755225.308721) can0 18EA0617#09FF00
(1547755225.309295) can0 0CEFFF00#6406217DFFFFFFFF
(1547755225.309871) can0 0CF00300#FF001DFF06FFFFFF
(1547755225.310270) can0 18EA0317#09FF00
(1547755225.318325) can0 0DEF0647#0104FFFFFFFFFFF1
(1547755225.318897) can0 0DEF0603#0101FFFFFFFFFFF5
(1547755225.319470) can0 0CF00400#FEFF98DE1CFFFFFF
(1547755225.320021) can0 04EF0006#641515F0F218930E
(1547755225.320597) can0 18FF0947#434355FFFFFFFFFF
(1547755225.321196) can0 18FF0906#454943FFFFFFFFFF
(1547755225.321798) can0 18FF0903#505452FFFFFFFFFF
(1547755225.322395) can0 18FFFB06#0005A5F8FFFFFFFF
(1547755225.323005) can0 18FECA06#00FF00000000FFFF
(1547755225.324079) can0 18FECA47#00FF00000000FFFF
(1547755225.325280) can0 18FECA03#00FF00000000FFFF
(1547755225.328997) can0 0CF00300#FF000FFF06FFFFFF
(1547755225.329574) can0 0CEFFF00#6406DB7CFFFFFFFF
(1547755225.338624) can0 0DEF0603#0101FFFFFFFFFFF5
(1547755225.339195) can0 0CF00400#FEFF7DDC1CFFFFFF
(1547755225.339771) can0 18FFFA00#022C0000180C0081
(1547755225.340319) can0 04EF0006#641516F0EF18930E
(1547755225.349021) can0 0CF00300#FF001BFF06FFFFFF
(1547755225.349598) can0 0CEFFF00#64060A7DFFFFFFFF
(1547755225.350170) can0 18FEF200#1100FFFFFFFFFFFF
(1547755225.358608) can0 0DEF0603#0101FFFFFFFFFFF5
(1547755225.359195) can0 0CF00400#FEFF8F881CFFFFFF
(1547755225.359805) can0 04EF0006#641517F0EF18930E
(1547755225.360395) can0 0CFE4947#FFFFFFFFFFFFFFFF
(1547755225.360997) can0 0CFE4347#0000FFFF3FFFFFFF
(1547755225.361583) can0 0CFE4447#0000FFFF3FFFFFFF
(1547755225.362153) can0 0CFFFE06#5C271D271DFFFFFF
(1547755225.369072) can0 0CF00300#FF0025FF06FFFFFF
(1547755225.369648) can0 0CEFFF00#6406267DFFFFFFFF
(1547755225.370220) can0 18EF0600#640E1100FFFFFFFF
(1547755225.370797) can0 18FEF500#C8FFFFFFFF39FFFF
(1547755225.378607) can0 0DEF0603#0101FFFFFFFFFFF5
(1547755225.379195) can0 0CF00400#FEFF9A2E1CFFFFFF
(1547755225.379846) can0 04EF0006#641518F03019930E
(1547755225.389024) can0 0CF00300#FF0027FF06FFFFFF
(1547755225.389573) can0 0CEFFF00#6406337DFFFFFFFF
(1547755225.390128) can0 18EFFF00#64100101DB02057D
(1547755225.390705) can0 18FECA17#00FF00000000FFFF
(1547755225.398624) can0 0DEF0603#0101FFFFFFFFFFF5
(1547755225.399195) can0 0CF00400#F0FF9F0A1CFFFFFF
(1547755225.399847) can0 04EF0006#641519F01119930E
(1547755225.400421) can0 18FEF147#FF0000FFFFFFFFFF
(1547755225.401022) can0 18F00503#7DFFFFFFFFFFFFFF
(1547755225.408983) can0 0CF00300#FF0028FF06FFFFFF
(1547755225.409555) can0 0CEFFF00#6406387DFFFFFFFF
(1547755225.410120) can0 18FE6900#B8242C28FFFF60FE
(1547755225.418332) can0 0DEF0647#0104FFFFFFFFFFF1
(1547755225.418930) can0 0DEF0603#0101FFFFFFFFFFF5
(1547755225.419520) can0 0CF00400#F0FFA0F01BFFFFFF
(1547755225.420146) can0 04EF0006#64151AF00219930E
(1547755225.429023) can0 0CF00300#FF0029FF06FFFFFF
(1547755225.429599) can0 0CEFFF00#64063A7DFFFFFFFF
(1547755225.437874) can0 18EAFF06#E5FE00
(1547755225.438847) can0 0DEF0603#0101FFFFFFFFFFF5
(1547755225.439395) can0 0CF00400#F0FFA1FA1BFFFFFF
(1547755225.439972) can0 18FEDF00#8A201CFFFFFFFFFF
(1547755225.440520) can0 04EF0006#64151BF00F19930E
(1547755225.441097) can0 0CFE4947#FFFFFFFFFFFFFFFF
(1547755225.441674) can0 18FFFB06#0005B7F8FFFFFFFF
(1547755225.442253) can0 0CFE4347#0000FFFF3FFFFFFF
(1547755225.442830) can0 18FEE706#CC0A0000FFFFFFFF
(1547755225.443403) can0 0CFE4447#0000FFFF3FFFFFFF
(1547755225.444180) can0 18FEE500#CD0A0000FFFFFFFF
(1547755225.449047) can0 0CF00300#FF0027FF06FFFFFF
(1547755225.449622) can0 0CEFFF00#6406397DFFFFFFFF
(1547755225.450220) can0 18FEF200#2600FFFFFFFFFFFF
(1547755225.458773) can0 0DEF0603#0101FFFFFFFFFFF5
(1547755225.459345) can0 0CF00400#F0FFA1221CFFFFFF
(1547755225.460024) can0 04EF0006#64151CF00C19930E
(1547755225.468500) can0 1CFFFF17#22FFFF3CFFFFFFFF
(1547755225.469072) can0 0CF00300#FF0024FF06FFFFFF
(1547755225.469648) can0 0CEFFF00#6406327DFFFFFFFF
(1547755225.470203) can0 18EF0600#640E1B00FFFFFFFF
(1547755225.478757) can0 0DEF0603#0101FFFFFFFFFFF5
(1547755225.479320) can0 0CF00400#F0FF9E441CFFFFFF
(1547755225.479954) can0 04EF0006#64151DF00B19930E
(1547755225.480572) can0 0CFFFE06#5C271D271DFFFFFF
(1547755225.481120) can0 18FEF147#FF0000FFFFFFFFFF
(1547755225.481708) can0 18F00503#7DFFFFFFFFFFFFFF
(1547755225.489025) can0 0CF00300#FF0023FF06FFFFFF
(1547755225.489598) can0 0CEFFF00#64062E7DFFFFFFFF
(1547755225.490169) can0 18EFFF00#64100101DD02047D
(1547755225.498775) can0 0DEF0603#0101FFFFFFFFFFF5
(1547755225.499345) can0 0CF00400#F0FF9D601CFFFFFF
(1547755225.499971) can0 04EF0006#64151EF07319930E
(1547755225.509008) can0 0CF00300#FF0021FF06FFFFFF
(1547755225.509573) can0 0CEFFF00#64062A7DFFFFFFFF
(1547755225.518322) can0 0DEF0647#0104FFFFFFFFFFF1
(1547755225.518997) can0 0DEF0603#0101FFFFFFFFFFF5
(1547755225.519572) can0 0CF00400#F0FF9B7E1CFFFFFF
(1547755225.520195) can0 04EF0006#64151FF07319930E
(1547755225.528983) can0 0CF00300#FF001FFF06FFFFFF
(1547755225.529573) can0 0CEFFF00#6406267DFFFFFFFF
(1547755225.530128) can0 18FD7C00#F880F1F000CF03FD
(1547755225.538774) can0 0DEF0603#0101FFFFFFFFFFF5
(1547755225.539320) can0 0CF00400#F0FF9A8C1CFFFFFF
(1547755225.539955) can0 04EF0006#641510F02F19930E
(1547755225.549025) can0 0CF00300#FF001FFF06FFFFFF
(1547755225.549623) can0 0CEFFF00#6406237DFFFFFFFF
(1547755225.550195) can0 18FEF200#1E00FFFFFFFFFFFF
(1547755225.558750) can0 0DEF0603#0101FFFFFFFFFFF5
(1547755225.559295) can0 0CF00400#F0FF99921CFFFFFF
(1547755225.559972) can0 04EF0006#641511F03019930E
(1547755225.560572) can0 0CFE4947#FFFFFFFFFFFFFFFF
(1547755225.561121) can0 18FFFB06#0005AAF8FFFFFFFF
(1547755225.561709) can0 0CFFFF47#5DFFFFF3FFFFFFFF
(1547755225.562303) can0 0CFE4347#0000FFFF3FFFFFFF
(1547755225.562897) can0 0CFE4447#0000FFFF3FFFFFFF
(1547755225.563470) can0 0CFFFE06#5C271D271DFFFFFF
(1547755225.568958) can0 0CF00300#FF001EFF06FFFFFF
(1547755225.569555) can0 0CEFFF00#6406227DFFFFFFFF
(1547755225.570145) can0 18EF0600#640E2500FFFFFFFF
(1547755225.578794) can0 0DEF0603#0101FFFFFFFFFFF5
(1547755225.579366) can0 0CF00400#FEFF989E1CFFFFFF
(1547755225.580016) can0 04EF0006#641512F08C18930E
(1547755225.589070) can0 0CF00300#FF0015FF06FFFFFF
(1547755225.589643) can0 0CEFFF00#6406F37CFFFFFFFF
(1547755225.590214) can0 18EFFF00#64100101DC02057D
(1547755225.598790) can0 0DEF0603#0101FFFFFFFFFFF5
(1547755225.599366) can0 0CF00400#FEFF86A41CFFFFFF
(1547755225.600017) can0 04EF0006#641513F02D19930E
(1547755225.600568) can0 18FEF147#FF0000FFFFFFFFFF
(1547755225.601145) can0 18FFFB06#001BFFFFFFFFFFFF
(1547755225.601783) can0 18F00503#7DFFFFFFFFFFFFFF
(1547755225.609042) can0 0CF00300#FF001CFF06FFFFFF
(1547755225.609615) can0 0CEFFF00#64060F7DFFFFFFFF
(1547755225.618371) can0 0DEF0647#0104FFFFFFFFFFF1
(1547755225.618964) can0 0DEF0603#0101FFFFFFFFFFF5
(1547755225.619540) can0 0CF00400#FEFF916E1CFFFFFF
(1547755225.620140) can0 04EF0006#641514F03419930E
(1547755225.629043) can0 0CF00300#FF0022FF06FFFFFF
(1547755225.629617) can0 0CEFFF00#6406217DFFFFFFFF
(1547755225.630188) can0 18FDB300#FFFF642AFFFFFFFF
(1547755225.630765) can0 1CEFFF00#64070000FFFFFFFF
(1547755225.638747) can0 0DEF0603#0101FFFFFFFFFFF5
(1547755225.639322) can0 0CF00400#FEFF982A1CFFFFFF
(1547755225.640039) can0 04EF0006#641515F0C118930E
(1547755225.640616) can0 0CFE4947#FFFFFFFFFFFFFFFF
(1547755225.641192) can0 18FE6847#3DFFFFFFFFFFFFFF
(1547755225.641771) can0 0CFE4347#0000FFFF3FFFFFFF
(1547755225.642350) can0 18FFFF06#73FFFFFFFFFFFFFF
(1547755225.642941) can0 0CFE4447#0000FFFF3FFFFFFF
(1547755225.649068) can0 0CF00300#FF0025FF06FFFFFF
(1547755225.649626) can0 0CEFFF00#6406317DFFFFFFFF
(1547755225.650191) can0 18FEF200#2400FFFFFFFFFFFF
(1547755225.658772) can0 0DEF0603#0101FFFFFFFFFFF5
(1547755225.659372) can0 0CF00400#F0FF9E0E1CFFFFFF
(1547755225.660016) can0 04EF0006#641516F01119930E
(1547755225.669056) can0 0CF00300#FF0025FF06FFFFFF
(1547755225.669641) can0 0CEFFF00#6406317DFFFFFFFF
(1547755225.670177) can0 18EF0600#640E2F00FFFFFFFF
(1547755225.678828) can0 0DEF0603#0101FFFFFFFFFFF5
(1547755225.679398) can0 0CF00400#F0FF9E021CFFFFFF
(1547755225.680073) can0 04EF0006#641517F00219930E
(1547755225.680674) can0 0CFFFF47#5EFFFFFFFFFFFFFF
(1547755225.681250) can0 18FEF147#FF0000FFFFFFFFFF
(1547755225.681799) can0 0CFFFE06#5C271D271DFFFFFF
(1547755225.682374) can0 18FEFC47#FFFFFFFFFFFFFFFF
(1547755225.682977) can0 18EF0047#F220610FFFFFFFFF
(1547755225.683529) can0 18F00647#FFCFFFFFFFFFFFFF
(1547755225.684101) can0 1CFDDF47#FCFFFFFFFFFFFFFF
(1547755225.684749) can0 18FFFB06#0005B4F8FFFFFFFF
(1547755225.685376) can0 18F00503#7DFFFFFFFFFFFFFF
(1547755225.689098) can0 0CF00300#FF0026FF06FFFFFF
(1547755225.689680) can0 0CEFFF00#6406327DFFFFFFFF
(1547755225.690202) can0 18EFFF00#64100101D702057D
(1547755225.690758) can0 18FEDF00#8A201CFFFFFFFFFF
(1547755225.698806) can0 0DEF0603#0101FFFFFFFFFFF5
(1547755225.699403) can0 0CF00400#F0FF9E021CFFFFFF
(1547755225.700029) can0 04EF0006#641518F01319930E
(1547755225.709027) can0 0CF00300#FF0025FF06FFFFFF
(1547755225.709627) can0 0CEFFF00#6406327DFFFFFFFF
(1547755225.710174) can0 18FEEF00#FFFFFF63FFFFFFFA
(1547755225.718406) can0 0DEF0647#0104FFFFFFFFFFF1
(1547755225.719000) can0 0DEF0603#0101FFFFFFFFFFF5
(1547755225.719548) can0 0CF00400#F0FF9E1A1CFFFFFF
(1547755225.720223) can0 04EF0006#641519F01319930E
(1547755225.729103) can0 0CF00300#FF0023FF06FFFFFF
(1547755225.729676) can0 0CEFFF00#64062F7DFFFFFFFF
(1547755225.738783) can0 0DEF0603#0101FFFFFFFFFFF5
(1547755225.739407) can0 0CF00400#F0FF9D321CFFFFFF
(1547755225.740098) can0 04EF0006#64151AF00419930E
(1547755225.749033) can0 0CF00300#FF0022FF06FFFFFF
(1547755225.749652) can0 0CEFFF00#64062B7DFFFFFFFF
(1547755225.750248) can0 18FEF200#2000FFFFFFFFFFFF
(1547755225.758831) can0 0DEF0603#0101FFFFFFFFFFF5
(1547755225.759374) can0 0CF00400#F0FF9C3A1CFFFFFF
(1547755225.760024) can0 04EF0006#64151BF00719930E
(1547755225.760580) can0 0CFE4947#FFFFFFFFFFFFFFFF
(1547755225.761160) can0 0CFE4347#0000FFFF3FFFFFFF
(1547755225.761768) can0 0CFE4447#0000FFFF3FFFFFFF
(1547755225.762329) can0 0CFFFE06#5C271D271DFFFFFF
(1547755225.769158) can0 0CF00300#FF0022FF06FFFFFF
(1547755225.769775) can0 0CEFFF00#64062A7DFFFFFFFF
(1547755225.770327) can0 18EF0600#640E3900FFFFFFFF
(1547755225.778798) can0 0DEF0603#0101FFFFFFFFFFF5
(1547755225.779349) can0 0CF00400#F0FF9B4A1CFFFFFF
(1547755225.779977) can0 04EF0006#64151CF0CC18930E
(1547755225.789072) can0 0CF00300#FF0021FF06FFFFFF
(1547755225.789678) can0 0CEFFF00#6406287DFFFFFFFF
(1547755225.790224) can0 18EFFF00#64100101DC02057D
(1547755225.790825) can0 18FEF600#FF003CFF00FFFFFF
(1547755225.798803) can0 0DEF0603#0101FFFFFFFFFFF5
(1547755225.799378) can0 0CF00400#F0FF9B561CFFFFFF
(1547755225.800023) can0 04EF0006#64151DF00B19930E
(1547755225.800626) can0 18FEF147#FF0000FFFFFFFFFF
(1547755225.801153) can0 18FFFB06#0005ACF8FFFFFFFF
(1547755225.801781) can0 18F00503#7DFFFFFFFFFFFFFF
(1547755225.809310) can0 18EFFA00#6401FF0000FFFFFF
(1547755225.809927) can0 0CEFFF00#6406267DFFFFFFFF
(1547755225.810499) can0 0CF00300#FF0020FF06FFFFFF
(1547755225.818333) can0 0DEF0647#0104FFFFFFFFFFF1
(1547755225.818974) can0 0DEF0603#0101FFFFFFFFFFF5
(1547755225.819548) can0 0CF00400#F0FF9A561CFFFFFF
(1547755225.820174) can0 04EF0006#64151EF0C918930E
(1547755225.829078) can0 0CF00300#FF0020FF06FFFFFF
(1547755225.829652) can0 0CEFFF00#6406267DFFFFFFFF
(1547755225.838780) can0 0DEF0603#0101FFFFFFFFFFF5
(1547755225.839379) can0 0CF00400#F0FF9A5A1CFFFFFF
(1547755225.840026) can0 04EF0006#64151FF0C918930E
(1547755225.840580) can0 0CFE4947#FFFFFFFFFFFFFFFF
(1547755225.841160) can0 0CFE4347#0000FFFF3FFFFFFF
(1547755225.841761) can0 0CFE4447#0000FFFF3FFFFFFF
(1547755225.849099) can0 0CF00300#FF001FFF06FFFFFF
(1547755225.849682) can0 0CEFFF00#6406257DFFFFFFFF
(1547755225.850247) can0 18FEF200#1E00FFFFFFFFFFFF
(1547755225.858802) can0 0DEF0603#0101FFFFFFFFFFF5
(1547755225.859373) can0 0CF00400#F0FF99641CFFFFFF
(1547755225.860025) can0 04EF0006#641510F0C618930E
(1547755225.869076) can0 0CF00300#FF001FFF06FFFFFF
(1547755225.869655) can0 0CEFFF00#6406237DFFFFFFFF
(1547755225.870224) can0 18EF0600#640E4300FFFFFFFF
(1547755225.878782) can0 0DEF0603#0101FFFFFFFFFFF5
(1547755225.879379) can0 0CF00400#F0FF995E1CFFFFFF
(1547755225.880024) can0 04EF0006#641511F07319930E
(1547755225.880580) can0 0CFFFE06#5C271D271DFFFFFF
(1547755225.881134) can0 18FEF147#FF0000FFFFFFFFFF
(1547755225.881729) can0 18F00503#7DFFFFFFFFFFFFFF
(1547755225.889102) can0 0CF00300#FF001FFF06FFFFFF
(1547755225.889729) can0 0CEFFF00#6406237DFFFFFFFF
(1547755225.890269) can0 18EFFF00#64100101DE02057D
(1547755225.898781) can0 0DEF0603#0101FFFFFFFFFFF5
(1547755225.899380) can0 0CF00400#F0FF99561CFFFFFF
(1547755225.900023) can0 04EF0006#641512F0D018930E
(1547755225.909050) can0 0CF00300#FF001FFF06FFFFFF
(1547755225.909628) can0 0CEFFF00#6406247DFFFFFFFF
(1547755225.910199) can0 18FEEE00#5842FFFFFFFFFFFF
(1547755225.918331) can0 0DEF0647#0104FFFFFFFFFFF1
(1547755225.918975) can0 0DEF0603#0101FFFFFFFFFFF5
(1547755225.919547) can0 0CF00400#F0FF99501CFFFFFF
(1547755225.920101) can0 04EF0006#641513F0C918930E
(1547755225.920706) can0 18FFFB06#0005A7F8FFFFFFFF
(1547755225.929051) can0 0CF00300#FF0020FF06FFFFFF
(1547755225.929632) can0 0CEFFF00#6406247DFFFFFFFF
(1547755225.938827) can0 0DEF0603#0101FFFFFFFFFFF5
(1547755225.939398) can0 0CF00400#F0FF99461CFFFFFF
(1547755225.939974) can0 18FEDF00#8B201CFFFFFFFFFF
(1547755225.940524) can0 04EF0006#641514F0C918930E
(1547755225.941101) can0 0C000006#30FFFFFFF8FFFFFF
(1547755225.949124) can0 0CF00300#FF0020FF06FFFFFF
(1547755225.949701) can0 0CEFFF00#6406257DFFFFFFFF
(1547755225.950225) can0 18FEF200#1E00FFFFFFFFFFFF
(1547755225.958783) can0 0DEF0603#0101FFFFFFFFFFF5
(1547755225.959334) can0 0CF00400#F0FF99381CFFFFFF
(1547755225.960049) can0 04EF0006#641515F07319930E
(1547755225.960623) can0 0CFE4947#FFFFFFFFFFFFFFFF
(1547755225.961224) can0 0CFE4347#0000FFFF3FFFFFFF
(1547755225.961816) can0 0CFE4447#0000FFFF3FFFFFFF
(1547755225.962388) can0 0CFFFE06#5C271D271DFFFFFF
(1547755225.969066) can0 0CF00300#FF0021FF06FFFFFF
(1547755225.969640) can0 0CEFFF00#6406277DFFFFFFFF
(1547755225.970214) can0 18EF0600#640E4D00FFFFFFFF
(1547755225.978778) can0 0DEF0603#0101FFFFFFFFFFF5
(1547755225.979331) can0 0CF00400#F0FF9A401CFFFFFF
(1547755225.980018) can0 04EF0006#641516F0D018930E
(1547755225.989220) can0 0CF00300#FF0020FF06FFFFFF
(1547755225.989797) can0 0CEFFF00#6406257DFFFFFFFF
(1547755225.990368) can0 18EFFF00#64100101DB02057D
(1547755225.990944) can0 18FEF700#FFFFFFFFFFFFFA00
(1547755225.998819) can0 0DEF0603#0101FFFFFFFFFFF5
(1547755225.999395) can0 0CF00400#F0FF99461CFFFFFF
(1547755226.000021) can0 04EF0006#641517F07319930E
(1547755226.000618) can0 18FEF147#FF0000FFFFFFFFFF
(1547755226.001176) can0 18F00503#7DFFFFFFFFFFFFFF
(1547755226.009027) can0 0CF00300#FF0020FF06FFFFFF
(1547755226.009599) can0 0CEFFF00#6406247DFFFFFFFF
(1547755226.018377) can0 0DEF0647#0104FFFFFFFFFFF1
(1547755226.019043) can0 0DEF0603#0101FFFFFFFFFFF5
(1547755226.019578) can0 0CF00400#F0FF993C1CFFFFFF
(1547755226.020224) can0 04EF0006#641518F07319930E
(1547755226.029347) can0 0CF00300#FF0020FF06FFFFFF
(1547755226.029920) can0 0CEFFF00#6406267DFFFFFFFF
(1547755226.038822) can0 0DEF0603#0101FFFFFFFFFFF5
(1547755226.039393) can0 0CF00400#F0FF9A3C1CFFFFFF
(1547755226.040046) can0 04EF0006#641519F0D018930E
(1547755226.040619) can0 0CFE4947#FFFFFFFFFFFFFFFF
(1547755226.041193) can0 18FFFB06#0005A4F8FFFFFFFF
(1547755226.041800) can0 0CFFFF47#5DFFFFF3FFFFFFFF
(1547755226.042349) can0 0CFE4347#0000FFFF3FFFFFFF
(1547755226.042953) can0 0CFE4447#0000FFFF3FFFFFFF
(1547755226.049051) can0 0CF00300#FF0020FF06FFFFFF
(1547755226.049598) can0 0CEFFF00#6406257DFFFFFFFF
(1547755226.050203) can0 18FEF200#1E00FFFFFFFFFFFF
(1547755226.058791) can0 0DEF0603#0101FFFFFFFFFFF5
(1547755226.059366) can0 0CF00400#F0FF99401CFFFFFF
(1547755226.060020) can0 04EF0006#64151AF0CC18930E
(1547755226.069117) can0 0CF00300#FF0020FF06FFFFFF
(1547755226.069694) can0 0CEFFF00#6406257DFFFFFFFF
(1547755226.070265) can0 18EF0600#640E5700FFFFFFFF
(1547755226.078823) can0 0DEF0603#0101FFFFFFFFFFF5
(1547755226.079392) can0 0CF00400#F0FF99361CFFFFFF
(1547755226.080018) can0 04EF0006#64151BF07319930E
(1547755226.080576) can0 0CFFFE06#5C271D271DFFFFFF
(1547755226.081131) can0 18FEF147#FF0000FFFFFFFFFF
(1547755226.081769) can0 18F00503#7DFFFFFFFFFFFFFF
(1547755226.089031) can0 0CF00300#FF0021FF06FFFFFF
(1547755226.089643) can0 0CEFFF00#6406267DFFFFFFFF
(1547755226.090175) can0 18EFFF00#64100101D902057D
(1547755226.090744) can0 18FED500#FFFFFDFFFFFFFFFF
(1547755226.098792) can0 0DEF0603#0101FFFFFFFFFFF5
(1547755226.099344) can0 0CF00400#F0FF9A341CFFFFFF
(1547755226.099990) can0 04EF0006#64151CF00719930E
(1547755226.108994) can0 0CF00300#FF0020FF06FFFFFF
(1547755226.109621) can0 0CEFFF00#6406267DFFFFFFFF
(1547755226.118342) can0 0DEF0647#0104FFFFFFFFFFF1
(1547755226.118995) can0 0DEF0603#0101FFFFFFFFFFF5
(1547755226.119544) can0 0CF00400#F0FF9A3C1CFFFFFF
(1547755226.120169) can0 04EF0006#64151DF00719930E
(1547755226.120721) can0 18FFFF06#73FFFFFFFFFFFFFF
(1547755226.129032) can0 0CF00300#FF001FFF06FFFFFF
(1547755226.129645) can0 0CEFFF00#6406257DFFFFFFFF
(1547755226.130151) can0 18FDB300#FFFF642AFFFFFFFF
(1547755226.138780) can0 0DEF0603#0101FFFFFFFFFFF5
(1547755226.139348) can0 0CF00400#F0FF993C1CFFFFFF
(1547755226.139989) can0 04EF0006#64151EF0CC18930E
(1547755226.148523) can0 1CFFFF17#22FFFF3CFFFFFFFF
(1547755226.149094) can0 0CF00300#FF0020FF06FFFFFF
(1547755226.149671) can0 0CEFFF00#6406247DFFFFFFFF
(1547755226.150198) can0 18FEF200#1E00FFFFFFFFFFFF
(1547755226.158825) can0 0DEF0603#0101FFFFFFFFFFF5
(1547755226.159393) can0 0CF00400#F0FF99341CFFFFFF
(1547755226.160045) can0 04EF0006#64151FF0CC18930E
(1547755226.160618) can0 0CFE4947#FFFFFFFFFFFFFFFF
(1547755226.161153) can0 1CFDDF47#FCFFFFFFFFFFFFFF
(1547755226.161754) can0 0CFE4347#0000FFFF3FFFFFFF
(1547755226.162333) can0 18FFFB06#0005A4F8FFFFFFFF
(1547755226.162945) can0 0CFE4447#0000FFFF3FFFFFFF
(1547755226.163518) can0 0CFFFE06#5C271D271DFFFFFF
(1547755226.169080) can0 0CF00300#FF0020FF06FFFFFF
(1547755226.169695) can0 0CEFFF00#6406257DFFFFFFFF
(1547755226.170267) can0 18EF0600#640E6100FFFFFFFF
(1547755226.178793) can0 0DEF0603#0101FFFFFFFFFFF5
(1547755226.179331) can0 0CF00400#F0FF99321CFFFFFF
(1547755226.179982) can0 04EF0006#641510F00719930E
(1547755226.188995) can0 0CF00300#FF0020FF06FFFFFF
(1547755226.189582) can0 0CEFFF00#6406257DFFFFFFFF
(1547755226.190155) can0 18EFFF00#64100101D902057D
(1547755226.190727) can0 18FEDF00#8B201CFFFFFFFFFF
(1547755226.198783) can0 0DEF0603#0101FFFFFFFFFFF5
(1547755226.199356) can0 0CF00400#F0FF99301CFFFFFF
(1547755226.199992) can0 04EF0006#641511F00719930E
(1547755226.200583) can0 18FEF147#FF0000FFFFFFFFFF
(1547755226.201184) can0 18F00647#FFCFFFFFFFFFFFFF
(1547755226.201768) can0 18F00503#7DFFFFFFFFFFFFFF
(1547755226.209143) can0 0CF00300#FF0020FF06FFFFFF
(1547755226.209732) can0 0CEFFF00#6406257DFFFFFFFF
(1547755226.210306) can0 18FEEF00#FFFFFF63FFFFFFFA
(1547755226.218320) can0 0DEF0647#0104FFFFFFFFFFF1
(1547755226.218958) can0 0DEF0603#0101FFFFFFFFFFF5
(1547755226.219490) can0 0CF00400#F0FF99201CFFFFFF
(1547755226.220117) can0 04EF0006#641512F00719930E
(1547755226.229035) can0 0CF00300#FF0021FF06FFFFFF
(1547755226.229609) can0 0CEFFF00#6406287DFFFFFFFF
(1547755226.238786) can0 0DEF0603#0101FFFFFFFFFFF5
(1547755226.239356) can0 0CF00400#F0FF9B221CFFFFFF
(1547755226.240007) can0 04EF0006#641513F00B19930E
(1547755226.240583) can0 0CFE4947#FFFFFFFFFFFFFFFF
(1547755226.241182) can0 0CFE4347#0000FFFF3FFFFFFF
(1547755226.241784) can0 0CFE4447#0000FFFF3FFFFFFF
(1547755226.249044) can0 0CF00300#FF0021FF06FFFFFF
(1547755226.249622) can0 0CEFFF00#6406277DFFFFFFFF
(1547755226.250221) can0 18FEF200#1F00FFFFFFFFFFFF
(1547755226.258776) can0 0DEF0603#0101FFFFFFFFFFF5
(1547755226.259346) can0 0CF00400#F0FF9A281CFFFFFF
(1547755226.259997) can0 04EF0006#641514F00B19930E
(1547755226.269076) can0 0CF00300#FF0020FF06FFFFFF
(1547755226.269649) can0 0CEFFF00#6406267DFFFFFFFF
(1547755226.270220) can0 18EF0600#640E6B00FFFFFFFF
(1547755226.278777) can0 0DEF0603#0101FFFFFFFFFFF5
(1547755226.279345) can0 0CF00400#F0FF9A221CFFFFFF
(1547755226.279997) can0 04EF0006#641515F01119930E
(1547755226.280556) can0 0CFFFE06#5C271D271DFFFFFF
(1547755226.281104) can0 18FEF147#FF0000FFFFFFFFFF
(1547755226.281733) can0 18FFFB06#0005A7F8FFFFFFFF
(1547755226.282329) can0 18F00503#7DFFFFFFFFFFFFFF
(1547755226.289048) can0 0CF00300#FF0021FF06FFFFFF
(1547755226.289625) can0 0CEFFF00#6406277DFFFFFFFF
(1547755226.290171) can0 18EFFF00#64100101D702057D
(1547755226.290748) can0 18FEF600#FF003BFF00FFFFFF
(1547755226.298776) can0 0DEF0603#0101FFFFFFFFFFF5
(1547755226.299346) can0 0CF00400#F0FF9A1C1CFFFFFF
(1547755226.299997) can0 04EF0006#641516F00B19930E
(1547755226.308988) can0 0CF00300#FF0021FF06FFFFFF
(1547755226.309571) can0 0CEFFF00#6406297DFFFFFFFF
(1547755226.318347) can0 0DEF0647#0104FFFFFFFFFFF1
(1547755226.318961) can0 0DEF0603#0101FFFFFFFFFFF5
(1547755226.319533) can0 0CF00400#F0FF9B1A1CFFFFFF
(1547755226.320185) can0 04EF0006#641517F00419930E
(1547755226.329022) can0 0CF00300#FF0022FF06FFFFFF
(1547755226.329610) can0 0CEFFF00#6406297DFFFFFFFF
(1547755226.338813) can0 0DEF0603#0101FFFFFFFFFFF5
(1547755226.339383) can0 0CF00400#F0FF9B141CFFFFFF
(1547755226.339960) can0 18FFFA00#022C0000180C0081
(1547755226.340492) can0 04EF0006#641518F00419930E
(1547755226.349048) can0 0CF00300#FF0022FF06FFFFFF
(1547755226.349661) can0 0CEFFF00#64062A7DFFFFFFFF
(1547755226.350233) can0 18FEF200#2000FFFFFFFFFFFF
(1547755226.358797) can0 0DEF0603#0101FFFFFFFFFFF5
(1547755226.359358) can0 0CF00400#F0FF9B0A1CFFFFFF
(1547755226.360043) can0 04EF0006#641519F00919930E
(1547755226.360635) can0 0CFE4947#FFFFFFFFFFFFFFFF
(1547755226.361209) can0 0CFE4347#0000FFFF3FFFFFFF
(1547755226.361812) can0 0CFE4447#0000FFFF3FFFFFFF
(1547755226.362391) can0 0CFFFE06#5C271D271DFFFFFF
(1547755226.369046) can0 0CF00300#FF0022FF06FFFFFF
(1547755226.369611) can0 0CEFFF00#64062B7DFFFFFFFF
(1547755226.370191) can0 18EF0600#640E7500FFFFFFFF
(1547755226.370769) can0 18FEF500#C8FFFFFFFF39FFFF
(1547755226.378797) can0 0DEF0603#0101FFFFFFFFFFF5
(1547755226.379358) can0 0CF00400#F0FF9B101CFFFFFF
(1547755226.380034) can0 04EF0006#64151AF00219930E
(1547755226.389164) can0 0CF00300#FF0022FF06FFFFFF
(1547755226.389736) can0 0CEFFF00#64062B7DFFFFFFFF
(1547755226.390308) can0 18EFFF00#64100101D602057D
(1547755226.398814) can0 0DEF0603#0101FFFFFFFFFFF5
(1547755226.399360) can0 0CF00400#F0FF9B161CFFFFFF
(1547755226.400059) can0 04EF0006#64151BF00919930E
(1547755226.400636) can0 18FEF147#FF0000FFFFFFFFFF
(1547755226.401233) can0 18FFFB06#0005A9F8FFFFFFFF
(1547755226.401820) can0 18F00503#7DFFFFFFFFFFFFFF
(1547755226.409022) can0 0CF00300#FF0022FF06FFFFFF
(1547755226.409611) can0 0CEFFF00#64062A7DFFFFFFFF
(1547755226.410182) can0 18FE6900#9A242E28FFFF60FE
(1547755226.418373) can0 0DEF0647#0104FFFFFFFFFFF1
(1547755226.418968) can0 0DEF0603#0101FFFFFFFFFFF5
(1547755226.419585) can0 0CF00400#F0FF9B0C1CFFFFFF
(1547755226.420191) can0 04EF0006#64151CF00919930E
(1547755226.429286) can0 0CF00300#FF0022FF06FFFFFF
(1547755226.429860) can0 0CEFFF00#64062B7DFFFFFFFF
(1547755226.438813) can0 0DEF0603#0101FFFFFFFFFFF5
(1547755226.439383) can0 0CF00400#F0FF9B0E1CFFFFFF
(1547755226.439960) can0 18FEDF00#8A201CFFFFFFFFFF
(1547755226.440508) can0 04EF0006#64151DF00219930E
(1547755226.441086) can0 0CFE4947#FFFFFFFFFFFFFFFF
(1547755226.441687) can0 0CFE4347#0000FFFF3FFFFFFF
(1547755226.442267) can0 0CFE4447#0000FFFF3FFFFFFF
(1547755226.449044) can0 0CF00300#FF0022FF06FFFFFF
(1547755226.449580) can0 0CEFFF00#64062B7DFFFFFFFF
(1547755226.450192) can0 18FEF200#2000FFFFFFFFFFFF
(1547755226.457885) can0 18EAFF06#E5FE00
(1547755226.458885) can0 0DEF0603#0101FFFFFFFFFFF5
(1547755226.459433) can0 0CF00400#F0FF9B101CFFFFFF
(1547755226.460135) can0 04EF0006#64151EF00219930E
(1547755226.469088) can0 0CF00300#FF0022FF06FFFFFF
(1547755226.469661) can0 0CEFFF00#64062B7DFFFFFFFF
(1547755226.470233) can0 18EF0600#640E7F00FFFFFFFF
(1547755226.478814) can0 0DEF0603#0101FFFFFFFFFFF5
(1547755226.479358) can0 0CF00400#F0FF9B0A1CFFFFFF
(1547755226.480060) can0 04EF0006#64151FF00919930E
(1547755226.480610) can0 0CFFFE06#5C271D271DFFFFFF
(1547755226.481184) can0 18FEF147#FF0000FFFFFFFFFF
(1547755226.481769) can0 18FEE706#CC0A0000FFFFFFFF
(1547755226.482367) can0 18F00503#7DFFFFFFFFFFFFFF
(1547755226.489038) can0 0CF00300#FF0023FF06FFFFFF
(1547755226.489611) can0 0CEFFF00#64062C7DFFFFFFFF
(1547755226.490183) can0 18EFFF00#64100101D602057D
(1547755226.491835) can0 18FEE500#CD0A0000FFFFFFFF
(1547755226.498813) can0 0DEF0603#0101FFFFFFFFFFF5
(1547755226.499383) can0 0CF00400#F0FF9C081CFFFFFF
(1547755226.500060) can0 04EF0006#641510F00219930E
(1547755226.509013) can0 0CF00300#FF0023FF06FFFFFF
(1547755226.509570) can0 0CEFFF00#64062C7DFFFFFFFF
(1547755226.518363) can0 0DEF0647#0104FFFFFFFFFFF1
(1547755226.519036) can0 0DEF0603#0101FFFFFFFFFFF5
(1547755226.519609) can0 0CF00400#F0FF9C101CFFFFFF
(1547755226.520283) can0 04EF0006#641511F00219930E
(1547755226.520843) can0 18FFFB06#0005AFF8FFFFFFFF
(1547755226.529056) can0 0CF00300#FF0022FF06FFFFFF
(1547755226.529677) can0 0CEFFF00#64062C7DFFFFFFFF
(1547755226.530202) can0 18FD7C00#F880F1F000CF03FD
(1547755226.538807) can0 0DEF0603#0101FFFFFFFFFFF5
(1547755226.539384) can0 0CF00400#F0FF9C121CFFFFFF
(1547755226.540070) can0 04EF0006#641512F00919930E
(1547755226.549075) can0 0CF00300#FF0023FF06FFFFFF
(1547755226.549678) can0 0CEFFF00#64062B7DFFFFFFFF
(1547755226.550251) can0 18FEF200#2000FFFFFFFFFFFF
(1547755226.558853) can0 0DEF0603#0101FFFFFFFFFFF5
(1547755226.559398) can0 0CF00400#F0FF9B0A1CFFFFFF
(1547755226.560104) can0 04EF0006#641513F00919930E
(1547755226.560677) can0 0CFE4947#FFFFFFFFFFFFFFFF
(1547755226.561250) can0 0CFFFF47#5DFFFFF3FFFFFFFF
(1547755226.561850) can0 0CFE4347#0000FFFF3FFFFFFF
(1547755226.562404) can0 0CFE4447#0000FFFF3FFFFFFF
(1547755226.563006) can0 0CFFFE06#5C271D271DFFFFFF
(1547755226.569150) can0 0CF00300#FF0023FF06FFFFFF
(1547755226.569731) can0 0CEFFF00#64062D7DFFFFFFFF
(1547755226.570300) can0 18EF0600#640E8900FFFFFFFF
(1547755226.578806) can0 0DEF0603#0101FFFFFFFFFFF5
(1547755226.579404) can0 0CF00400#F0FF9C0C1CFFFFFF
(1547755226.580101) can0 04EF0006#641514F00219930E
(1547755226.589126) can0 0CF00300#FF0023FF06FFFFFF
(1547755226.589680) can0 0CEFFF00#64062D7DFFFFFFFF
(1547755226.590249) can0 18EFFF00#64100101D602057D
(1547755226.598852) can0 0DEF0603#0101FFFFFFFFFFF5
(1547755226.599424) can0 0CF00400#F0FF9C0A1CFFFFFF
(1547755226.600099) can0 04EF0006#641515F00219930E
(1547755226.600675) can0 18FEF147#FF0000FFFFFFFFFF
(1547755226.601274) can0 18FFFB06#001BFFFFFFFFFFFF
(1547755226.601852) can0 18F00503#7DFFFFFFFFFFFFFF
(1547755226.609155) can0 0CF00300#FF0023FF06FFFFFF
(1547755226.609779) can0 0CEFFF00#64062D7DFFFFFFFF
(1547755226.618353) can0 0DEF0647#0104FFFFFFFFFFF1
(1547755226.618976) can0 0DEF0603#0101FFFFFFFFFFF5
(1547755226.619627) can0 0CF00400#F0FF9CFE1BFFFFFF
(1547755226.620227) can0 04EF0006#641516F00219930E
(1547755226.629074) can0 0CF00300#FF0024FF06FFFFFF
(1547755226.629657) can0 0CEFFF00#64062F7DFFFFFFFF
(1547755226.630225) can0 18FDB300#FFFF642AFFFFFFFF
(1547755226.630799) can0 1CEFFF00#64070000FFFFFFFF
(1547755226.638854) can0 0DEF0603#0101FFFFFFFFFFF5
(1547755226.639424) can0 0CF00400#F0FF9D061CFFFFFF
(1547755226.640080) can0 04EF0006#641517F00C19930E
(1547755226.640676) can0 0CFE4947#FFFFFFFFFFFFFFFF
(1547755226.641278) can0 18FE6847#3DFFFFFFFFFFFFFF
(1547755226.641805) can0 0CFE4347#0000FFFF3FFFFFFF
(1547755226.642384) can0 18FFFF06#73FFFFFFFFFFFFFF
(1547755226.643025) can0 0CFE4447#0000FFFF3FFFFFFF
(1547755226.643625) can0 18FFFB06#0005AFF8FFFFFFFF
(1547755226.649103) can0 0CF00300#FF0023FF06FFFFFF
(1547755226.649683) can0 0CEFFF00#64062E7DFFFFFFFF
(1547755226.650261) can0 18FEF200#2100FFFFFFFFFFFF
(1547755226.658855) can0 0DEF0603#0101FFFFFFFFFFF5
(1547755226.659386) can0 0CF00400#F0FF9D101CFFFFFF
(1547755226.660101) can0 04EF0006#641518F01319930E
(1547755226.669074) can0 0CF00300#FF0023FF06FFFFFF
(1547755226.669652) can0 0CEFFF00#64062D7DFFFFFFFF
(1547755226.670226) can0 18EF0600#640E9300FFFFFFFF
(1547755226.678854) can0 0DEF0603#0101FFFFFFFFFFF5
(1547755226.679426) can0 0CF00400#F0FF9C0E1CFFFFFF
(1547755226.680098) can0 04EF0006#641519F00919930E
(1547755226.680678) can0 0CFFFF47#5EFFFFFFFFFFFFFF
(1547755226.681249) can0 18FEF147#FF0000FFFFFFFFFF
(1547755226.681756) can0 0CFFFE06#5C271D271DFFFFFF
(1547755226.682352) can0 18FEFC47#FFFFFFFFFFFFFFFF
(1547755226.682930) can0 18EF0047#F220610FFFFFFFFF
(1547755226.683624) can0 18F00647#FFCFFFFFFFFFFFFF
(1547755226.684175) can0 1CFDDF47#FCFFFFFFFFFFFFFF
(1547755226.684775) can0 18F00503#7DFFFFFFFFFFFFFF
(1547755226.689178) can0 0CF00300#FF0023FF06FFFFFF
(1547755226.689751) can0 0CEFFF00#64062D7DFFFFFFFF
(1547755226.690323) can0 18EFFF00#64100101D602057D
(1547755226.690899) can0 18FEDF00#8A201CFFFFFFFFFF
(1547755226.698849) can0 0DEF0603#0101FFFFFFFFFFF5
(1547755226.699424) can0 0CF00400#F0FF9C0A1CFFFFFF
(1547755226.700055) can0 04EF0006#64151AF00219930E
(1547755226.709074) can0 0CF00300#FF0023FF06FFFFFF
(1547755226.709649) can0 0CEFFF00#64062E7DFFFFFFFF
(1547755226.710249) can0 18FEEF00#FFFFFF63FFFFFFFA
(1547755226.718426) can0 0DEF0647#0104FFFFFFFFFFF1
(1547755226.719025) can0 0DEF0603#0101FFFFFFFFFFF5
(1547755226.719575) can0 0CF00400#F0FF9D0A1CFFFFFF
(1547755226.720250) can0 04EF0006#64151BF00219930E
(1547755226.729074) can0 0CF00300#FF0024FF06FFFFFF
(1547755226.729677) can0 0CEFFF00#64062E7DFFFFFFFF
(1547755226.738806) can0 0DEF0603#0101FFFFFFFFFFF5
(1547755226.739428) can0 0CF00400#F0FF9D041CFFFFFF
(1547755226.740101) can0 04EF0006#64151CF00219930E
(1547755226.749081) can0 0CF00300#FF0024FF06FFFFFF
(1547755226.749704) can0 0CEFFF00#64062F7DFFFFFFFF
(1547755226.750273) can0 18FEF200#2100FFFFFFFFFFFF
(1547755226.758852) can0 0DEF0603#0101FFFFFFFFFFF5
(1547755226.759423) can0 0CF00400#F0FF9DFA1BFFFFFF
(1547755226.760125) can0 04EF0006#64151DF01319930E
(1547755226.760625) can0 0CFE4947#FFFFFFFFFFFFFFFF
(1547755226.761227) can0 18FFFB06#0005B1F8FFFFFFFF
(1547755226.761854) can0 0CFE4347#0000FFFF3FFFFFFF
(1547755226.762405) can0 0CFE4447#0000FFFF3FFFFFFF
(1547755226.762976) can0 0CFFFE06#5C271D271DFFFFFF
(1547755226.769044) can0 0CF00300#FF0025FF06FFFFFF
(1547755226.769622) can0 0CEFFF00#6406307DFFFFFFFF
(1547755226.770216) can0 18EF0600#640E9D00FFFFFFFF
(1547755226.778801) can0 0DEF0603#0101FFFFFFFFFFF5
(1547755226.779377) can0 0CF00400#F0FF9D001CFFFFFF
(1547755226.780060) can0 04EF0006#64151EF00C19930E
(1547755226.789161) can0 0CF00300#FF0024FF06FFFFFF
(1547755226.789768) can0 0CEFFF00#6406307DFFFFFFFF
(1547755226.790339) can0 18EFFF00#64100101D602057D
(1547755226.790940) can0 18FEF600#FF003BFF00FFFFFF
(1547755226.798847) can0 0DEF0603#0101FFFFFFFFFFF5
(1547755226.799416) can0 0CF00400#F0FF9D0A1CFFFFFF
(1547755226.800093) can0 04EF0006#64151FF01319930E
(1547755226.800670) can0 18FEF147#FF0000FFFFFFFFFF
(1547755226.801215) can0 18F00503#7DFFFFFFFFFFFFFF
(1547755226.808470) can0 1CFFFF17#22FFFF3CFFFFFFFF
(1547755226.809045) can0 18EFFA00#6401FF0000FFFFFF
(1547755226.809668) can0 0CEFFF00#64062F7DFFFFFFFF
(1547755226.810240) can0 0CF00300#FF0024FF06FFFFFF
(1547755226.818422) can0 0DEF0647#0104FFFFFFFFFFF1
(1547755226.819018) can0 0DEF0603#0101FFFFFFFFFFF5
(1547755226.819616) can0 0CF00400#F0FF9D021CFFFFFF
(1547755226.820238) can0 04EF0006#641510F00219930E
(1547755226.829171) can0 0CF00300#FF0024FF06FFFFFF
(1547755226.829748) can0 0CEFFF00#6406307DFFFFFFFF
(1547755226.838823) can0 0DEF0603#0101FFFFFFFFFFF5
(1547755226.839420) can0 0CF00400#F0FF9D041CFFFFFF
(1547755226.840116) can0 04EF0006#641511F01319930E
(1547755226.840644) can0 0CFE4947#FFFFFFFFFFFFFFFF
(1547755226.841215) can0 0CFE4347#0000FFFF3FFFFFFF
(1547755226.841868) can0 0CFE4447#0000FFFF3FFFFFFF
(1547755226.849072) can0 0CF00300#FF0024FF06FFFFFF
(1547755226.849619) can0 0CEFFF00#6406307DFFFFFFFF
(1547755226.850233) can0 18FEF200#2300FFFFFFFFFFFF
(1547755226.858814) can0 0DEF0603#0101FFFFFFFFFFF5
(1547755226.859390) can0 0CF00400#F0FF9D081CFFFFFF
(1547755226.860050) can0 04EF0006#641512F01319930E
(1547755226.869164) can0 0CF00300#FF0024FF06FFFFFF
(1547755226.869769) can0 0CEFFF00#6406307DFFFFFFFF
(1547755226.870339) can0 18EF0600#640EA700FFFFFFFF
(1547755226.878848) can0 0DEF0603#0101FFFFFFFFFFF5
(1547755226.879416) can0 0CF00400#F0FF9D041CFFFFFF
(1547755226.880092) can0 04EF0006#641513F00219930E
(1547755226.880665) can0 0CFFFE06#5C271D271DFFFFFF
(1547755226.881242) can0 18FEF147#FF0000FFFFFFFFFF
(1547755226.881794) can0 18FFFB06#0005B2F8FFFFFFFF
(1547755226.882397) can0 18F00503#7DFFFFFFFFFFFFFF
(1547755226.889071) can0 0CF00300#FF0025FF06FFFFFF
(1547755226.889695) can0 0CEFFF00#6406307DFFFFFFFF
(1547755226.890216) can0 18EFFF00#64100101D602057D
(1547755226.898825) can0 0DEF0603#0101FFFFFFFFFFF5
(1547755226.899420) can0 0CF00400#F0FF9D041CFFFFFF
(1547755226.900090) can0 04EF0006#641514F01319930E
(1547755226.909024) can0 0CF00300#FF0024FF06FFFFFF
(1547755226.909643) can0 0CEFFF00#6406317DFFFFFFFF
(1547755226.910214) can0 18FEEE00#5842FFFFFFFFFFFF
(1547755226.918374) can0 0DEF0647#0104FFFFFFFFFFF1
(1547755226.919015) can0 0DEF0603#0101FFFFFFFFFFF5
(1547755226.919616) can0 0CF00400#F0FF9E121CFFFFFF
(1547755226.920166) can0 04EF0006#641515F01319930E
(1547755226.929115) can0 0CF00300#FF0023FF06FFFFFF
(1547755226.929696) can0 0CEFFF00#64062F7DFFFFFFFF
(1547755226.938872) can0 0DEF0603#0101FFFFFFFFFFF5
(1547755226.939439) can0 0CF00400#F0FF9D1C1CFFFFFF
(1547755226.940017) can0 18FEDF00#8A201CFFFFFFFFFF
(1547755226.940539) can0 04EF0006#641516F00919930E
(1547755226.941110) can0 0C000006#30FFFFFFF8FFFFFF
(1547755226.949092) can0 0CF00300#FF0023FF06FFFFFF
(1547755226.949667) can0 0CEFFF00#64062E7DFFFFFFFF
(1547755226.950193) can0 18FEF200#2100FFFFFFFFFFFF
(1547755226.958819) can0 0DEF0603#0101FFFFFFFFFFF5
(1547755226.959372) can0 0CF00400#F0FF9D1C1CFFFFFF
(1547755226.960092) can0 04EF0006#641517F00419930E
(1547755226.960665) can0 0CFE4947#FFFFFFFFFFFFFFFF
(1547755226.961265) can0 0CFE4347#0000FFFF3FFFFFFF
(1547755226.961867) can0 0CFE4447#0000FFFF3FFFFFFF
(1547755226.962464) can0 0CFFFE06#5C271D271DFFFFFF
(1547755226.969246) can0 0CF00300#FF0023FF06FFFFFF
(1547755226.969817) can0 0CEFFF00#64062E7DFFFFFFFF
(1547755226.970391) can0 18EF0600#640EB100FFFFFFFF
(1547755226.978798) can0 0DEF0603#0101FFFFFFFFFFF5
(1547755226.979372) can0 0CF00400#F0FF9D241CFFFFFF
(1547755226.980091) can0 04EF0006#641518F00419930E
(1547755226.989073) can0 0CF00300#FF0023FF06FFFFFF
(1547755226.989669) can0 0CEFFF00#64062C7DFFFFFFFF
(1547755226.990241) can0 18EFFF00#64100101D802057D
(1547755226.990816) can0 18FEF700#FFFFFFFFFFFF1801
(1547755226.998846) can0 0DEF0603#0101FFFFFFFFFFF5
(1547755226.999416) can0 0CF00400#F0FF9C281CFFFFFF
(1547755227.000068) can0 04EF0006#641519F00B19930E
(1547755227.000641) can0 18FEF147#FF0000FFFFFFFFFF
(1547755227.001192) can0 18FFFB06#0005B2F8FFFFFFFF
(1547755227.001795) can0 18F00503#7DFFFFFFFFFFFFFF
(1547755227.009323) can0 0CF00300#FF0023FF06FFFFFF
(1547755227.009915) can0 0CEFFF00#64062B7DFFFFFFFF
(1547755227.018397) can0 0DEF0647#0104FFFFFFFFFFF1
(1547755227.019066) can0 0DEF0603#0101FFFFFFFFFFF5
(1547755227.019642) can0 0CF00400#F0FF9C221CFFFFFF
(1547755227.020264) can0 04EF0006#64151AF01119930E
(1547755227.029120) can0 0CF00300#FF0023FF06FFFFFF
(1547755227.029692) can0 0CEFFF00#64062C7DFFFFFFFF
(1547755227.038848) can0 0DEF0603#0101FFFFFFFFFFF5
(1547755227.039416) can0 0CF00400#F0FF9C281CFFFFFF
(1547755227.040066) can0 04EF0006#64151BF00B19930E
(1547755227.040590) can0 0CFE4947#FFFFFFFFFFFFFFFF
(1547755227.041196) can0 0CFFFF47#5DFFFFF3FFFFFFFF
(1547755227.041819) can0 0CFE4347#0000FFFF3FFFFFFF
(1547755227.042442) can0 0CFE4447#0000FFFF3FFFFFFF
(1547755227.049115) can0 0CF00300#FF0022FF06FFFFFF
(1547755227.049743) can0 0CEFFF00#64062B7DFFFFFFFF
(1547755227.050268) can0 18FEF200#2000FFFFFFFFFFFF
(1547755227.058787) can0 0DEF0603#0101FFFFFFFFFFF5
(1547755227.059355) can0 0CF00400#F0FF9C341CFFFFFF
(1547755227.060024) can0 04EF0006#64151CF01119930E
(1547755227.069060) can0 0CF00300#FF0022FF06FFFFFF
(1547755227.069677) can0 0CEFFF00#64062A7DFFFFFFFF
(1547755227.070250) can0 18EF0600#640EBB00FFFFFFFF
(1547755227.078809) can0 0DEF0603#0101FFFFFFFFFFF5
(1547755227.079405) can0 0CF00400#F0FF9B321CFFFFFF
(1547755227.080049) can0 04EF0006#64151DF00719930E
(1547755227.080627) can0 0CFFFE06#5C271D271DFFFFFF
(1547755227.081199) can0 18FEF147#FF0000FFFFFFFFFF
(1547755227.081760) can0 18F00503#7DFFFFFFFFFFFFFF
(1547755227.089184) can0 0CF00300#FF0022FF06FFFFFF
(1547755227.089759) can0 0CEFFF00#64062A7DFFFFFFFF
(1547755227.090364) can0 18EFFF00#64100101DA02057D
(1547755227.090906) can0 18FED500#FFFFFDFFFFFFFFFF
(1547755227.098808) can0 0DEF0603#0101FFFFFFFFFFF5
(1547755227.099405) can0 0CF00400#F0FF9B301CFFFFFF
(1547755227.100005) can0 04EF0006#64151EF00719930E
(1547755227.109073) can0 0CF00300#FF0022FF06FFFFFF
(1547755227.109678) can0 0CEFFF00#64062A7DFFFFFFFF
(1547755227.118358) can0 0DEF0647#0104FFFFFFFFFFF1
(1547755227.119002) can0 0DEF0603#0101FFFFFFFFFFF5
(1547755227.119577) can0 0CF00400#F0FF9B301CFFFFFF
(1547755227.120200) can0 04EF0006#64151FF00719930E
(1547755227.120725) can0 18FFFF06#73FFFFFFFFFFFFFF
(1547755227.121336) can0 18FFFB06#0005ACF8FFFFFFFF
(1547755227.129103) can0 0CF00300#FF0022FF06FFFFFF
(1547755227.129678) can0 0CEFFF00#64062A7DFFFFFFFF
(1547755227.130250) can0 18FDB300#FFFF702AFFFFFFFF
(1547755227.138809) can0 0DEF0603#0101FFFFFFFFFFF5
(1547755227.139407) can0 0CF00400#F0FF9B2A1CFFFFFF
(1547755227.140050) can0 04EF0006#641510F00719930E
(1547755227.149156) can0 0CF00300#FF0022FF06FFFFFF
(1547755227.149728) can0 0CEFFF00#64062A7DFFFFFFFF
(1547755227.150301) can0 18FEF200#2000FFFFFFFFFFFF
(1547755227.158808) can0 0DEF0603#0101FFFFFFFFFFF5
(1547755227.159407) can0 0CF00400#F0FF9B241CFFFFFF
(1547755227.160077) can0 04EF0006#641511F01119930E
(1547755227.160574) can0 0CFE4947#FFFFFFFFFFFFFFFF
(1547755227.161184) can0 1CFDDF47#FCFFFFFFFFFFFFFF
(1547755227.161801) can0 0CFE4347#0000FFFF3FFFFFFF
(1547755227.162352) can0 0CFE4447#0000FFFF3FFFFFFF
(1547755227.162955) can0 0CFFFE06#5C271D271DFFFFFF
(1547755227.169046) can0 0CF00300#FF0022FF06FFFFFF
(1547755227.169618) can0 0CEFFF00#64062B7DFFFFFFFF
(1547755227.170196) can0 18EF0600#640EC500FFFFFFFF
(1547755227.178815) can0 0DEF0603#0101FFFFFFFFFFF5
(1547755227.179384) can0 0CF00400#F0FF9C2C1CFFFFFF
(1547755227.179994) can0 04EF0006#641512F00B19930E
(1547755227.189189) can0 0CF00300#FF0022FF06FFFFFF
(1547755227.189762) can0 0CEFFF00#64062A7DFFFFFFFF
(1547755227.190333) can0 18EFFF00#64100101D902057D
(1547755227.190911) can0 18FEDF00#8B201CFFFFFFFFFF
(1547755227.198813) can0 0DEF0603#0101FFFFFFFFFFF5
(1547755227.199384) can0 0CF00400#F0FF9B361CFFFFFF
(1547755227.200036) can0 04EF0006#641513F01119930E
(1547755227.200612) can0 18FEF147#FF0000FFFFFFFFFF
(1547755227.201193) can0 18F00647#FFCFFFFFFFFFFFFF
(1547755227.201795) can0 18F00503#7DFFFFFFFFFFFFFF
(1547755227.209021) can0 0CF00300#FF0022FF06FFFFFF
(1547755227.209622) can0 0CEFFF00#6406297DFFFFFFFF
(1547755227.210210) can0 18FEEF00#FFFFFF64FFFFFFFA
(1547755227.218346) can0 0DEF0647#0104FFFFFFFFFFF1
(1547755227.218961) can0 0DEF0603#0101FFFFFFFFFFF5
(1547755227.219534) can0 0CF00400#F0FF9B2C1CFFFFFF
(1547755227.220160) can0 04EF0006#641514F00719930E
(1547755227.229123) can0 0CF00300#FF0022FF06FFFFFF
(1547755227.229711) can0 0CEFFF00#64062A7DFFFFFFFF
(1547755227.238796) can0 0DEF0603#0101FFFFFFFFFFF5
(1547755227.239384) can0 0CF00400#F0FF9B2A1CFFFFFF
(1547755227.240034) can0 04EF0006#641515F01119930E
(1547755227.240596) can0 0CFE4947#FFFFFFFFFFFFFFFF
(1547755227.241192) can0 18FFFB06#0005A9F8FFFFFFFF
(1547755227.241789) can0 0CFE4347#0000FFFF3FFFFFFF
(1547755227.242384) can0 0CFE4447#0000FFFF3FFFFFFF
(1547755227.249087) can0 0CF00300#FF0022FF06FFFFFF
(1547755227.249671) can0 0CEFFF00#64062A7DFFFFFFFF
(1547755227.250234) can0 18FEF200#2000FFFFFFFFFFFF
(1547755227.258815) can0 0DEF0603#0101FFFFFFFFFFF5
(1547755227.259384) can0 0CF00400#F0FF9B2C1CFFFFFF
(1547755227.260010) can0 04EF0006#641516F01119930E
(1547755227.269137) can0 0CF00300#FF0022FF06FFFFFF
(1547755227.269714) can0 0CEFFF00#64062A7DFFFFFFFF
(1547755227.270284) can0 18EF0600#640ECF00FFFFFFFF
(1547755227.278809) can0 0DEF0603#0101FFFFFFFFFFF5
(1547755227.279357) can0 0CF00400#F0FF9B241CFFFFFF
(1547755227.280008) can0 04EF0006#641517F01119930E
(1547755227.280568) can0 0CFFFE06#5C271D271DFFFFFF
(1547755227.281141) can0 18FEF147#FF0000FFFFFFFFFF
(1547755227.281761) can0 18F00503#7DFFFFFFFFFFFFFF
(1547755227.289070) can0 0CF00300#FF0023FF06FFFFFF
(1547755227.289644) can0 0CEFFF00#64062B7DFFFFFFFF
(1547755227.290230) can0 18EFFF00#64100101D802057D
(1547755227.290808) can0 18FEF600#FF003BFF00FFFFFF
(1547755227.298814) can0 0DEF0603#0101FFFFFFFFFFF5
(1547755227.299382) can0 0CF00400#F0FF9C221CFFFFFF
(1547755227.300033) can0 04EF0006#641518F00B19930E
(1547755227.309035) can0 0CF00300#FF0022FF06FFFFFF
(1547755227.309592) can0 0CEFFF00#64062B7DFFFFFFFF
(1547755227.318345) can0 0DEF0647#0104FFFFFFFFFFF1
(1547755227.318984) can0 0DEF0603#0101FFFFFFFFFFF5
(1547755227.319584) can0 0CF00400#F0FF9C2C1CFFFFFF
(1547755227.320157) can0 04EF0006#641519F00B19930E
(1547755227.329069) can0 0CF00300#FF0021FF06FFFFFF
(1547755227.329661) can0 0CEFFF00#6406297DFFFFFFFF
(1547755227.338811) can0 0DEF0603#0101FFFFFFFFFFF5
(1547755227.339382) can0 0CF00400#F0FF9B301CFFFFFF
(1547755227.339958) can0 18FFFA00#022C0000180C0081
(1547755227.340515) can0 04EF0006#64151AF01119930E
(1547755227.349069) can0 0CF00300#FF0022FF06FFFFFF
(1547755227.349661) can0 0CEFFF00#6406297DFFFFFFFF
(1547755227.350257) can0 18FEF200#2000FFFFFFFFFFFF
(1547755227.358796) can0 0DEF0603#0101FFFFFFFFFFF5
(1547755227.359381) can0 0CF00400#F0FF9B281CFFFFFF
(1547755227.359992) can0 04EF0006#64151BF00719930E
(1547755227.360593) can0 0CFE4947#FFFFFFFFFFFFFFFF
(1547755227.361182) can0 18FFFB06#0005A9F8FFFFFFFF
(1547755227.361760) can0 0CFE4347#0000FFFF3FFFFFFF
(1547755227.362357) can0 0CFE4447#0000FFFF3FFFFFFF
(1547755227.362934) can0 0CFFFE06#5C271D271DFFFFFF
(1547755227.369185) can0 0CF00300#FF0022FF06FFFFFF
(1547755227.369758) can0 0CEFFF00#64062A7DFFFFFFFF
(1547755227.370332) can0 18EF0600#640ED900FFFFFFFF
(1547755227.370894) can0 18FEF500#C8FFFFFFFF39FFFF
(1547755227.378795) can0 0DEF0603#0101FFFFFFFFFFF5
(1547755227.379366) can0 0CF00400#F0FF9B281CFFFFFF
(1547755227.380032) can0 04EF0006#64151CF01119930E
(1547755227.389059) can0 0CF00300#FF0022FF06FFFFFF
(1547755227.389635) can0 0CEFFF00#64062A7DFFFFFFFF
(1547755227.390207) can0 18EFFF00#64100101D902057D
(1547755227.398809) can0 0DEF0603#0101FFFFFFFFFFF5
(1547755227.399357) can0 0CF00400#F0FF9B261CFFFFFF
(1547755227.400033) can0 04EF0006#64151DF01119930E
(1547755227.400608) can0 18FEF147#FF0000FFFFFFFFFF
(1547755227.401192) can0 18F00503#7DFFFFFFFFFFFFFF
(1547755227.409294) can0 0CF00300#FF0022FF06FFFFFF
(1547755227.409868) can0 0CEFFF00#64062A7DFFFFFFFF
(1547755227.410431) can0 18FE6900#7C243028FFFF60FE
(1547755227.418384) can0 0DEF0647#0104FFFFFFFFFFF1
(1547755227.418983) can0 0DEF0603#0101FFFFFFFFFFF5
(1547755227.419583) can0 0CF00400#F0FF9B1A1CFFFFFF
(1547755227.420180) can0 04EF0006#64151EF00B19930E
(1547755227.429060) can0 0CF00300#FF0023FF06FFFFFF
(1547755227.429636) can0 0CEFFF00#64062C7DFFFFFFFF
(1547755227.438834) can0 0DEF0603#0101FFFFFFFFFFF5
(1547755227.439407) can0 0CF00400#F0FF9C201CFFFFFF
(1547755227.439984) can0 18FEDF00#8B201CFFFFFFFFFF
(1547755227.440532) can0 04EF0006#64151FF00419930E
(1547755227.441109) can0 0CFE4947#FFFFFFFFFFFFFFFF
(1547755227.441510) can0 18EA0006#E3FE00
(1547755227.442085) can0 0CFE4347#0000FFFF3FFFFFFF
(1547755227.442684) can0 0CFE4447#0000FFFF3FFFFFFF
(1547755227.449137) can0 0CF00300#FF0022FF06FFFFFF
(1547755227.449709) can0 0CEFFF00#64062B7DFFFFFFFF
(1547755227.450282) can0 18FEF200#2000FFFFFFFFFFFF
(1547755227.458809) can0 0DEF0603#0101FFFFFFFFFFF5
(1547755227.459382) can0 0CF00400#F0FF9C2E1CFFFFFF
(1547755227.460033) can0 04EF0006#641510F00B19930E
(1547755227.468569) can0 1CFFFF17#22FFFF3CFFFFFFFF
(1547755227.469133) can0 0CF00300#FF0021FF06FFFFFF
(1547755227.469709) can0 0CEFFF00#6406297DFFFFFFFF
(1547755227.470291) can0 18EF0600#640EE300FFFFFFFF
(1547755227.477894) can0 18EAFF06#E5FE00
(1547755227.478884) can0 0DEF0603#0101FFFFFFFFFFF5
(1547755227.479432) can0 0CF00400#F0FF9B2C1CFFFFFF
(1547755227.480108) can0 04EF0006#641511F01119930E
(1547755227.480659) can0 0CFFFE06#5C271D271DFFFFFF
(1547755227.481232) can0 18FEF147#FF0000FFFFFFFFFF
(1547755227.481836) can0 18FFFB06#0005ACF8FFFFFFFF
(1547755227.482431) can0 18FEE706#CC0A0000FFFFFFFF
(1547755227.483019) can0 18F00503#7DFFFFFFFFFFFFFF
(1547755227.489144) can0 0CF00300#FF0022FF06FFFFFF
(1547755227.489744) can0 0CEFFF00#6406297DFFFFFFFF
(1547755227.490316) can0 18EFFF00#64100101D802057D
(1547755227.492184) can0 18FEE500#CD0A0000FFFFFFFF
(1547755227.492758) can0 1CEC0600#1022000505E3FE00
(1547755227.496686) can0 1CEC0006#110501FFFFE3FE00
(1547755227.498885) can0 0DEF0603#0101FFFFFFFFFFF5
(1547755227.499432) can0 0CF00400#F0FF9B2A1CFFFFFF
(1547755227.500109) can0 04EF0006#641512F01119930E
(1547755227.509060) can0 0CF00300#FF0022FF06FFFFFF
(1547755227.509635) can0 0CEFFF00#6406297DFFFFFFFF
(1547755227.518385) can0 0DEF0647#0104FFFFFFFFFFF1
(1547755227.519042) can0 0DEF0603#0101FFFFFFFFFFF5
(1547755227.519608) can0 0CF00400#F0FF9B2A1CFFFFFF
(1547755227.520282) can0 04EF0006#641513F01119930E
(1547755227.529030) can0 0CF00300#FF0022FF06FFFFFF
(1547755227.529635) can0 0CEFFF00#6406297DFFFFFFFF
(1547755227.530207) can0 18FD7C00#F880F1F000CF03FC
(1547755227.538820) can0 0DEF0603#0101FFFFFFFFFFF5
(1547755227.539407) can0 0CF00400#F0FF9B241CFFFFFF
(1547755227.540042) can0 04EF0006#641514F01119930E
(1547755227.549107) can0 0CF00300#FF0022FF06FFFFFF
(1547755227.549684) can0 0CEFFF00#64062A7DFFFFFFFF
(1547755227.550282) can0 18FEF200#2000FFFFFFFFFFFF
(1547755227.558836) can0 0DEF0603#0101FFFFFFFFFFF5
(1547755227.559364) can0 0CF00400#F0FF9B1C1CFFFFFF
(1547755227.560034) can0 04EF0006#641515F00B19930E
(1547755227.560609) can0 0CFE4947#FFFFFFFFFFFFFFFF
(1547755227.561209) can0 0CFFFF47#5DFFFFF3FFFFFFFF
(1547755227.561794) can0 0CFE4347#0000FFFF3FFFFFFF
(1547755227.562392) can0 0CFE4447#0000FFFF3FFFFFFF
(1547755227.562968) can0 0CFFFE06#5C271D271DFFFFFF
(1547755227.569111) can0 0CF00300#FF0022FF06FFFFFF
(1547755227.569684) can0 0CEFFF00#64062C7DFFFFFFFF
(1547755227.570256) can0 18EF0600#640EED00FFFFFFFF
(1547755227.578871) can0 0DEF0603#0101FFFFFFFFFFF5
(1547755227.579451) can0 0CF00400#F0FF9C261CFFFFFF
(1547755227.580119) can0 04EF0006#641516F00419930E
(1547755227.589199) can0 0CF00300#FF0022FF06FFFFFF
(1547755227.589770) can0 0CEFFF00#6406297DFFFFFFFF
(1547755227.590369) can0 18EFFF00#64100101D802057D
(1547755227.591976) can0 1CEB0600#01201CDD6842DCA0
(1547755227.598874) can0 0DEF0603#0101FFFFFFFFFFF5
(1547755227.599420) can0 0CF00400#F0FF9B301CFFFFFF
(1547755227.600069) can0 04EF0006#641517F00B19930E
(1547755227.600672) can0 18FEF147#FF0000FFFFFFFFFF
(1547755227.601230) can0 18FFFB06#0005ACF8FFFFFFFF
(1547755227.601828) can0 18FFFB06#001BFFFFFFFFFFFF
(1547755227.602476) can0 18F00503#7DFFFFFFFFFFFFFF
(1547755227.609125) can0 0CF00300#FF0021FF06FFFFFF
(1547755227.609696) can0 0CEFFF00#6406287DFFFFFFFF
(1547755227.618381) can0 0DEF0647#0104FFFFFFFFFFF1
(1547755227.619022) can0 0DEF0603#0101FFFFFFFFFFF5
(1547755227.619570) can0 0CF00400#F0FF9B261CFFFFFF
(1547755227.620176) can0 04EF0006#641518F00719930E
(1547755227.629199) can0 0CF00300#FF0022FF06FFFFFF
(1547755227.629771) can0 0CEFFF00#6406297DFFFFFFFF
(1547755227.630334) can0 18FDB300#FFFF702AFFFFFFFF
(1547755227.630903) can0 1CEFFF00#64070000FFFFFFFF
(1547755227.638876) can0 0DEF0603#0101FFFFFFFFFFF5
(1547755227.639418) can0 0CF00400#F0FF9B261CFFFFFF
(1547755227.640094) can0 04EF0006#641519F00B19930E
(1547755227.640671) can0 0CFE4947#FFFFFFFFFFFFFFFF
(1547755227.641243) can0 18FE6847#3DFFFFFFFFFFFFFF
(1547755227.641779) can0 0CFE4347#0000FFFF3FFFFFFF
(1547755227.642383) can0 18FFFF06#73FFFFFFFFFFFFFF
(1547755227.642998) can0 0CFE4447#0000FFFF3FFFFFFF
(1547755227.644152) can0 1CEB0600#020FD58D20E37A31
(1547755227.649156) can0 0CF00300#FF0022FF06FFFFFF
(1547755227.649774) can0 0CEFFF00#6406297DFFFFFFFF
(1547755227.650342) can0 18FEF200#2000FFFFFFFFFFFF
(1547755227.658874) can0 0DEF0603#0101FFFFFFFFFFF5
(1547755227.659418) can0 0CF00400#F0FF9B261CFFFFFF
(1547755227.660095) can0 04EF0006#64151AF00B19930E
(1547755227.669166) can0 0CF00300#FF0022FF06FFFFFF
(1547755227.669766) can0 0CEFFF00#6406297DFFFFFFFF
(1547755227.670339) can0 18EF0600#640EF700FFFFFFFF
(1547755227.678872) can0 0DEF0603#0101FFFFFFFFFFF5
(1547755227.679416) can0 0CF00400#F0FF9B1E1CFFFFFF
(1547755227.680092) can0 04EF0006#64151BF00B19930E
(1547755227.680670) can0 0CFFFF47#5EFFFFFFFFFFFFFF
(1547755227.681242) can0 18FEF147#FF0000FFFFFFFFFF
(1547755227.681746) can0 0CFFFE06#5C271D271DFFFFFF
(1547755227.682318) can0 18FEFC47#FFFFFFFFFFFFFFFF
(1547755227.682919) can0 18EF0047#F220610FFFFFFFFF
(1547755227.683618) can0 18F00647#FFCFFFFFFFFFFFFF
(1547755227.684166) can0 1CFDDF47#FCFFFFFFFFFFFFFF
(1547755227.684768) can0 18F00503#7DFFFFFFFFFFFFFF
(1547755227.689121) can0 0CF00300#FF0023FF06FFFFFF
(1547755227.689694) can0 0CEFFF00#64062B7DFFFFFFFF
(1547755227.690240) can0 18EFFF00#64100101D702057D
(1547755227.690843) can0 18FEDF00#8B201CFFFFFFFFFF
(1547755227.691992) can0 1CEB0600#03F1C044FFFF0401
(1547755227.698893) can0 0DEF0603#0101FFFFFFFFFFF5
(1547755227.699441) can0 0CF00400#F0FF9B1A1CFFFFFF
(1547755227.700143) can0 04EF0006#64151CF00419930E
(1547755227.709069) can0 0CF00300#FF0022FF06FFFFFF
(1547755227.709669) can0 0CEFFF00#64062C7DFFFFFFFF
(1547755227.710241) can0 18FEEF00#FFFFFF63FFFFFFFA
(1547755227.718446) can0 0DEF0647#0104FFFFFFFFFFF1
(1547755227.719044) can0 0DEF0603#0101FFFFFFFFFFF5
(1547755227.719616) can0 0CF00400#F0FF9C241CFFFFFF
(1547755227.720216) can0 04EF0006#64151DF00419930E
(1547755227.720843) can0 18FFFB06#0005A9F8FFFFFFFF
(1547755227.729122) can0 0CF00300#FF0022FF06FFFFFF
(1547755227.729720) can0 0CEFFF00#6406297DFFFFFFFF
(1547755227.738871) can0 0DEF0603#0101FFFFFFFFFFF5
(1547755227.739441) can0 0CF00400#F0FF9B261CFFFFFF
(1547755227.740092) can0 04EF0006#64151EF00B19930E
(1547755227.744141) can0 1CEB0600#04204E0001FAC9FA
(1547755227.749122) can0 0CF00300#FF0022FF06FFFFFF
(1547755227.749719) can0 0CEFFF00#6406297DFFFFFFFF
(1547755227.750291) can0 18FEF200#2000FFFFFFFFFFFF
(1547755227.758874) can0 0DEF0603#0101FFFFFFFFFFF5
(1547755227.759442) can0 0CF00400#F0FF9B201CFFFFFF
(1547755227.760091) can0 04EF0006#64151FF00B19930E
(1547755227.760668) can0 0CFE4947#FFFFFFFFFFFFFFFF
(1547755227.761265) can0 0CFE4347#0000FFFF3FFFFFFF
(1547755227.761820) can0 0CFE4447#0000FFFF3FFFFFFF
(1547755227.762389) can0 0CFFFE06#5C271D271DFFFFFF
(1547755227.769123) can0 0CF00300#FF0022FF06FFFFFF
(1547755227.769743) can0 0CEFFF00#64062A7DFFFFFFFF
(1547755227.770269) can0 18EF0600#640E0100FFFFFFFF
(1547755227.778822) can0 0DEF0603#0101FFFFFFFFFFF5
(1547755227.779423) can0 0CF00400#F0FF9B221CFFFFFF
(1547755227.780045) can0 04EF0006#641510F00B19930E
(1547755227.789065) can0 0CF00300#FF0022FF06FFFFFF
(1547755227.789668) can0 0CEFFF00#64062A7DFFFFFFFF
(1547755227.790215) can0 18EFFF00#64100101D702057D
(1547755227.790792) can0 18FEF600#FF003AFF00FFFFFF
(1547755227.791893) can0 1CEB0600#05C05D0000FFFFFF
(1547755227.792440) can0 1CECFF00#20220005FFE3FE00
(1547755227.798872) can0 0DEF0603#0101FFFFFFFFFFF5
(1547755227.799441) can0 0CF00400#F0FF9B201CFFFFFF
(1547755227.800093) can0 04EF0006#641511F00B19930E
(1547755227.800622) can0 18FEF147#FF0000FFFFFFFFFF
(1547755227.801274) can0 18F00503#7DFFFFFFFFFFFFFF
(1547755227.801866) can0 1CEC0006#13220005FFE3FE00
(1547755227.809296) can0 18EFFA00#6401FF0000FFFFFF
(1547755227.809867) can0 0CEFFF00#64062A7DFFFFFFFF
(1547755227.810442) can0 0CF00300#FF0022FF06FFFFFF
(1547755227.818374) can0 0DEF0647#0104FFFFFFFFFFF1
(1547755227.818967) can0 0DEF0603#0101FFFFFFFFFFF5
(1547755227.819616) can0 0CF00400#F0FF9B141CFFFFFF
(1547755227.820215) can0 04EF0006#641512F00B19930E
(1547755227.829121) can0 0CF00300#FF0023FF06FFFFFF
(1547755227.829670) can0 0CEFFF00#64062D7DFFFFFFFF
(1547755227.838873) can0 0DEF0603#0101FFFFFFFFFFF5
(1547755227.839442) can0 0CF00400#F0FF9C1A1CFFFFFF
(1547755227.840116) can0 04EF0006#641513F00919930E
(1547755227.840692) can0 0CFE4947#FFFFFFFFFFFFFFFF
(1547755227.841293) can0 18FFFB06#000586F8FFFFFFFF
(1547755227.841819) can0 0CFE4347#0000FFFF3FFFFFFF
(1547755227.842424) can0 0CFE4447#0000FFFF3FFFFFFF
(1547755227.844244) can0 1CEBFF00#01201CEC6842EAA0
(1547755227.849145) can0 0CF00300#FF0022FF06FFFFFF
(1547755227.849720) can0 0CEFFF00#64062C7DFFFFFFFF
(1547755227.850318) can0 18FEF200#2000FFFFFFFFFFFF
(1547755227.858871) can0 0DEF0603#0101FFFFFFFFFFF5
(1547755227.859444) can0 0CF00400#F0FF9C261CFFFFFF
(1547755227.860117) can0 04EF0006#641514F00419930E
(1547755227.869125) can0 0CF00300#FF0022FF06FFFFFF
(1547755227.869692) can0 0CEFFF00#6406297DFFFFFFFF
(1547755227.870268) can0 18EF0600#640E0B00FFFFFFFF
(1547755227.878823) can0 0DEF0603#0101FFFFFFFFFFF5
(1547755227.879421) can0 0CF00400#F0FF9B241CFFFFFF
(1547755227.880066) can0 04EF0006#641515F00B19930E
(1547755227.880591) can0 0CFFFE06#5C271D271DFFFFFF
(1547755227.881170) can0 18FEF147#FF0000FFFFFFFFFF
(1547755227.881771) can0 18F00503#7DFFFFFFFFFFFFFF
(1547755227.889197) can0 0CF00300#FF0022FF06FFFFFF
(1547755227.889843) can0 0CEFFF00#6406297DFFFFFFFF
(1547755227.890358) can0 18EFFF00#64100101D702057D
(1547755227.892069) can0 1CEBFF00#020FE38D20F17A31
(1547755227.898874) can0 0DEF0603#0101FFFFFFFFFFF5
(1547755227.899416) can0 0CF00400#F0FF9B221CFFFFFF
(1547755227.900066) can0 04EF0006#641516F00B19930E
(1547755227.909123) can0 0CF00300#FF0022FF06FFFFFF
(1547755227.909694) can0 0CEFFF00#64062A7DFFFFFFFF
(1547755227.910267) can0 18FEEE00#5842FFFFFFFFFFFF
(1547755227.918422) can0 0DEF0647#0104FFFFFFFFFFF1
(1547755227.919018) can0 0DEF0603#0101FFFFFFFFFFF5
(1547755227.919616) can0 0CF00400#F0FF9B221CFFFFFF
(1547755227.920168) can0 04EF0006#641517F00B19930E
(1547755227.929070) can0 0CF00300#FF0022FF06FFFFFF
(1547755227.929697) can0 0CEFFF00#64062A7DFFFFFFFF
(1547755227.938821) can0 0DEF0603#0101FFFFFFFFFFF5
(1547755227.939422) can0 0CF00400#F0FF9B1E1CFFFFFF
(1547755227.940018) can0 18FEDF00#8B201CFFFFFFFFFF
(1547755227.940518) can0 04EF0006#641518F00B19930E
(1547755227.941090) can0 0C000006#30FFFFFFF8FFFFFF
(1547755227.944797) can0 1CEBFF00#03FAC044FFFF0401
(1547755227.949115) can0 0CF00300#FF0023FF06FFFFFF
(1547755227.949726) can0 0CEFFF00#64062B7DFFFFFFFF
(1547755227.950305) can0 18FEF200#2000FFFFFFFFFFFF
(1547755227.958877) can0 0DEF0603#0101FFFFFFFFFFF5
(1547755227.959451) can0 0CF00400#F0FF9B161CFFFFFF
(1547755227.960127) can0 04EF0006#641519F00419930E
(1547755227.960701) can0 0CFE4947#FFFFFFFFFFFFFFFF
(1547755227.961301) can0 0CFE4347#0000FFFF3FFFFFFF
(1547755227.961853) can0 0CFE4447#0000FFFF3FFFFFFF
(1547755227.962432) can0 0CFFFE06#5C271D271DFFFFFF
(1547755227.969102) can0 0CF00300#FF0023FF06FFFFFF
(1547755227.969730) can0 0CEFFF00#64062C7DFFFFFFFF
(1547755227.970255) can0 18EF0600#640E1500FFFFFFFF
(1547755227.978832) can0 0DEF0603#0101FFFFFFFFFFF5
(1547755227.979455) can0 0CF00400#F0FF9C201CFFFFFF
(1547755227.980080) can0 04EF0006#64151AF00919930E
(1547755227.989173) can0 0CF00300#FF0022FF06FFFFFF
(1547755227.989781) can0 0CEFFF00#64062A7DFFFFFFFF
(1547755227.990349) can0 18EFFF00#64100101D702057D
(1547755227.990884) can0 18FEF700#FFFFFFFFFFFF1801
(1547755227.992130) can0 1CEBFF00#04204E0001FAC9FA
(1547755227.998883) can0 0DEF0603#0101FFFFFFFFFFF5
(1547755227.999431) can0 0CF00400#F0FF9B2A1CFFFFFF
(1547755228.000105) can0 04EF0006#64151BF00B19930E
(1547755228.000625) can0 18FEF147#FF0000FFFFFFFFFF
(1547755228.001243) can0 18F00503#7DFFFFFFFFFFFFFF
(1547755228.009151) can0 0CF00300#FF0022FF06FFFFFF
(1547755228.009728) can0 0CEFFF00#6406297DFFFFFFFF
(1547755228.018428) can0 0DEF0647#0104FFFFFFFFFFF1
(1547755228.019100) can0 0DEF0603#0101FFFFFFFFFFF5
(1547755228.019675) can0 0CF00400#F0FF9B201CFFFFFF
(1547755228.020279) can0 04EF0006#64151CF01119930E
(1547755228.029226) can0 0CF00300#FF0022FF06FFFFFF
(1547755228.029798) can0 0CEFFF00#64062A7DFFFFFFFF
(1547755228.038874) can0 0DEF0603#0101FFFFFFFFFFF5
(1547755228.039445) can0 0CF00400#F0FF9B201CFFFFFF
(1547755228.040095) can0 04EF0006#64151DF00B19930E
(1547755228.040671) can0 0CFE4947#FFFFFFFFFFFFFFFF
(1547755228.041245) can0 0CFFFF47#5DFFFFF3FFFFFFFF
(1547755228.041869) can0 0CFE4347#0000FFFF3FFFFFFF
(1547755228.042428) can0 0CFE4447#0000FFFF3FFFFFFF
(1547755228.044178) can0 1CEBFF00#05C05D0000FFFFFF
(1547755228.049099) can0 0CF00300#FF0022FF06FFFFFF
(1547755228.049679) can0 0CEFFF00#64062A7DFFFFFFFF
(1547755228.050299) can0 18FEF200#2000FFFFFFFFFFFF
(1547755228.058874) can0 0DEF0603#0101FFFFFFFFFFF5
(1547755228.059418) can0 0CF00400#F0FF9B201CFFFFFF
(1547755228.060093) can0 04EF0006#64151EF00B19930E
(1547755228.069194) can0 0CF00300#FF0022FF06FFFFFF
(1547755228.069769) can0 0CEFFF00#64062A7DFFFFFFFF
(1547755228.070341) can0 18EF0600#640E1F00FFFFFFFF
(1547755228.078873) can0 0DEF0603#0101FFFFFFFFFFF5
(1547755228.079442) can0 0CF00400#F0FF9B181CFFFFFF
(1547755228.080067) can0 04EF0006#64151FF00B19930E
(1547755228.080600) can0 0CFFFE06#5C271D271DFFFFFF
(1547755228.081178) can0 18FEF147#FF0000FFFFFFFFFF
(1547755228.081820) can0 18F00503#7DFFFFFFFFFFFFFF
(1547755228.089078) can0 0CF00300#FF0023FF06FFFFFF
(1547755228.089722) can0 0CEFFF00#64062C7DFFFFFFFF
(1547755228.090251) can0 18EFFF00#64100101D502057D
(1547755228.090828) can0 18FED500#FFFFFDFFFFFFFFFF
(1547755228.098861) can0 0DEF0603#0101FFFFFFFFFFF5
(1547755228.099415) can0 0CF00400#F0FF9C161CFFFFFF
(1547755228.100090) can0 04EF0006#641510F00419930E
(1547755228.109066) can0 0CF00300#FF0022FF06FFFFFF
(1547755228.109673) can0 0CEFFF00#64062C7DFFFFFFFF
(1547755228.118415) can0 0DEF0647#0104FFFFFFFFFFF1
(1547755228.119045) can0 0DEF0603#0101FFFFFFFFFFF5
(1547755228.119620) can0 0CF00400#F0FF9C201CFFFFFF
(1547755228.120267) can0 04EF0006#641511F00919930E
(1547755228.120804) can0 18FFFF06#73FFFFFFFFFFFFFF
(1547755228.129099) can0 0CF00300#FF0022FF06FFFFFF
(1547755228.129723) can0 0CEFFF00#64062A7DFFFFFFFF
(1547755228.130277) can0 18FDB300#FFFF7C2AFFFFFFFF
(1547755228.138828) can0 0DEF0603#0101FFFFFFFFFFF5
(1547755228.139381) can0 0CF00400#F0FF9B241CFFFFFF
(1547755228.140052) can0 04EF0006#641512F00B19930E
(1547755228.148487) can0 1CFFFF17#22FFFF3CFFFFFFFF
(1547755228.149143) can0 0CF00300#FF0022FF06FFFFFF
(1547755228.149721) can0 0CEFFF00#64062A7DFFFFFFFF
(1547755228.150294) can0 18FEF200#2000FFFFFFFFFFFF
(1547755228.158869) can0 0DEF0603#0101FFFFFFFFFFF5
(1547755228.159419) can0 0CF00400#F0FF9B1E1CFFFFFF
(1547755228.160068) can0 04EF0006#641513F00B19930E
(1547755228.160668) can0 0CFE4947#FFFFFFFFFFFFFFFF
(1547755228.161202) can0 1CFDDF47#FCFFFFFFFFFFFFFF
(1547755228.161783) can0 0CFE4347#0000FFFF3FFFFFFF
(1547755228.162352) can0 0CFE4447#0000FFFF3FFFFFFF
(1547755228.162995) can0 0CFFFE06#5C271D271DFFFFFF
(1547755228.169220) can0 0CF00300#FF0022FF06FFFFFF
(1547755228.169797) can0 0CEFFF00#64062B7DFFFFFFFF
(1547755228.170369) can0 18EF0600#640E2900FFFFFFFF
(1547755228.178869) can0 0DEF0603#0101FFFFFFFFFFF5
(1547755228.179444) can0 0CF00400#F0FF9B201CFFFFFF
(1547755228.180119) can0 04EF0006#641514F00419930E
(1547755228.189094) can0 0CF00300#FF0022FF06FFFFFF
(1547755228.189670) can0 0CEFFF00#64062A7DFFFFFFFF
(1547755228.190243) can0 18EFFF00#64100101D502057D
(1547755228.190778) can0 18FEDF00#8B201CFFFFFFFFFF
(1547755228.198824) can0 0DEF0603#0101FFFFFFFFFFF5
(1547755228.199441) can0 0CF00400#F0FF9B201CFFFFFF
(1547755228.200053) can0 04EF0006#641515F00B19930E
(1547755228.200628) can0 18FEF147#FF0000FFFFFFFFFF
(1547755228.201274) can0 18F00647#FFCFFFFFFFFFFFFF
(1547755228.201831) can0 18F00503#7DFFFFFFFFFFFFFF
(1547755228.209269) can0 0CF00300#FF0022FF06FFFFFF
(1547755228.209841) can0 0CEFFF00#64062A7DFFFFFFFF
(1547755228.210417) can0 18FEEF00#FFFFFF63FFFFFFFA
(1547755228.218383) can0 0DEF0647#0104FFFFFFFFFFF1
(1547755228.219015) can0 0DEF0603#0101FFFFFFFFFFF5
(1547755228.219589) can0 0CF00400#F0FF9B141CFFFFFF
(1547755228.220182) can0 04EF0006#641516F00B19930E
(1547755228.229079) can0 0CF00300#FF0023FF06FFFFFF
(1547755228.229693) can0 0CEFFF00#64062D7DFFFFFFFF
(1547755228.238853) can0 0DEF0603#0101FFFFFFFFFFF5
(1547755228.239435) can0 0CF00400#F0FF9C1C1CFFFFFF
(1547755228.240119) can0 04EF0006#641517F00919930E
(1547755228.240690) can0 0CFE4947#FFFFFFFFFFFFFFFF
(1547755228.241260) can0 0CFE4347#0000FFFF3FFFFFFF
(1547755228.241891) can0 0CFE4447#0000FFFF3FFFFFFF
(1547755228.249142) can0 0CF00300#FF0022FF06FFFFFF
(1547755228.249741) can0 0CEFFF00#64062C7DFFFFFFFF
(1547755228.250341) can0 18FEF200#2000FFFFFFFFFFFF
(1547755228.258896) can0 0DEF0603#0101FFFFFFFFFFF5
(1547755228.259441) can0 0CF00400#F0FF9C281CFFFFFF
(1547755228.260118) can0 04EF0006#641518F00419930E
(1547755228.269120) can0 0CF00300#FF0022FF06FFFFFF
(1547755228.269693) can0 0CEFFF00#6406297DFFFFFFFF
(1547755228.270265) can0 18EF0600#640E3300FFFFFFFF
(1547755228.278871) can0 0DEF0603#0101FFFFFFFFFFF5
(1547755228.279418) can0 0CF00400#F0FF9B261CFFFFFF
(1547755228.280094) can0 04EF0006#641519F01119930E
(1547755228.280642) can0 0CFFFE06#5C271D271DFFFFFF
(1547755228.281176) can0 18FEF147#FF0000FFFFFFFFFF
(1547755228.281779) can0 18F00503#7DFFFFFFFFFFFFFF
(1547755228.289203) can0 0CF00300#FF0022FF06FFFFFF
(1547755228.289821) can0 0CEFFF00#6406297DFFFFFFFF
(1547755228.290391) can0 18EFFF00#64100101D602057D
(1547755228.290929) can0 18FEF600#FF003AFF00FFFFFF
(1547755228.298832) can0 0DEF0603#0101FFFFFFFFFFF5
(1547755228.299423) can0 0CF00400#F0FF9B241CFFFFFF
(1547755228.300055) can0 04EF0006#64151AF00B19930E
(1547755228.309120) can0 0CF00300#FF0022FF06FFFFFF
(1547755228.309690) can0 0CEFFF00#64062A7DFFFFFFFF
(1547755228.318444) can0 0DEF0647#0104FFFFFFFFFFF1
(1547755228.319044) can0 0DEF0603#0101FFFFFFFFFFF5
(1547755228.319617) can0 0CF00400#F0FF9B241CFFFFFF
(1547755228.320217) can0 04EF0006#64151BF00B19930E
(1547755228.329144) can0 0CF00300#FF0022FF06FFFFFF
(1547755228.329717) can0 0CEFFF00#6406297DFFFFFFFF
(1547755228.338887) can0 0DEF0603#0101FFFFFFFFFFF5
(1547755228.339435) can0 0CF00400#F0FF9B1E1CFFFFFF
(1547755228.340009) can0 18FFFA00#022C0000180C0081
(1547755228.340524) can0 04EF0006#64151CF00B19930E
(1547755228.349154) can0 0CF00300#FF0023FF06FFFFFF
(1547755228.349760) can0 0CEFFF00#64062B7DFFFFFFFF
(1547755228.350359) can0 18FEF200#2000FFFFFFFFFFFF
(1547755228.358852) can0 0DEF0603#0101FFFFFFFFFFF5
(1547755228.359435) can0 0CF00400#F0FF9B141CFFFFFF
(1547755228.360099) can0 04EF0006#64151DF00419930E
(1547755228.360711) can0 0CFE4947#FFFFFFFFFFFFFFFF
(1547755228.361281) can0 0CFE4347#0000FFFF3FFFFFFF
(1547755228.361909) can0 0CFE4447#0000FFFF3FFFFFFF
(1547755228.362456) can0 0CFFFE06#5C271D271DFFFFFF
(1547755228.369101) can0 0CF00300#FF0023FF06FFFFFF
(1547755228.369712) can0 0CEFFF00#64062D7DFFFFFFFF
(1547755228.370248) can0 18EF0600#640E3D00FFFFFFFF
(1547755228.370826) can0 18FEF500#C8FFFFFFFF39FFFF
(1547755228.378850) can0 0DEF0603#0101FFFFFFFFFFF5
