(1547755052.756237) can0 18EEFF47#4D74300400340220
(1547755052.756830) can0 18EEFF06#4D743004000E0020
(1547755052.757407) can0 18EEFF03#4D74300400030220
(1547755052.786342) can0 18EEFF00#56F5290400000220
(1547755052.788567) can0 0CF00400#F0FF000000FFFFFF
(1547755052.788939) can0 18EAFF00#00EE00
(1547755052.798438) can0 0CF00300#FF0000FF00FFFFFF
(1547755052.799010) can0 0CEFFF00#6406007DFFFFFFFF
(1547755052.799611) can0 18FEF200#0000FFFFFFFFFFFF
(1547755052.808657) can0 0CF00400#F0FF7D0000FFFFFF
(1547755052.818552) can0 0CF00300#FF0000FF07FFFFFF
(1547755052.819126) can0 0CEFFF00#6406007DFFFFFFFF
(1547755052.819699) can0 18EF0600#640E0302FFFFFFFF
(1547755052.828572) can0 0CF00400#F0FF7D0000FFFFFF
(1547755052.838567) can0 0CF00300#FF0000FF07FFFFFF
(1547755052.839141) can0 0CEFFF00#6406007DFFFFFFFF
(1547755052.839714) can0 18EFFF00#64100B0B0000007D
(1547755052.840291) can0 18FEDF00#7D081DFFFFFFFFFF
(1547755052.840863) can0 1CECFF00#20220005FFE3FE00
(1547755052.848587) can0 0CF00400#F0FF7D0000FFFFFF
(1547755052.858557) can0 0CF00300#FF0000FF06FFFFFF
(1547755052.859131) can0 0CEFFF00#6406007DFFFFFFFF
(1547755052.859730) can0 18FEEF00#FFFFFFFEFFFFFFFA
(1547755052.868552) can0 0CF00400#F0FF7D0000FFFFFF
(1547755052.878523) can0 0CF00300#FF0000FF06FFFFFF
(1547755052.879096) can0 0CEFFF00#6406007DFFFFFFFF
(1547755052.888593) can0 0CF00400#F0FF7D0000FFFFFF
(1547755052.891715) can0 1CEBFF00#01201CDD6842DCA0
(1547755052.898562) can0 0CF00300#FF0000FF06FFFFFF
(1547755052.899136) can0 0CEFFF00#6406007DFFFFFFFF
(1547755052.899734) can0 18FEF200#0000FFFFFFFFFFFF
(1547755052.908557) can0 0CF00400#F0FF7D0000FFFFFF
(1547755052.918502) can0 0CF00300#FF0000FF06FFFFFF
(1547755052.919076) can0 0CEFFF00#6406007DFFFFFFFF
(1547755052.919674) can0 18EF0600#640E0D02FFFFFFFF
(1547755052.928546) can0 0CF00400#F0FF7D0000FFFFFF
(1547755052.938492) can0 0CF00300#FF0000FF06FFFFFF
(1547755052.939066) can0 0CEFFF00#6406007DFFFFFFFF
(1547755052.939638) can0 18EFFF00#64100B0B0000007D
(1547755052.940215) can0 18FEF600#FF0047FF00FFFFFF
(1547755052.940763) can0 1CEBFF00#020FD58D20E37A31
(1547755052.948537) can0 0CF00400#F0FF7D0000FFFFFF
(1547755052.958507) can0 18EFFA00#6401FF0000FFFFFF
(1547755052.959080) can0 0CEFFF00#6406007DFFFFFFFF
(1547755052.959654) can0 0CF00300#FF0000FF06FFFFFF
(1547755052.968552) can0 0CF00400#F0FF7D0000FFFFFF
(1547755052.978497) can0 0CF00300#FF0000FF07FFFFFF
(1547755052.979071) can0 0CEFFF00#6406007DFFFFFFFF
(1547755052.988542) can0 0CF00400#F0FF7D0000FFFFFF
(1547755052.991715) can0 1CEBFF00#03F1C044FFFF0401
(1547755052.998512) can0 0CF00300#FF0000FF06FFFFFF
(1547755052.999086) can0 0CEFFF00#6406007DFFFFFFFF
(1547755052.999659) can0 18FEF200#0000FFFFFFFFFFFF
(1547755053.008507) can0 0CF00400#F0FF7D0000FFFFFF
(1547755053.017452) can0 0DEF0603#0101FFFFFFFFFFF5
(1547755053.018025) can0 04EF0006#641510F00000930E
(1547755053.018599) can0 0C000006#30FFFFFFF8FFFFFF
(1547755053.019176) can0 0CEFFF00#6406007DFFFFFFFF
(1547755053.019749) can0 0CF00300#FF0000FF06FFFFFF
(1547755053.020325) can0 18EF0600#640E1706FFFFFFFF
(1547755053.028497) can0 0CF00400#F0FF7D0000FFFFFF
(1547755053.037342) can0 0DEF0647#0104FFFFFFFFFFF1
(1547755053.037964) can0 0DEF0603#0101FFFFFFFFFFF5
(1547755053.038516) can0 04EF0006#641510F00000930E
(1547755053.039091) can0 0CEFFF00#6406007DFFFFFFFF
(1547755053.039663) can0 0CF00300#FF0000FF06FFFFFF
(1547755053.040215) can0 0CFFFE06#5C271D271DFFFFFF
(1547755053.040787) can0 18EEFF00#56F5290400000220
(1547755053.041361) can0 18EFFF00#64100B0B0000007D
(1547755053.041963) can0 18FFFB06#00057DF8FFFFFFFF
(1547755053.042514) can0 1CEBFF00#04204E0001FAC9FA
(1547755053.042912) can0 18EAFF47#00EE00
(1547755053.048483) can0 0CF00400#F0FF7D0000FFFFFF
(1547755053.057457) can0 0DEF0603#0101FFFFFFFFFFF5
(1547755053.058006) can0 04EF0006#641510F00000930E
(1547755053.058579) can0 0CF00300#FF0000FF06FFFFFF
(1547755053.059156) can0 0CEFFF00#6406007DFFFFFFFF
(1547755053.059729) can0 18FEEE00#5542FFFFFFFFFFFF
(1547755053.068502) can0 0CF00400#F0FF7D0000FFFFFF
(1547755053.077447) can0 0DEF0603#0101FFFFFFFFFFF5
(1547755053.077995) can0 04EF0006#641510F00000930E
(1547755053.078569) can0 0CF00300#FF0000FF07FFFFFF
(1547755053.079146) can0 0CEFFF00#6406007DFFFFFFFF
(1547755053.079719) can0 0CFE4947#FFFFFFFFFFFFFFFF
(1547755053.080320) can0 0CFE4347#FFFFFFFFFFFFFFFF
(1547755053.080919) can0 0CFE4447#0000FFFF3FFFFFFF
(1547755053.088463) can0 0CF00400#F0FF7D0000FFFFFF
(1547755053.089037) can0 18FEDF00#7D261DFFFFFFFFFF
(1547755053.091815) can0 18EEFF00#56F5290400000220
(1547755053.092386) can0 1CEBFF00#05C05D0000FFFFFF
(1547755053.097437) can0 0DEF0603#0101FFFFFFFFFFF5
(1547755053.097986) can0 04EF0006#641510F00000A90E
(1547755053.098559) can0 0CF00300#FF0000FF06FFFFFF
(1547755053.099136) can0 0CEFFF00#6406007DFFFFFFFF
(1547755053.099734) can0 18FEF200#0000FFFFFFFFFFFF
(1547755053.108482) can0 0CF00400#F0FF7D0000FFFFFF
(1547755053.117427) can0 0DEF0603#0101FFFFFFFFFFF5
(1547755053.117976) can0 04EF0006#641510F00000930E
(1547755053.118549) can0 0CF00300#FF0000FF06FFFFFF
(1547755053.119126) can0 0CEFFF00#6406007DFFFFFFFF
(1547755053.119698) can0 0CFFFE06#5C271D271DFFFFFF
(1547755053.120275) can0 18EF0600#640E2100FFFFFFFF
(1547755053.120848) can0 18FEF147#FF0000FFFFFFFFFF
(1547755053.121447) can0 18F00503#FFFFFFFFFFFFFFFF
(1547755053.128447) can0 0CF00400#F0FF7D0000FFFFFF
(1547755053.137292) can0 0DEF0647#0104FFFFFFFFFFF1
(1547755053.137915) can0 0DEF0603#0101FFFFFFFFFFF5
(1547755053.138465) can0 04EF0006#641510F00000930E
(1547755053.139041) can0 0CEFFF00#6406007DFFFFFFFF
(1547755053.139613) can0 0CF00300#FF0000FF06FFFFFF
(1547755053.140190) can0 18EFFF00#64100B0B0000007D
(1547755053.140763) can0 18FEF700#FFFFFFFFFFFFAD00
(1547755053.148433) can0 0CF00400#F0FF7D0000FFFFFF
(1547755053.157407) can0 0DEF0603#0101FFFFFFFFFFF5
(1547755053.157956) can0 04EF0006#641510F00000930E
(1547755053.158529) can0 0CF00300#FF0000FF07FFFFFF
(1547755053.159131) can0 0CEFFF00#6406007DFFFFFFFF
(1547755053.159704) can0 0CFE4947#FFFFFFFFFFFFFFFF
(1547755053.160281) can0 0CFE4347#FFFFFFFFFFFFFFFF
(1547755053.160905) can0 0CFE4447#0000FFFF3FFFFFFF
(1547755053.168423) can0 0CF00400#F0FF7D0000FFFFFF
(1547755053.177398) can0 0DEF0603#0101FFFFFFFFFFF5
(1547755053.177946) can0 04EF0006#641510F00000A90E
(1547755053.178519) can0 0CF00300#FF0000FF06FFFFFF
(1547755053.179096) can0 0CEFFF00#6406007DFFFFFFFF
(1547755053.188442) can0 0CF00400#F0FF7D0000FFFFFF
(1547755053.191065) can0 18EEFF47#4D74300400340220
(1547755053.191637) can0 18EEFF06#4D743004000E0020
(1547755053.192214) can0 18EEFF03#4D74300400030220
(1547755053.197388) can0 0DEF0603#0101FFFFFFFFFFF5
(1547755053.197936) can0 04EF0006#641510F00000930E
(1547755053.198509) can0 0CF00300#FF0000FF07FFFFFF
(1547755053.199111) can0 0CEFFF00#6406007DFFFFFFFF
(1547755053.199658) can0 0CFFFE06#5C271D271DFFFFFF
(1547755053.200232) can0 18FEF147#FF0000FFFFFFFFFF
(1547755053.200808) can0 18FEF200#0000FFFFFFFFFFFF
(1547755053.201411) can0 18F00503#FFFFFFFFFFFFFFFF
(1547755053.208432) can0 0CF00400#F0FF7D0000FFFFFF
(1547755053.217377) can0 0DEF0603#0101FFFFFFFFFFF5
(1547755053.217926) can0 04EF0006#641510F00000A90E
(1547755053.218499) can0 0CF00300#FF0000FF07FFFFFF
(1547755053.219101) can0 0CEFFF00#6406007DFFFFFFFF
(1547755053.219673) can0 18EF0600#640E2B00FFFFFFFF
(1547755053.228397) can0 0CF00400#F0FF7D0000FFFFFF
(1547755053.237267) can0 0DEF0647#0104FFFFFFFFFFF1
(1547755053.237866) can0 0DEF0603#0101FFFFFFFFFFF5
(1547755053.238416) can0 04EF0006#641510F00000A90E
(1547755053.238991) can0 0CEFFF00#6406007DFFFFFFFF
(1547755053.239563) can0 0CF00300#FF0000FF06FFFFFF
(1547755053.240140) can0 0CFFFE06#5C531D531DFFFFFF
(1547755053.240713) can0 18EFFF00#64100B0B0000007D
(1547755053.241287) can0 18FED500#FFFFFCFFFFFFFFFF
(1547755053.248386) can0 0CF00400#F0FF7D0000FFFFFF
(1547755053.257371) can0 0DEF0603#0101FFFFFFFFFFF5
(1547755053.257906) can0 04EF0006#641510F00000930E
(1547755053.258504) can0 0CF00300#FF0000FF06FFFFFF
(1547755053.259081) can0 0CEFFF00#6406007DFFFFFFFF
(1547755053.268377) can0 0CF00400#F0FF7D0000FFFFFF
(1547755053.277334) can0 0DEF0603#0101FFFFFFFFFFF5
(1547755053.277882) can0 04EF0006#641510F00000930E
(1547755053.278452) can0 0CF00300#FF0000FF06FFFFFF
(1547755053.279054) can0 0CEFFF00#6406007DFFFFFFFF
(1547755053.279603) can0 0CFE4947#FFFFFFFFFFFFFFFF
(1547755053.280179) can0 18FDB300#FFFF7829FFFFFFFF
(1547755053.280793) can0 0CFE4347#FFFFFFFFFFFFFFFF
(1547755053.281392) can0 0CFE4447#0000FFFF3FFFFFFF
(1547755053.281970) can0 0CFFFE06#5C271D271DFFFFFF
(1547755053.288391) can0 0CF00400#F0FF7D0000FFFFFF
(1547755053.297338) can0 0DEF0603#0101FFFFFFFFFFF5
(1547755053.297886) can0 04EF0006#641510F00000930E
(1547755053.298459) can0 0CF00300#FF0000FF06FFFFFF
(1547755053.299036) can0 0CEFFF00#6406007DFFFFFFFF
(1547755053.299634) can0 18FEF200#0000FFFFFFFFFFFF
(1547755053.308406) can0 0CF00400#F0FF7D4003FFFFFF
(1547755053.317727) can0 0DEF0603#0101FFFFFFFFFFF5
(1547755053.318401) can0 0CF00300#FF0000FF06FFFFFF
(1547755053.318975) can0 04EF0006#641510F00000930E
(1547755053.319549) can0 0CEFFF00#6406FB7CFFFFFFFF
(1547755053.320100) can0 18EF0600#640E3500FFFFFFFF
(1547755053.320699) can0 18FEF147#FF0000FFFFFFFFFF
(1547755053.321301) can0 18F00503#FFFFFFFFFFFFFFFF
(1547755053.328447) can0 0CF00400#F0FF7D1E05FFFFFF
(1547755053.337617) can0 0DEF0647#0104FFFFFFFFFFF1
(1547755053.338217) can0 0DEF0603#0101FFFFFFFFFFF5
(1547755053.338816) can0 0CEFFF00#6406F87CFFFFFFFF
(1547755053.339391) can0 0CF00300#FF0000FF07FFFFFF
(1547755053.339940) can0 04EF0006#641510F00000930E
(1547755053.340538) can0 18EFFF00#641000000000007D
(1547755053.341115) can0 18FEDF00#7D261DFFFFFFFFFF
(1547755053.348408) can0 0CF00400#F0FF7D2605FFFFFF
(1547755053.357982) can0 0DEF0603#0101FFFFFFFFFFF5
(1547755053.358555) can0 0CF00300#FF0000FF07FFFFFF
(1547755053.359155) can0 0CEFFF00#6406F87CFFFFFFFF
(1547755053.359703) can0 04EF0006#641510F00000A90E
(1547755053.360281) can0 0CFE4947#FFFFFFFFFFFFFFFF
(1547755053.360855) can0 18FEEF00#FFFFFF00FFFFFFFA
(1547755053.368402) can0 0CF00400#F0FF7D2605FFFFFF
(1547755053.378371) can0 0CF00300#FF0000FF06FFFFFF
(1547755053.378971) can0 0CEFFF00#6406F87CFFFFFFFF
(1547755053.388417) can0 0CF00400#F0FF7DF208FFFFFF
(1547755053.398462) can0 0CF00300#FF0000FF06FFFFFF
(1547755053.399036) can0 0CEFFF00#6406F27CFFFFFFFF
(1547755053.399609) can0 18FEF200#0000FFFFFFFFFFFF
(1547755053.408457) can0 0CF00400#FEFF7DE406FFFFFF
(1547755053.418352) can0 0CF00300#FF0064FF07FFFFFF
(1547755053.418926) can0 0CEFFF00#64068C7DFFFFFFFF
(1547755053.419524) can0 18EF0600#640E3F00FFFFFFFF
(1547755053.428422) can0 0CF00400#FEFFB72C06FFFFFF
(1547755053.438368) can0 0CF00300#FF0064FF07FFFFFF
(1547755053.438941) can0 0CEFFF00#64068C7DFFFFFFFF
(1547755053.439539) can0 18EFFF00#641000000000007D
(1547755053.440115) can0 18FEF600#FF0042FF00FFFFFF
(1547755053.448436) can0 0CF00400#FEFFB78A05FFFFFF
(1547755053.458357) can0 0CF00300#FF0064FF06FFFFFF
(1547755053.458931) can0 0CEFFF00#64068C7DFFFFFFFF
(1547755053.468377) can0 0CF00400#FEFFB6D604FFFFFF
(1547755053.478347) can0 0CF00300#FF0064FF07FFFFFF
(1547755053.478921) can0 0CEFFF00#64068C7DFFFFFFFF
(1547755053.488391) can0 0CF00400#FEFFB6A005FFFFFF
(1547755053.488966) can0 18FFFA00#022C0000180C0000
(1547755053.498411) can0 0CF00300#FF0064FF06FFFFFF
(1547755053.498986) can0 0CEFFF00#64068C7DFFFFFFFF
(1547755053.499559) can0 18FEF200#1600FFFFFFFFFFFF
(1547755053.508382) can0 0CF00400#FEFFB6D206FFFFFF
(1547755053.518302) can0 0CF00300#FF0064FF06FFFFFF
(1547755053.518876) can0 0CEFFF00#64068C7DFFFFFFFF
(1547755053.519475) can0 18EF0600#640E4900FFFFFFFF
(1547755053.520026) can0 18FEF500#C8FFFFFFFF3CFFFF
(1547755053.528346) can0 0CF00400#FEFFB76A07FFFFFF
(1547755053.538341) can0 0CF00300#FF0064FF07FFFFFF
(1547755053.538916) can0 0CEFFF00#64068C7DFFFFFFFF
(1547755053.539489) can0 18EFFF00#641000000000007D
(1547755053.548337) can0 0CF00400#FEFFB77807FFFFFF
(1547755053.558307) can0 0CF00300#FF0064FF07FFFFFF
(1547755053.558881) can0 0CEFFF00#64068C7DFFFFFFFF
(1547755053.559454) can0 18FE6900#6225CC27FFFF60FE
(1547755053.568352) can0 0CF00400#FEFFB74A07FFFFFF
(1547755053.578422) can0 0CF00300#FF0064FF07FFFFFF
(1547755053.578996) can0 0CEFFF00#64068C7DFFFFFFFF
(1547755053.588316) can0 0CF00400#FEFFB7FA06FFFFFF
(1547755053.588891) can0 18FEDF00#81201CFFFFFFFFFF
(1547755053.598311) can0 0CF00300#FF0064FF07FFFFFF
(1547755053.598886) can0 0CEFFF00#64068C7DFFFFFFFF
(1547755053.599459) can0 18FEF200#1C00FFFFFFFFFFFF
(1547755053.608381) can0 0CF00400#FEFFB7C606FFFFFF
(1547755053.618329) can0 0CF00300#FF0064FF07FFFFFF
(1547755053.618901) can0 0CEFFF00#64068C7DFFFFFFFF
(1547755053.619476) can0 18EF0600#640E5306FFFFFFFF
(1547755053.628372) can0 0CF00400#FEFFB72E06FFFFFF
(1547755053.638319) can0 0CF00300#FF0064FF07FFFFFF
(1547755053.638891) can0 0CEFFF00#64068C7DFFFFFFFF
(1547755053.639488) can0 18EFFF00#641000000000007D
(1547755053.648388) can0 0CF00400#FEFFB76205FFFFFF
(1547755053.658331) can0 0CF00300#FF0064FF07FFFFFF
(1547755053.658880) can0 0CEFFF00#64068C7DFFFFFFFF
(1547755053.668351) can0 0CF00400#FEFFB61805FFFFFF
(1547755053.678323) can0 0CF00300#FF0064FF06FFFFFF
(1547755053.678923) can0 0CEFFF00#64068C7DFFFFFFFF
(1547755053.679471) can0 18FD7C00#F880F0F000CF03FC
(1547755053.688343) can0 0CF00400#FEFFB6EC08FFFFFF
(1547755053.698314) can0 0CF00300#FF0064FF07FFFFFF
(1547755053.698887) can0 0CEFFF00#64068C7DFFFFFFFF
(1547755053.699458) can0 18FEF200#2500FFFFFFFFFFFF
(1547755053.708308) can0 0CF00400#FEFFB8A80BFFFFFF
(1547755053.718303) can0 0CF00300#FF0064FF07FFFFFF
(1547755053.718876) can0 0CEFFF00#64068C7DFFFFFFFF
(1547755053.719450) can0 18EF0600#640E5D06FFFFFFFF
(1547755053.728296) can0 0CF00400#FEFFBA1C0CFFFFFF
(1547755053.738267) can0 0CF00300#FF0064FF07FFFFFF
(1547755053.738841) can0 0CEFFF00#64068C7DFFFFFFFF
(1547755053.739439) can0 18EFFF00#641000000000007D
(1547755053.748311) can0 0CF00400#FEFFBBC20BFFFFFF
(1547755053.758256) can0 0CF00300#FF0064FF06FFFFFF
(1547755053.758857) can0 0CEFFF00#64068C7DFFFFFFFF
(1547755053.768453) can0 0CF00400#FEFFBA7C0AFFFFFF
(1547755053.778272) can0 0CF00300#FF0064FF06FFFFFF
(1547755053.778873) can0 0CEFFF00#64068C7DFFFFFFFF
(1547755053.779444) can0 18FDB300#FFFF5E29FFFFFFFF
(1547755053.780024) can0 1CEFFF00#64070000FFFFFFFF
(1547755053.788316) can0 0CF00400#FEFFB95209FFFFFF
(1547755053.798312) can0 0CF00300#FF0064FF07FFFFFF
(1547755053.798885) can0 0CEFFF00#64068C7DFFFFFFFF
(1547755053.799486) can0 18FEF200#2800FFFFFFFFFFFF
(1547755053.808281) can0 0CF00400#FEFFB90A0EFFFFFF
(1547755053.818252) can0 0CF00300#FF0064FF07FFFFFF
(1547755053.818825) can0 0CEFFF00#64068C7DFFFFFFFF
(1547755053.819400) can0 18EF0600#640E6706FFFFFFFF
(1547755053.828270) can0 0CF00400#FEFFBC560FFFFFFF
(1547755053.838199) can0 0CF00300#FF0064FF07FFFFFF
(1547755053.838816) can0 0CEFFF00#64068C7DFFFFFFFF
(1547755053.839343) can0 18EFFF00#641000000000007D
(1547755053.839992) can0 18FEDF00#83201CFFFFFFFFFF
(1547755053.848344) can0 0CF00400#FEFFBC120FFFFFFF
(1547755053.858335) can0 0CF00300#FF0064FF07FFFFFF
(1547755053.858907) can0 0CEFFF00#64068C7DFFFFFFFF
(1547755053.859479) can0 18FEEF00#FFFFFF44FFFFFFFA
(1547755053.868329) can0 0CF00400#FEFFBC420DFFFFFF
(1547755053.878224) can0 0CF00300#FF0064FF06FFFFFF
(1547755053.878795) can0 0CEFFF00#64068C7DFFFFFFFF
(1547755053.888244) can0 0CF00400#FEFFBBC40EFFFFFF
(1547755053.898214) can0 0CF00300#FF0064FF06FFFFFF
(1547755053.898755) can0 0CEFFF00#64068C7DFFFFFFFF
(1547755053.899386) can0 18FEF200#4100FFFFFFFFFFFF
(1547755053.908285) can0 0CF00400#FEFFBCFC0FFFFFFF
(1547755053.918229) can0 0CF00300#FF0064FF06FFFFFF
(1547755053.918802) can0 0CEFFF00#64068C7DFFFFFFFF
(1547755053.919375) can0 18EF0600#640E7106FFFFFFFF
(1547755053.928320) can0 0CF00400#FEFFBD0E10FFFFFF
(1547755053.938295) can0 0CF00300#FF0064FF07FFFFFF
(1547755053.938868) can0 0CEFFF00#64068C7DFFFFFFFF
(1547755053.939466) can0 18EFFF00#641000000000007D
(1547755053.940040) can0 18FEF600#FF0040FF00FFFFFF
(1547755053.948216) can0 0CF00400#FEFFBDD210FFFFFF
(1547755053.958159) can0 18EFFA00#6401FF0000FFFFFF
(1547755053.958732) can0 0CEFFF00#64068C7DFFFFFFFF
(1547755053.959278) can0 0CF00300#FF0064FF07FFFFFF
(1547755053.968254) can0 0CF00400#FEFFBDC211FFFFFF
(1547755053.978199) can0 0CF00300#FF0064FF06FFFFFF
(1547755053.978771) can0 0CEFFF00#64068C7DFFFFFFFF
(1547755053.988221) can0 0CF00400#FEFFBEA212FFFFFF
(1547755053.998189) can0 0CF00300#FF0064FF07FFFFFF
(1547755053.998761) can0 0CEFFF00#64068C7DFFFFFFFF
(1547755053.999336) can0 18FEF200#5500FFFFFFFFFFFF
(1547755054.008210) can0 0CF00400#FEFFBE9C13FFFFFF
(1547755054.018201) can0 0CF00300#FF0064FF06FFFFFF
(1547755054.018777) can0 0CEFFF00#64068C7DFFFFFFFF
(1547755054.019349) can0 18EF0600#640E7B06FFFFFFFF
(1547755054.028224) can0 0CF00400#FEFFBF9614FFFFFF
(1547755054.038220) can0 0CF00300#FF0064FF06FFFFFF
(1547755054.038790) can0 0CEFFF00#64068C7DFFFFFFFF
(1547755054.039365) can0 18EFFF00#641000000000007D
(1547755054.048240) can0 0CF00400#FEFFBF6015FFFFFF
(1547755054.058383) can0 0CF00300#FF0064FF06FFFFFF
(1547755054.058957) can0 0CEFFF00#64068C7DFFFFFFFF
(1547755054.059558) can0 18FEEE00#5542FFFFFFFFFFFF
(1547755054.068179) can0 0CF00400#FEFFBF8416FFFFFF
(1547755054.078173) can0 0CF00300#FF0064FF07FFFFFF
(1547755054.078747) can0 0CEFFF00#64068C7DFFFFFFFF
(1547755054.088193) can0 0CF00400#FEFFC07017FFFFFF
(1547755054.088766) can0 18FEDF00#89201CFFFFFFFFFF
(1547755054.098139) can0 0CF00300#FF0064FF07FFFFFF
(1547755054.098713) can0 0CEFFF00#64068F7DFFFFFFFF
(1547755054.099310) can0 18FEF200#6C00FFFFFFFFFFFF
(1547755054.108409) can0 0CF00400#FEFFC15E18FFFFFF
(1547755054.118129) can0 0CF00300#FF0064FF07FFFFFF
(1547755054.118728) can0 0CEFFF00#6406927DFFFFFFFF
(1547755054.119274) can0 18EF0600#640E8506FFFFFFFF
(1547755054.128150) can0 0CF00400#FEFFC24E19FFFFFF
(1547755054.138118) can0 0CF00300#FF0064FF07FFFFFF
(1547755054.138693) can0 0CEFFF00#6406957DFFFFFFFF
(1547755054.139288) can0 18EFFF00#641000000000007D
(1547755054.139865) can0 18FEF700#FFFFFFFFFFFFE100
(1547755054.148241) can0 0CF00400#FEFFC43E1AFFFFFF
(1547755054.158186) can0 0CF00300#FF0064FF07FFFFFF
(1547755054.158757) can0 0CEFFF00#6406987DFFFFFFFF
(1547755054.165733) can0 18EEFF47#4D74300400340220
(1547755054.166326) can0 18EEFF06#4D743004000E0020
(1547755054.166902) can0 18EEFF03#4D74300400030220
(1547755054.168203) can0 0CF00400#FEFFC53C1BFFFFFF
(1547755054.178124) can0 0CF00300#FF0064FF06FFFFFF
(1547755054.178697) can0 0CEFFF00#64069C7DFFFFFFFF
(1547755054.188218) can0 0CF00400#F8FFC7301CFFFFFF
(1547755054.198490) can0 0CF00300#FF0064FF06FFFFFF
(1547755054.199035) can0 0CEFFF00#64069F7DFFFFFFFF
(1547755054.199611) can0 18FEF200#5200FFFFFFFFFFFF
(1547755054.208234) can0 0CF00400#F8FFC8401DFFFFFF
(1547755054.218152) can0 0CF00300#FF0064FF07FFFFFF
(1547755054.218729) can0 0CEFFF00#6406A17DFFFFFFFF
(1547755054.219299) can0 18EF0600#640E8F06FFFFFFFF
(1547755054.228199) can0 0CF00400#F0FFC9D61DFFFFFF
(1547755054.236395) can0 18EEFF17#0C6E240400130220
(1547755054.238269) can0 0CF00300#FF0058FF07FFFFFF
(1547755054.238844) can0 0CEFFF00#6406A07DFFFFFFFF
(1547755054.239415) can0 18EFFF00#641001010000007D
(1547755054.239990) can0 18FED500#FFFFFDFFFFFFFFFF
(1547755054.248215) can0 0CF00400#F0FFC96C1EFFFFFF
(1547755054.258160) can0 0CF00300#FF0038FF06FFFFFF
(1547755054.258730) can0 0CEFFF00#64066B7DFFFFFFFF
(1547755054.268176) can0 0CF00400#F0FFB5021FFFFFFF
(1547755054.278374) can0 0CF00300#FF0016FF06FFFFFF
(1547755054.278972) can0 0CEFFF00#6406287DFFFFFFFF
(1547755054.279547) can0 18FDB300#FFFF6A29FFFFFFFF
(1547755054.288141) can0 0CF00400#F0FF9B8E1FFFFFFF
(1547755054.298162) can0 0CF00300#FF0000FF06FFFFFF
(1547755054.298736) can0 0CEFFF00#6406E97CFFFFFFFF
(1547755054.299334) can0 18FEF200#0500FFFFFFFFFFFF
(1547755054.308136) can0 0CF00400#F1FF83CE1FFFFFFF
(1547755054.318104) can0 0CF00300#FF0000FF06FFFFFF
(1547755054.318678) can0 0CEFFF00#6406D97CFFFFFFFF
(1547755054.319249) can0 18EF0600#640E9906FFFFFFFF
(1547755054.328146) can0 0CF00400#F1FF7DD81FFFFFFF
(1547755054.338091) can0 0CF00300#FF0000FF06FFFFFF
(1547755054.338665) can0 0CEFFF00#6406D97CFFFFFFFF
(1547755054.339239) can0 18EFFF00#641001010000057D
(1547755054.339771) can0 18FEDF00#8CC61CFFFFFFFFFF
(1547755054.348087) can0 0CF00400#F1FF7D861FFFFFFF
(1547755054.358059) can0 0CF00300#FF0000FF06FFFFFF
(1547755054.358631) can0 0CEFFF00#6406D97CFFFFFFFF
(1547755054.359205) can0 18FEEF00#FFFFFF62FFFFFFFA
(1547755054.368080) can0 0CF00400#F1FF7D201FFFFFFF
(1547755054.378127) can0 0CF00300#FF0000FF07FFFFFF
(1547755054.378670) can0 0CEFFF00#6406DA7CFFFFFFFF
(1547755054.388143) can0 0CF00400#F1FF7DC41EFFFFFF
(1547755054.398087) can0 0CF00300#FF000BFF07FFFFFF
(1547755054.398663) can0 0CEFFF00#6406DA7CFFFFFFFF
(1547755054.399233) can0 18FEF200#0000FFFFFFFFFFFF
(1547755054.408034) can0 0CF00400#F1FF7D541EFFFFFF
(1547755054.418206) can0 0CF00300#FF0012FF06FFFFFF
(1547755054.418775) can0 0CEFFF00#6406F57CFFFFFFFF
(1547755054.419376) can0 18EF0600#640EA306FFFFFFFF
(1547755054.426873) can0 0DEF0603#0101FFFFFFFFFFF5
(1547755054.428046) can0 0CF00400#F1FF87E81DFFFFFF
(1547755054.438120) can0 0CF00300#FF0015FF06FFFFFF
(1547755054.438691) can0 0CEFFF00#6406037DFFFFFFFF
(1547755054.439265) can0 18EFFF00#64100101F002037D
(1547755054.439840) can0 18FEF600#FF003EFF00FFFFFF
(1547755054.446765) can0 0DEF0647#0104FFFFFFFFFFF1
(1547755054.447363) can0 0DEF0603#0101FFFFFFFFFFF5
(1547755054.447735) can0 18EAFF47#00EE00
(1547755054.448310) can0 0CF00400#F1FF8D901DFFFFFF
(1547755054.448911) can0 0CFFFE06#5CFFFFFFFFFFFFFF
(1547755054.457957) can0 0CF00300#FF0020FF07FFFFFF
(1547755054.458506) can0 0CEFFF00#6406117DFFFFFFFF
(1547755054.466851) can0 0DEF0603#0101FFFFFFFFFFF5
(1547755054.468003) can0 0CF00400#F1FF92361DFFFFFF
(1547755054.477948) can0 0CF00300#FF004AFF06FFFFFF
(1547755054.478521) can0 0CEFFF00#64061B7DFFFFFFFF
(1547755054.486842) can0 0DEF0603#0101FFFFFFFFFFF5
(1547755054.487442) can0 0CFE4947#FFFFFFFFFFFFFFFF
(1547755054.488042) can0 0CFE4347#FFFFFFFFFFFFFFFF
(1547755054.488592) can0 0CF00400#F0FF96FA1CFFFFFF
(1547755054.489192) can0 0CFE4447#0000FFFF3FFFFFFF
(1547755054.489731) can0 18FFFA00#022C0000180C0081
(1547755054.493358) can0 18EEFF00#56F5290400000220
(1547755054.497931) can0 0CF00300#FF0050FF07FFFFFF
(1547755054.498538) can0 0CEFFF00#6406767DFFFFFFFF
(1547755054.499110) can0 18FEF200#3E00FFFFFFFFFFFF
(1547755054.506833) can0 0DEF0603#0101FFFFFFFFFFF5
(1547755054.508007) can0 0CF00400#F0FFB9F61CFFFFFF
(1547755054.516853) can0 18EAFF17#00EE00
(1547755054.517977) can0 0CF00300#FF0047FF06FFFFFF
(1547755054.518528) can0 0CEFFF00#6406737DFFFFFFFF
(1547755054.519123) can0 18EF0600#640EAD06FFFFFFFF
(1547755054.519703) can0 18FEF500#C8FFFFFFFF3BFFFF
(1547755054.526822) can0 0DEF0603#0101FFFFFFFFFFF5
(1547755054.527399) can0 18FEF147#FF0000FFFFFFFFFF
(1547755054.527994) can0 18F00503#FFFFFFFFFFFFFFFF
(1547755054.528573) can0 0CF00400#F0FFB7441DFFFFFF
(1547755054.536917) can0 1CFFFF17#22FFFF3CFFFFFFFF
(1547755054.537994) can0 0CF00300#FF0039FF07FFFFFF
(1547755054.538566) can0 0CEFFF00#64065A7DFFFFFFFF
(1547755054.539139) can0 18EFFF00#64100101F402037D
(1547755054.540442) can0 18EEFF00#56F5290400000220
(1547755054.546715) can0 0DEF0647#0104FFFFFFFFFFF1
(1547755054.547314) can0 0DEF0603#0101FFFFFFFFFFF5
(1547755054.547984) can0 0CF00400#F0FFAEA01DFFFFFF
(1547755054.557883) can0 0CF00300#FF0029FF06FFFFFF
(1547755054.558456) can0 0CEFFF00#64063D7DFFFFFFFF
(1547755054.559030) can0 18FE6900#FC24D027FFFF60FE
(1547755054.566805) can0 0DEF0603#0101FFFFFFFFFFF5
(1547755054.567427) can0 0CFE4947#FFFFFFFFFFFFFFFF
(1547755054.568001) can0 0CFE4347#FFFFFFFFFFFFFFFF
(1547755054.568577) can0 0CF00400#F0FFA3F41DFFFFFF
(1547755054.569152) can0 0CFE4447#0000FFFF3FFFFFFF
(1547755054.569779) can0 0CFFFE06#5CFFFFFFFFFFFFFF
(1547755054.577902) can0 0CF00300#FF001AFF06FFFFFF
(1547755054.578480) can0 0CEFFF00#64061F7DFFFFFFFF
(1547755054.586800) can0 0DEF0603#0101FFFFFFFFFFF5
(1547755054.587949) can0 0CF00400#F0FF983E1EFFFFFF
(1547755054.588523) can0 18FEDF00#8B201CFFFFFFFFFF
(1547755054.597892) can0 0CF00300#FF000FFF07FFFFFF
(1547755054.598468) can0 0CEFFF00#6406007DFFFFFFFF
(1547755054.599042) can0 18FEF200#0D00FFFFFFFFFFFF
(1547755054.606792) can0 0DEF0603#0101FFFFFFFFFFF5
(1547755054.607364) can0 18FEF147#FF0000FFFFFFFFFF
(1547755054.607912) can0 0CF00400#F1FF8C461EFFFFFF
(1547755054.608517) can0 18F00503#FFFFFFFFFFFFFFFF
(1547755054.617881) can0 0CF00300#FF0000FF06FFFFFF
(1547755054.618416) can0 0CEFFF00#6406DA7CFFFFFFFF
(1547755054.619030) can0 18EF0600#640EB706FFFFFFFF
(1547755054.626782) can0 0DEF0603#0101FFFFFFFFFFF5
(1547755054.627818) can0 0CF00400#F1FF7D401EFFFFFF
(1547755054.637825) can0 0CF00300#FF0000FF07FFFFFF
(1547755054.638396) can0 0CEFFF00#6406DA7CFFFFFFFF
(1547755054.638971) can0 18EFFF00#64100101F802067D
(1547755054.646671) can0 0DEF0647#0104FFFFFFFFFFF1
(1547755054.647268) can0 0DEF0603#0101FFFFFFFFFFF5
(1547755054.647892) can0 0CFFFE06#5CFFFFFFFFFFFFFF
(1547755054.648443) can0 0CF00400#F1FF7D081EFFFFFF
(1547755054.657864) can0 0CF00300#FF0009FF06FFFFFF
(1547755054.658437) can0 0CEFFF00#6406DA7CFFFFFFFF
(1547755054.666727) can0 0DEF0603#0101FFFFFFFFFFF5
(1547755054.667883) can0 0CF00400#F1FF7DB01DFFFFFF
(1547755054.676777) can0 18EA0017#09FF00
(1547755054.677880) can0 0CF00300#FF0013FF06FFFFFF
(1547755054.678409) can0 0CEFFF00#6406F77CFFFFFFFF
(1547755054.679000) can0 18FD7C00#F880F1F500CF03FD
(1547755054.686751) can0 0DEF0603#0101FFFFFFFFFFF5
(1547755054.687349) can0 0CFE4947#FFFFFFFFFFFFFFFF
(1547755054.687922) can0 0CF00400#F1FF88621DFFFFFF
(1547755054.688503) can0 0CFE4347#FFFFFFFFFFFFFFFF
(1547755054.689096) can0 0CFE4447#0000FFFF3FFFFFFF
(1547755054.693063) can0 18FF0900#454355FFFFFFFFFF
(1547755054.697834) can0 0CF00300#FF001DFF07FFFFFF
(1547755054.698468) can0 0CEFFF00#6406007DFFFFFFFF
(1547755054.699042) can0 18FEF200#0D00FFFFFFFFFFFF
(1547755054.707207) can0 0DEF0603#0101FFFFFFFFFFF5
(1547755054.707892) can0 0CF00400#F1FF8BF61CFFFFFF
(1547755054.708462) can0 0C000006#30FFFFFFF8FFFFFF
(1547755054.709011) can0 04EF0006#641510F00000A90E
(1547755054.717836) can0 0CF00300#FF0020FF07FFFFFF
(1547755054.718406) can0 0CEFFF00#6406157DFFFFFFFF
(1547755054.718937) can0 18EF0600#640EC106FFFFFFFF
(1547755054.727231) can0 0DEF0603#0101FFFFFFFFFFF5
(1547755054.727901) can0 0CF00400#FEFF93A81CFFFFFF
(1547755054.728451) can0 04EF0006#641510F00000A90E
(1547755054.728963) can0 0CFFFE06#5C531D531DFFFFFF
(1547755054.729569) can0 18FEF147#FF0000FFFFFFFFFF
(1547755054.730227) can0 18FFFB06#0005A5F8FFFFFFFF
(1547755054.730802) can0 18F00503#FFFFFFFFFFFFFFFF
(1547755054.738125) can0 0CF00300#FF002AFF07FFFFFF
(1547755054.738672) can0 0CEFFF00#6406437DFFFFFFFF
(1547755054.739201) can0 18EFFF00#64100101E502037D
(1547755054.747059) can0 0DEF0647#0104FFFFFFFFFFF1
(1547755054.747717) can0 0DEF0603#0101FFFFFFFFFFF5
(1547755054.748267) can0 0CF00400#F0FFA56A1CFFFFFF
(1547755054.748889) can0 04EF0006#641510F00000A90E
(1547755054.757783) can0 0CF00300#FF003CFF06FFFFFF
(1547755054.758387) can0 0CEFFF00#6406537DFFFFFFFF
(1547755054.767446) can0 0DEF0603#0101FFFFFFFFFFF5
(1547755054.768058) can0 0CF00400#F0FFAB6E1CFFFFFF
(1547755054.768707) can0 04EF0006#641510F00000930E
(1547755054.769248) can0 0CFE4947#FFFFFFFFFFFFFFFF
(1547755054.769820) can0 0CFFFF47#5DFFFFF3FFFFFFFF
(1547755054.770428) can0 0CFE4347#0000FFFF3FFFFFFF
(1547755054.771033) can0 0CFE4447#0000FFFF3FFFFFFF
(1547755054.771629) can0 0CFFFE06#5C271D271DFFFFFF
(1547755054.777825) can0 0CF00300#FF003AFF06FFFFFF
(1547755054.778399) can0 0CEFFF00#6406507DFFFFFFFF
(1547755054.778979) can0 18FDB300#FFFF7829FFFFFFFF
(1547755054.779564) can0 1CEFFF00#64070000FFFFFFFF
(1547755054.787421) can0 0DEF0603#0101FFFFFFFFFFF5
(1547755054.788000) can0 0CF00400#F0FFAA941CFFFFFF
(1547755054.788637) can0 04EF0006#641510F00000930E
(1547755054.797814) can0 0CF00300#FF0037FF06FFFFFF
(1547755054.798443) can0 0CEFFF00#64064A7DFFFFFFFF
(1547755054.798990) can0 18FEF200#2F00FFFFFFFFFFFF
(1547755054.807413) can0 0DEF0603#0101FFFFFFFFFFF5
(1547755054.808017) can0 0CF00400#F0FFA8C21CFFFFFF
(1547755054.808662) can0 04EF0006#641510F00000930E
(1547755054.809212) can0 18FEF147#FF0000FFFFFFFFFF
(1547755054.809845) can0 18F00503#7DFFFFFFFFFFFFFF
(1547755054.817924) can0 0CF00300#FF0031FF07FFFFFF
(1547755054.818498) can0 0CEFFF00#6406427DFFFFFFFF
(1547755054.819044) can0 18EF0600#640ECB00FFFFFFFF
(1547755054.827401) can0 0DEF0603#0101FFFFFFFFFFF5
(1547755054.827978) can0 0CF00400#F0FFA5061DFFFFFF
(1547755054.828624) can0 04EF0006#641510F00000A90E
(1547755054.837773) can0 0CF00300#FF0027FF07FFFFFF
(1547755054.838373) can0 0CEFFF00#6406327DFFFFFFFF
(1547755054.838947) can0 18EFFF00#64100101ED02037D
(1547755054.839493) can0 18FEDF00#8B201CFFFFFFFFFF
(1547755054.847062) can0 0DEF0647#0104FFFFFFFFFFF1
(1547755054.847719) can0 0DEF0603#0101FFFFFFFFFFF5
(1547755054.848233) can0 0CF00400#F0FF9E381DFFFFFF
(1547755054.848779) can0 04EF0006#641510F00000A90E
(1547755054.849359) can0 0CFFFE06#5C531D531DFFFFFF
(1547755054.849945) can0 18FFFF06#73FFFFFFFFFFFFFF
(1547755054.850535) can0 18FFFB06#0005C8F8FFFFFFFF
(1547755054.851138) can0 18EEFF47#4D74300400340220
(1547755054.851660) can0 18EEFF17#0C6E240400130220
(1547755054.852238) can0 18EEFF06#4D743004000E0020
(1547755054.852816) can0 18EEFF03#4D74300400030220
(1547755054.857783) can0 0CF00300#FF0021FF06FFFFFF
(1547755054.858359) can0 0CEFFF00#6406227DFFFFFFFF
(1547755054.858932) can0 18FEEF00#FFFFFF63FFFFFFFA
(1547755054.867397) can0 0DEF0603#0101FFFFFFFFFFF5
(1547755054.868002) can0 0CF00400#F0FF985A1DFFFFFF
(1547755054.868629) can0 04EF0006#641510F00000930E
(1547755054.877752) can0 0CF00300#FF001AFF06FFFFFF
(1547755054.878327) can0 0CEFFF00#6406147DFFFFFFFF
(1547755054.887425) can0 0DEF0603#0101FFFFFFFFFFF5
(1547755054.887972) can0 0CF00400#F0FF93741DFFFFFF
(1547755054.888623) can0 04EF0006#641510F00000930E
(1547755054.889197) can0 0CFE4947#FFFFFFFFFFFFFFFF
(1547755054.889796) can0 1CFDDF47#FCFFFFFFFFFFFFFF
(1547755054.890337) can0 0CFE4347#0000FFFF3FFFFFFF
(1547755054.890941) can0 0CFE4447#0000FFFF3FFFFFFF
(1547755054.891508) can0 0CFFFE06#5C271D271DFFFFFF
(1547755054.897746) can0 0CF00300#FF0000FF06FFFFFF
(1547755054.898317) can0 0CEFFF00#6406097DFFFFFFFF
(1547755054.898878) can0 18FEF200#1000FFFFFFFFFFFF
(1547755054.907379) can0 0DEF0603#0101FFFFFFFFFFF5
(1547755054.907962) can0 0CF00400#FEFF8F641DFFFFFF
(1547755054.908583) can0 04EF0006#641510F00000930E
(1547755054.917682) can0 0CF00300#FF000FFF06FFFFFF
(1547755054.918283) can0 0CEFFF00#6406DB7CFFFFFFFF
(1547755054.918854) can0 18EF0600#640ED500FFFFFFFF
(1547755054.927403) can0 0DEF0603#0101FFFFFFFFFFF5
(1547755054.927975) can0 0CF00400#FEFF7D3C1DFFFFFF
(1547755054.928628) can0 04EF0006#641510F00000930E
(1547755054.929176) can0 18FEF147#FF0000FFFFFFFFFF
(1547755054.929778) can0 18F00647#FFCFFFFFFFFFFFFF
(1547755054.930342) can0 18F00503#7DFFFFFFFFFFFFFF
(1547755054.937714) can0 0CF00300#FF0019FF06FFFFFF
(1547755054.938298) can0 0CEFFF00#6406017DFFFFFFFF
(1547755054.938834) can0 18EFFF00#64100101EA02057D
(1547755054.939438) can0 18FEF600#FF003EFF00FFFFFF
(1547755054.947019) can0 0DEF0647#0104FFFFFFFFFFF1
(1547755054.947669) can0 0DEF0603#0101FFFFFFFFFFF5
(1547755054.948190) can0 0CF00400#FEFF8CE21CFFFFFF
(1547755054.948737) can0 04EF0006#641510F00000930E
(1547755054.957742) can0 18EFFA00#6401FF0000FFFFFF
(1547755054.958312) can0 0CEFFF00#6406167DFFFFFFFF
(1547755054.958885) can0 0CF00300#FF0020FF06FFFFFF
(1547755054.967385) can0 0DEF0603#0101FFFFFFFFFFF5
(1547755054.967957) can0 0CF00400#FEFF948A1CFFFFFF
(1547755054.968547) can0 04EF0006#641510F00000930E
(1547755054.969149) can0 0CFE4947#FFFFFFFFFFFFFFFF
(1547755054.969763) can0 18FFFB06#00057FF8FFFFFFFF
(1547755054.970331) can0 0CFE4347#0000FFFF3FFFFFFF
(1547755054.970897) can0 0CFE4447#0000FFFF3FFFFFFF
(1547755054.977672) can0 0CF00300#FF0024FF07FFFFFF
(1547755054.978277) can0 0CEFFF00#6406237DFFFFFFFF
(1547755054.987337) can0 0DEF0603#0101FFFFFFFFFFF5
(1547755054.987896) can0 0CF00400#F0FF994C1CFFFFFF
(1547755054.988569) can0 04EF0006#641511F03019A90E
(1547755054.997991) can0 0CF00300#FF0033FF07FFFFFF
(1547755054.998593) can0 0CEFFF00#64063E7DFFFFFFFF
(1547755054.999167) can0 18FEF200#2A00FFFFFFFFFFFF
(1547755055.007366) can0 0DEF0603#0101FFFFFFFFFFF5
(1547755055.007910) can0 0CF00400#F0FFA3201CFFFFFF
(1547755055.008562) can0 04EF0006#641512F00B19A90E
(1547755055.009105) can0 0CFFFE06#5C531D531DFFFFFF
(1547755055.009684) can0 18FEF147#FF0000FFFFFFFFFF
(1547755055.010312) can0 18F00503#7DFFFFFFFFFFFFFF
(1547755055.017674) can0 0CF00300#FF002CFF06FFFFFF
(1547755055.018261) can0 0CEFFF00#6406427DFFFFFFFF
(1547755055.018826) can0 18EF0600#640EDF00FFFFFFFF
(1547755055.027298) can0 0DEF0603#0101FFFFFFFFFFF5
(1547755055.027880) can0 0CF00400#F0FFA5241CFFFFFF
(1547755055.028524) can0 04EF0006#641513F00B19930E
(1547755055.036599) can0 18EA4717#09FF00
(1547755055.037004) can0 18EA0617#09FF00
(1547755055.037399) can0 18EA0317#09FF00
(1547755055.037996) can0 0CF00300#FF002BFF06FFFFFF
(1547755055.038574) can0 0CEFFF00#6406417DFFFFFFFF
(1547755055.039148) can0 18EFFF00#64100101DB02037D
(1547755055.047020) can0 0DEF0647#0104FFFFFFFFFFF1
(1547755055.047619) can0 0DEF0603#0101FFFFFFFFFFF5
(1547755055.048167) can0 0CF00400#F0FFA4421CFFFFFF
(1547755055.048742) can0 04EF0006#641514F00B19930E
(1547755055.049294) can0 0CFFFE06#5C271D271DFFFFFF
(1547755055.049834) can0 18FF0947#434355FFFFFFFFFF
(1547755055.050407) can0 18FF0906#454943FFFFFFFFFF
(1547755055.051031) can0 18FF0903#505452FFFFFFFFFF
(1547755055.051695) can0 18FECA06#00FF00000000FFFF
(1547755055.052768) can0 18FECA47#00FF00000000FFFF
(1547755055.053992) can0 18FECA03#00FF00000000FFFF
(1547755055.057716) can0 0CF00300#FF0029FF07FFFFFF
(1547755055.058286) can0 0CEFFF00#64063C7DFFFFFFFF
(1547755055.058862) can0 18FEEE00#5542FFFFFFFFFFFF
(1547755055.067338) can0 0DEF0603#0101FFFFFFFFFFF5
(1547755055.067907) can0 0CF00400#F0FFA2661CFFFFFF
(1547755055.068558) can0 04EF0006#641515F07319A90E
(1547755055.077778) can0 0CF00300#FF0026FF06FFFFFF
(1547755055.078382) can0 0CEFFF00#6406377DFFFFFFFF
(1547755055.087324) can0 0DEF0603#0101FFFFFFFFFFF5
(1547755055.087898) can0 0CF00400#F0FFA0941CFFFFFF
(1547755055.088474) can0 18FEDF00#8B201CFFFFFFFFFF
(1547755055.089046) can0 04EF0006#641516F07319930E
(1547755055.089556) can0 0CFE4947#FFFFFFFFFFFFFFFF
(1547755055.090136) can0 18FFFB06#0005BEF8FFFFFFFF
(1547755055.090751) can0 0CFE4347#0000FFFF3FFFFFFF
(1547755055.091311) can0 0CFE4447#0000FFFF3FFFFFFF
(1547755055.091890) can0 0CFFFE06#5C271D271DFFFFFF
(1547755055.097686) can0 0CF00300#FF0023FF06FFFFFF
(1547755055.098265) can0 0CEFFF00#6406307DFFFFFFFF
(1547755055.098845) can0 18FEF200#2400FFFFFFFFFFFF
(1547755055.107286) can0 0DEF0603#0101FFFFFFFFFFF5
(1547755055.107836) can0 0CF00400#F0FF9EBC1CFFFFFF
(1547755055.108510) can0 04EF0006#641517F0D018930E
(1547755055.117632) can0 0CF00300#FF0021FF06FFFFFF
(1547755055.118233) can0 0CEFFF00#64062A7DFFFFFFFF
(1547755055.118807) can0 18EF0600#640EE900FFFFFFFF
(1547755055.119348) can0 18FECA17#00FF00000000FFFF
(1547755055.127267) can0 0DEF0603#0101FFFFFFFFFFF5
(1547755055.127853) can0 0CF00400#F0FF9BCA1CFFFFFF
(1547755055.128467) can0 04EF0006#641518F0E518930E
(1547755055.129050) can0 18FEF147#FF0000FFFFFFFFFF
(1547755055.129648) can0 18F00503#7DFFFFFFFFFFFFFF
(1547755055.137643) can0 0CF00300#FF001FFF06FFFFFF
(1547755055.138220) can0 0CEFFF00#6406277DFFFFFFFF
(1547755055.138766) can0 18EFFF00#64100101E702057D
(1547755055.139371) can0 18FEF700#FFFFFFFFFFFFF000
(1547755055.146944) can0 0DEF0647#0104FFFFFFFFFFF1
(1547755055.147540) can0 0DEF0603#0101FFFFFFFFFFF5
(1547755055.148108) can0 0CF00400#F0FF9AE01CFFFFFF
(1547755055.148761) can0 04EF0006#641519F0F218930E
(1547755055.157586) can0 0CF00300#FF001DFF07FFFFFF
(1547755055.158162) can0 0CEFFF00#6406217DFFFFFFFF
(1547755055.166483) can0 18EAFF06#E5FE00
(1547755055.167484) can0 0DEF0603#0101FFFFFFFFFFF5
(1547755055.168031) can0 0CF00400#F0FF98E41CFFFFFF
(1547755055.168682) can0 04EF0006#64151AF0E518A90E
(1547755055.169282) can0 0CFE4947#FFFFFFFFFFFFFFFF
(1547755055.169830) can0 18FEE706#CC0A0000FFFFFFFF
(1547755055.170433) can0 0CFE4347#0000FFFF3FFFFFFF
(1547755055.170992) can0 0CFE4447#0000FFFF3FFFFFFF
(1547755055.171575) can0 0CFFFE06#5C531D531DFFFFFF
(1547755055.177594) can0 0CF00300#FF0001FF06FFFFFF
(1547755055.178167) can0 0CEFFF00#64061F7DFFFFFFFF
(1547755055.187399) can0 0DEF0603#0101FFFFFFFFFFF5
(1547755055.187946) can0 0CF00400#FEFF97DE1CFFFFFF
(1547755055.188600) can0 04EF0006#64151BF0E518930E
(1547755055.192674) can0 18FEE500#CD0A0000FFFFFFFF
(1547755055.196694) can0 1CFFFF17#22FFFF3CFFFFFFFF
(1547755055.197647) can0 0CF00300#FF0017FF06FFFFFF
(1547755055.198217) can0 0CEFFF00#64061C7DFFFFFFFF
(1547755055.198793) can0 18FEF200#1A00FFFFFFFFFFFF
(1547755055.207391) can0 0DEF0603#0101FFFFFFFFFFF5
(1547755055.207988) can0 0CF00400#FEFF96E01CFFFFFF
(1547755055.208587) can0 04EF0006#64151CF0EF18930E
(1547755055.209163) can0 0CFFFE06#5C271D271DFFFFFF
(1547755055.209692) can0 18FEF147#FF0000FFFFFFFFFF
(1547755055.210310) can0 18FFFB06#00059FF8FFFFFFFF
(1547755055.210936) can0 18F00503#7DFFFFFFFFFFFFFF
(1547755055.217759) can0 0CF00300#FF0013FF07FFFFFF
(1547755055.218333) can0 0CEFFF00#6406FB7CFFFFFFFF
(1547755055.218905) can0 18EF0600#640EF300FFFFFFFF
(1547755055.227383) can0 0DEF0603#0101FFFFFFFFFFF5
(1547755055.227979) can0 0CF00400#FEFF89DE1CFFFFFF
(1547755055.228599) can0 04EF0006#64151DF0E518A90E
(1547755055.237540) can0 0CF00300#FF0019FF06FFFFFF
(1547755055.238173) can0 0CEFFF00#6406087DFFFFFFFF
(1547755055.238720) can0 18EFFF00#64100101E302057D
(1547755055.239288) can0 18FED500#FFFFFDFFFFFFFFFF
(1547755055.246886) can0 0DEF0647#0104FFFFFFFFFFF1
(1547755055.247592) can0 0DEF0603#0101FFFFFFFFFFF5
(1547755055.248133) can0 0CF00400#FEFF8EAC1CFFFFFF
(1547755055.248768) can0 04EF0006#64151EF0EF18930E
(1547755055.249340) can0 0CFFFE06#5C271D271DFFFFFF
(1547755055.257582) can0 0CF00300#FF0022FF07FFFFFF
(1547755055.258136) can0 0CEFFF00#64062D7DFFFFFFFF
(1547755055.267356) can0 0DEF0603#0101FFFFFFFFFFF5
(1547755055.267959) can0 0CF00400#FEFF9D6A1CFFFFFF
(1547755055.268554) can0 04EF0006#64151FF0E818A90E
(1547755055.277546) can0 0CF00300#FF001EFF06FFFFFF
(1547755055.278127) can0 0CEFFF00#6406197DFFFFFFFF
(1547755055.278729) can0 18FDB300#FFFF7829FFFFFFFF
(1547755055.287348) can0 0DEF0603#0101FFFFFFFFFFF5
(1547755055.287949) can0 0CF00400#FEFF955E1CFFFFFF
(1547755055.288570) can0 04EF0006#641510F0C118930E
(1547755055.289113) can0 0CFE4947#FFFFFFFFFFFFFFFF
(1547755055.289688) can0 0CFFFF47#5DFFFFF3FFFFFFFF
(1547755055.290287) can0 0CFE4347#0000FFFF3FFFFFFF
(1547755055.290917) can0 0CFE4447#0000FFFF3FFFFFFF
(1547755055.291473) can0 0CFFFE06#5C271D271DFFFFFF
(1547755055.297688) can0 0CF00300#FF0020FF06FFFFFF
(1547755055.298265) can0 0CEFFF00#6406337DFFFFFFFF
(1547755055.298844) can0 18FEF200#2500FFFFFFFFFFFF
(1547755055.307308) can0 0DEF0603#0101FFFFFFFFFFF5
(1547755055.307911) can0 0CF00400#F0FF9F621CFFFFFF
(1547755055.308539) can0 04EF0006#641511F0C618930E
(1547755055.317532) can0 0CF00300#FF0022FF06FFFFFF
(1547755055.318133) can0 0CEFFF00#64062B7DFFFFFFFF
(1547755055.318706) can0 18EF0600#640EFD00FFFFFFFF
(1547755055.327293) can0 0DEF0603#0101FFFFFFFFFFF5
(1547755055.327929) can0 0CF00400#F0FF9C681CFFFFFF
(1547755055.328551) can0 04EF0006#641512F07319930E
(1547755055.329061) can0 18FEF147#FF0000FFFFFFFFFF
(1547755055.329691) can0 18FFFB06#0005B5F8FFFFFFFF
(1547755055.330327) can0 18FFFB06#001BFFFFFFFFFFFF
(1547755055.330899) can0 18F00503#7DFFFFFFFFFFFFFF
(1547755055.337486) can0 0CF00300#FF0021FF06FFFFFF
(1547755055.338090) can0 0CEFFF00#6406297DFFFFFFFF
(1547755055.338643) can0 18EFFF00#64100101DE02037D
(1547755055.339215) can0 18FEDF00#8B201CFFFFFFFFFF
(1547755055.346838) can0 0DEF0647#0104FFFFFFFFFFF1
(1547755055.347435) can0 0DEF0603#0101FFFFFFFFFFF5
(1547755055.348010) can0 0CF00400#F0FF9B781CFFFFFF
(1547755055.348623) can0 04EF0006#641513F0D018930E
(1547755055.357526) can0 0CF00300#FF0020FF06FFFFFF
(1547755055.358105) can0 0CEFFF00#6406277DFFFFFFFF
(1547755055.358683) can0 18FEEF00#FFFFFF64FFFFFFFA
(1547755055.367303) can0 0DEF0603#0101FFFFFFFFFFF5
(1547755055.367902) can0 0CF00400#F0FF9A801CFFFFFF
(1547755055.368499) can0 04EF0006#641514F02F19930E
(1547755055.369075) can0 0CFE4947#FFFFFFFFFFFFFFFF
(1547755055.369649) can0 18FE6847#3CFFFFFFFFFFFFFF
(1547755055.370234) can0 0CFE4347#0000FFFF3FFFFFFF
(1547755055.370874) can0 18FFFF06#73FFFFFFFFFFFFFF
(1547755055.371396) can0 0CFE4447#0000FFFF3FFFFFFF
(1547755055.377497) can0 0CF00300#FF0020FF07FFFFFF
(1547755055.378070) can0 0CEFFF00#6406257DFFFFFFFF
(1547755055.387265) can0 0DEF0603#0101FFFFFFFFFFF5
(1547755055.387867) can0 0CF00400#F0FF997C1CFFFFFF
(1547755055.388469) can0 04EF0006#641515F02A19A90E
(1547755055.397561) can0 0CF00300#FF001FFF06FFFFFF
(1547755055.398162) can0 0CEFFF00#6406257DFFFFFFFF
(1547755055.398759) can0 18FEF200#1E00FFFFFFFFFFFF
(1547755055.407285) can0 0DEF0603#0101FFFFFFFFFFF5
(1547755055.407881) can0 0CF00400#FEFF99821CFFFFFF
(1547755055.408505) can0 04EF0006#641516F02F19930E
(1547755055.409051) can0 0CFFFF47#5EFFFFFFFFFFFFFF
(1547755055.409623) can0 18FEF147#FF0000FFFFFFFFFF
(1547755055.410204) can0 0CFFFE06#5C271D271DFFFFFF
(1547755055.410785) can0 18FEFC47#FFFFFFFFFFFFFFFF
(1547755055.411354) can0 18EF0047#F220610FFFFFFFFF
(1547755055.411955) can0 18F00647#FFCFFFFFFFFFFFFF
(1547755055.412558) can0 1CFDDF47#FCFFFFFFFFFFFFFF
(1547755055.413155) can0 18F00503#7DFFFFFFFFFFFFFF
(1547755055.417476) can0 0CF00300#FF001CFF06FFFFFF
(1547755055.418050) can0 0CEFFF00#6406127DFFFFFFFF
(1547755055.418622) can0 18EF0600#640E0700FFFFFFFF
(1547755055.427245) can0 0DEF0603#0101FFFFFFFFFFF5
(1547755055.427871) can0 0CF00400#FEFF92821CFFFFFF
(1547755055.428496) can0 04EF0006#641517F02A19930E
(1547755055.437645) can0 0CF00300#FF001AFF06FFFFFF
(1547755055.438217) can0 0CEFFF00#6406087DFFFFFFFF
(1547755055.438790) can0 18EFFF00#64100101D902057D
(1547755055.439366) can0 18FEF600#FF003EFF00FFFFFF
(1547755055.446816) can0 0DEF0647#0104FFFFFFFFFFF1
(1547755055.447437) can0 0DEF0603#0101FFFFFFFFFFF5
(1547755055.447957) can0 0CF00400#FEFF8E761CFFFFFF
(1547755055.448585) can0 04EF0006#641518F02A19930E
(1547755055.449186) can0 18FFFB06#000590F8FFFFFFFF
(1547755055.457427) can0 0CF00300#FF001DFF07FFFFFF
(1547755055.458033) can0 0CEFFF00#6406197DFFFFFFFF
(1547755055.467285) can0 0DEF0603#0101FFFFFFFFFFF5
(1547755055.467851) can0 0CF00400#FEFF955C1CFFFFFF
(1547755055.468501) can0 04EF0006#641519F0C718A90E
(1547755055.477468) can0 0CF00300#FF0020FF07FFFFFF
(1547755055.478076) can0 0CEFFF00#6406217DFFFFFFFF
(1547755055.487271) can0 0DEF0603#0101FFFFFFFFFFF5
(1547755055.487842) can0 0CF00400#FEFF98341CFFFFFF
(1547755055.488415) can0 18FFFA00#022C0000180C0081
(1547755055.488941) can0 04EF0006#64151AF0C618A90E
(1547755055.489510) can0 0CFE4947#FFFFFFFFFFFFFFFF
(1547755055.490072) can0 0CFE4347#0000FFFF3FFFFFFF
(1547755055.490717) can0 0CFE4447#0000FFFF3FFFFFFF
(1547755055.491316) can0 0CFFFE06#5C531D531DFFFFFF
(1547755055.497490) can0 0CF00300#FF0026FF06FFFFFF
(1547755055.498087) can0 0CEFFF00#64063F7DFFFFFFFF
(1547755055.498629) can0 18FEF200#2A00FFFFFFFFFFFF
(1547755055.507228) can0 0DEF0603#0101FFFFFFFFFFF5
(1547755055.507807) can0 0CF00400#FEFFA31A1CFFFFFF
(1547755055.508427) can0 04EF0006#64151BF00719930E
(1547755055.517427) can0 0CF00300#FF0025FF07FFFFFF
(1547755055.517991) can0 0CEFFF00#6406357DFFFFFFFF
(1547755055.518608) can0 18EF0600#640E1100FFFFFFFF
(1547755055.519145) can0 18FEF500#C8FFFFFFFF3AFFFF
(1547755055.527226) can0 0DEF0603#0101FFFFFFFFFFF5
(1547755055.527821) can0 0CF00400#F0FF9F101CFFFFFF
(1547755055.528466) can0 04EF0006#64151CF00419A90E
(1547755055.529019) can0 0CFFFE06#5C531D531DFFFFFF
(1547755055.529599) can0 18FEF147#FF0000FFFFFFFFFF
(1547755055.530192) can0 18F00503#7DFFFFFFFFFFFFFF
(1547755055.537419) can0 0CF00300#FF0025FF06FFFFFF
(1547755055.537991) can0 0CEFFF00#6406317DFFFFFFFF
(1547755055.538545) can0 18EFFF00#64100101D502057D
(1547755055.546787) can0 0DEF0647#0104FFFFFFFFFFF1
(1547755055.547365) can0 0DEF0603#0101FFFFFFFFFFF5
(1547755055.547928) can0 0CF00400#F0FF9E101CFFFFFF
(1547755055.548587) can0 04EF0006#64151DF00919930E
(1547755055.557427) can0 0CF00300#FF0024FF07FFFFFF
(1547755055.558031) can0 0CEFFF00#6406317DFFFFFFFF
(1547755055.558581) can0 18FE6900#E224D227FFFF60FE
(1547755055.567203) can0 0DEF0603#0101FFFFFFFFFFF5
(1547755055.567803) can0 0CF00400#F0FF9E181CFFFFFF
(1547755055.568444) can0 04EF0006#64151EF00919A90E
(1547755055.569025) can0 0CFE4947#FFFFFFFFFFFFFFFF
(1547755055.569605) can0 18FFFB06#0005B2F8FFFFFFFF
(1547755055.570196) can0 0CFE4347#0000FFFF3FFFFFFF
(1547755055.570800) can0 0CFE4447#0000FFFF3FFFFFFF
(1547755055.571378) can0 0CFFFE06#5C531D531DFFFFFF
(1547755055.577452) can0 0CF00300#FF0024FF07FFFFFF
(1547755055.578025) can0 0CEFFF00#6406307DFFFFFFFF
(1547755055.587197) can0 0DEF0603#0101FFFFFFFFFFF5
(1547755055.587770) can0 0CF00400#F0FF9D201CFFFFFF
(1547755055.588324) can0 18FEDF00#8A201CFFFFFFFFFF
(1547755055.588895) can0 04EF0006#64151FF00419A90E
(1547755055.597435) can0 0CF00300#FF0022FF06FFFFFF
(1547755055.598042) can0 0CEFFF00#64062E7DFFFFFFFF
(1547755055.598642) can0 18FEF200#2300FFFFFFFFFFFF
(1547755055.607182) can0 0DEF0603#0101FFFFFFFFFFF5
(1547755055.607789) can0 0CF00400#FEFF9D361CFFFFFF
(1547755055.608376) can0 04EF0006#641510F00B19930E
(1547755055.608953) can0 0CFFFE06#5C271D271DFFFFFF
(1547755055.609533) can0 18FEF147#FF0000FFFFFFFFFF
(1547755055.610135) can0 18F00503#7DFFFFFFFFFFFFFF
(1547755055.617531) can0 0CF00300#FF0020FF07FFFFFF
(1547755055.618105) can0 0CEFFF00#6406277DFFFFFFFF
(1547755055.618652) can0 18EF0600#640E1B00FFFFFFFF
(1547755055.627178) can0 0DEF0603#0101FFFFFFFFFFF5
(1547755055.627751) can0 0CF00400#F0FF9A4A1CFFFFFF
(1547755055.628380) can0 04EF0006#641511F00719A90E
(1547755055.637370) can0 0CF00300#FF0021FF07FFFFFF
(1547755055.637973) can0 0CEFFF00#6406287DFFFFFFFF
(1547755055.638544) can0 18EFFF00#64100101D902057D
(1547755055.646687) can0 0DEF0647#0104FFFFFFFFFFF1
(1547755055.647343) can0 0DEF0603#0101FFFFFFFFFFF5
(1547755055.647893) can0 0CF00400#FEFF9B461CFFFFFF
(1547755055.648483) can0 04EF0006#641512F00B19A90E
(1547755055.649057) can0 0CFFFE06#5C531D531DFFFFFF
(1547755055.657664) can0 0CF00300#FF0020FF07FFFFFF
(1547755055.658238) can0 0CEFFF00#6406277DFFFFFFFF
(1547755055.667187) can0 0DEF0603#0101FFFFFFFFFFF5
(1547755055.667757) can0 0CF00400#FEFF9A481CFFFFFF
(1547755055.668406) can0 04EF0006#641513F07319A90E
(1547755055.677407) can0 0CF00300#FF0020FF06FFFFFF
(1547755055.677979) can0 0CEFFF00#6406287DFFFFFFFF
(1547755055.678552) can0 18FD7C00#F880F1F400CF03FD
(1547755055.687177) can0 0DEF0603#0101FFFFFFFFFFF5
(1547755055.687749) can0 0CF00400#FEFF9B4C1CFFFFFF
(1547755055.688396) can0 04EF0006#641514F00B19930E
(1547755055.688937) can0 0CFE4947#FFFFFFFFFFFFFFFF
(1547755055.689518) can0 18FFFB06#0005AAF8FFFFFFFF
(1547755055.690122) can0 0CFE4347#0000FFFF3FFFFFFF
(1547755055.690713) can0 0CFE4447#0000FFFF3FFFFFFF
(1547755055.691273) can0 0CFFFE06#5C271D271DFFFFFF
(1547755055.697417) can0 0CF00300#FF0021FF06FFFFFF
(1547755055.697965) can0 0CEFFF00#6406277DFFFFFFFF
(1547755055.698569) can0 18FEF200#1F00FFFFFFFFFFFF
(1547755055.707138) can0 0DEF0603#0101FFFFFFFFFFF5
(1547755055.707711) can0 0CF00400#F0FF9A441CFFFFFF
(1547755055.708290) can0 0C000006#30FFFFFFF8FFFFFF
(1547755055.708828) can0 04EF0006#641515F00B19930E
(1547755055.717346) can0 0CF00300#FF0021FF07FFFFFF
(1547755055.717958) can0 0CEFFF00#6406287DFFFFFFFF
(1547755055.718501) can0 18EF0600#640E2500FFFFFFFF
(1547755055.727129) can0 0DEF0603#0101FFFFFFFFFFF5
(1547755055.727727) can0 0CF00400#F0FF9B441CFFFFFF
(1547755055.728323) can0 04EF0006#641516F07319A90E
(1547755055.728878) can0 0CFFFE06#5C531D531DFFFFFF
(1547755055.729452) can0 18FEF147#FF0000FFFFFFFFFF
(1547755055.730074) can0 18F00503#7DFFFFFFFFFFFFFF
(1547755055.737448) can0 0CF00300#FF0021FF07FFFFFF
(1547755055.738021) can0 0CEFFF00#6406287DFFFFFFFF
(1547755055.738593) can0 18EFFF00#64100101D802057D
(1547755055.746694) can0 0DEF0647#0104FFFFFFFFFFF1
(1547755055.747338) can0 0DEF0603#0101FFFFFFFFFFF5
(1547755055.747915) can0 0CF00400#FEFF9B4C1CFFFFFF
(1547755055.748570) can0 04EF0006#641517F07319A90E
(1547755055.757387) can0 0CF00300#FF001FFF06FFFFFF
(1547755055.757964) can0 0CEFFF00#6406247DFFFFFFFF
(1547755055.767106) can0 0DEF0603#0101FFFFFFFFFFF5
(1547755055.767709) can0 0CF00400#FEFF994C1CFFFFFF
(1547755055.768356) can0 04EF0006#641518F00B19930E
(1547755055.768880) can0 0CFE4947#FFFFFFFFFFFFFFFF
(1547755055.769481) can0 0CFFFF47#5DFFFFF3FFFFFFFF
(1547755055.770109) can0 0CFE4347#0000FFFF3FFFFFFF
(1547755055.770649) can0 0CFE4447#0000FFFF3FFFFFFF
(1547755055.771252) can0 0CFFFE06#5C271D271DFFFFFF
(1547755055.777303) can0 0CF00300#FF0021FF07FFFFFF
(1547755055.777876) can0 0CEFFF00#6406297DFFFFFFFF
(1547755055.778447) can0 18FDB300#FFFF8429FFFFFFFF
(1547755055.779051) can0 1CEFFF00#64070000FFFFFFFF
(1547755055.787098) can0 0DEF0603#0101FFFFFFFFFFF5
(1547755055.787672) can0 0CF00400#F0FF9B481CFFFFFF
(1547755055.788300) can0 04EF0006#641519F00B19A90E
(1547755055.797393) can0 0CF00300#FF0021FF07FFFFFF
(1547755055.797993) can0 0CEFFF00#6406277DFFFFFFFF
(1547755055.798533) can0 18FEF200#1F00FFFFFFFFFFFF
(1547755055.807089) can0 0DEF0603#0101FFFFFFFFFFF5
(1547755055.807691) can0 0CF00400#FEFF9A4A1CFFFFFF
(1547755055.808311) can0 04EF0006#64151AF00B19A90E
(1547755055.808821) can0 0CFFFE06#5C531D531DFFFFFF
(1547755055.809425) can0 18FEF147#FF0000FFFFFFFFFF
(1547755055.810034) can0 18FFFB06#0005ACF8FFFFFFFF
(1547755055.810661) can0 18F00503#7DFFFFFFFFFFFFFF
(1547755055.817303) can0 0CF00300#FF0020FF06FFFFFF
(1547755055.817880) can0 0CEFFF00#6406267DFFFFFFFF
(1547755055.818427) can0 18EF0600#640E2F00FFFFFFFF
(1547755055.827077) can0 0DEF0603#0101FFFFFFFFFFF5
(1547755055.827650) can0 0CF00400#FEFF9A4A1CFFFFFF
(1547755055.828278) can0 04EF0006#64151BF00B19930E
(1547755055.837420) can0 0CF00300#FF0022FF07FFFFFF
(1547755055.838021) can0 0CEFFF00#6406277DFFFFFFFF
(1547755055.838597) can0 18EFFF00#64100101D902057D
(1547755055.839138) can0 18FEDF00#8B401CFFFFFFFFFF
(1547755055.846638) can0 0DEF0647#0104FFFFFFFFFFF1
(1547755055.847247) can0 0DEF0603#0101FFFFFFFFFFF5
(1547755055.847784) can0 0CF00400#F0FF9A3E1CFFFFFF
(1547755055.848385) can0 04EF0006#64151CF00B19A90E
(1547755055.848965) can0 0CFFFE06#5C531D531DFFFFFF
(1547755055.849538) can0 18FFFF06#73FFFFFFFFFFFFFF
(1547755055.857283) can0 0CF00300#FF0021FF07FFFFFF
(1547755055.857861) can0 0CEFFF00#6406277DFFFFFFFF
(1547755055.858407) can0 18FEEF00#FFFFFF64FFFFFFFA
(1547755055.867058) can0 0DEF0603#0101FFFFFFFFFFF5
(1547755055.867630) can0 0CF00400#FEFF9A441CFFFFFF
(1547755055.868258) can0 04EF0006#64151DF0CC18A90E
(1547755055.876323) can0 1CFFFF17#22FFFF3CFFFFFFFF
(1547755055.877505) can0 0CF00300#FF0020FF06FFFFFF
(1547755055.878078) can0 0CEFFF00#6406287DFFFFFFFF
(1547755055.887077) can0 0DEF0603#0101FFFFFFFFFFF5
(1547755055.887649) can0 0CF00400#FEFF9B4A1CFFFFFF
(1547755055.888273) can0 04EF0006#64151EF07319930E
(1547755055.888876) can0 0CFE4947#FFFFFFFFFFFFFFFF
(1547755055.889448) can0 1CFDDF47#FCFFFFFFFFFFFFFF
(1547755055.890022) can0 0CFE4347#0000FFFF3FFFFFFF
(1547755055.890613) can0 0CFE4447#0000FFFF3FFFFFFF
(1547755055.891166) can0 0CFFFE06#5C271D271DFFFFFF
(1547755055.897287) can0 0CF00300#FF0021FF06FFFFFF
(1547755055.897835) can0 0CEFFF00#6406257DFFFFFFFF
(1547755055.898421) can0 18FEF200#1E00FFFFFFFFFFFF
(1547755055.907039) can0 0DEF0603#0101FFFFFFFFFFF5
(1547755055.907609) can0 0CF00400#F0FF99421CFFFFFF
(1547755055.908239) can0 04EF0006#64151FF00B19930E
(1547755055.917379) can0 0CF00300#FF0021FF07FFFFFF
(1547755055.917983) can0 0CEFFF00#6406267DFFFFFFFF
(1547755055.918582) can0 18EF0600#640E3900FFFFFFFF
(1547755055.927028) can0 0DEF0603#0101FFFFFFFFFFF5
(1547755055.927629) can0 0CF00400#F0FF9A3A1CFFFFFF
(1547755055.928278) can0 04EF0006#641510F07319A90E
(1547755055.928792) can0 0CFFFE06#5C531D531DFFFFFF
(1547755055.929368) can0 18FEF147#FF0000FFFFFFFFFF
(1547755055.929977) can0 18F00647#FFCFFFFFFFFFFFFF
(1547755055.930600) can0 18FFFB06#0005A4F8FFFFFFFF
(1547755055.931179) can0 18F00503#7DFFFFFFFFFFFFFF
(1547755055.937244) can0 0CF00300#FF0021FF07FFFFFF
(1547755055.937822) can0 0CEFFF00#6406277DFFFFFFFF
(1547755055.938400) can0 18EFFF00#64100101D702057D
(1547755055.938972) can0 18FEF600#FF003DFF00FFFFFF
(1547755055.946593) can0 0DEF0647#0104FFFFFFFFFFF1
(1547755055.947169) can0 0DEF0603#0101FFFFFFFFFFF5
(1547755055.947709) can0 0CF00400#FEFF9A3A1CFFFFFF
(1547755055.948354) can0 04EF0006#641511F0D018A90E
(1547755055.957213) can0 18EFFA00#6401FF0000FFFFFF
(1547755055.957786) can0 0CEFFF00#64062C7DFFFFFFFF
(1547755055.958390) can0 0CF00300#FF0022FF07FFFFFF
(1547755055.967007) can0 0DEF0603#0101FFFFFFFFFFF5
(1547755055.967610) can0 0CF00400#FEFF9C321CFFFFFF
(1547755055.968227) can0 04EF0006#641512F0CC18A90E
(1547755055.968805) can0 0CFE4947#FFFFFFFFFFFFFFFF
(1547755055.969386) can0 0CFE4347#0000FFFF3FFFFFFF
(1547755055.969972) can0 0CFE4447#0000FFFF3FFFFFFF
(1547755055.977224) can0 0CF00300#FF0024FF06FFFFFF
(1547755055.977801) can0 0CEFFF00#64062D7DFFFFFFFF
(1547755055.987000) can0 0DEF0603#0101FFFFFFFFFFF5
(1547755055.987571) can0 0CF00400#FEFF9D2A1CFFFFFF
(1547755055.988200) can0 04EF0006#641513F00719930E
(1547755055.997244) can0 0CF00300#FF0022FF06FFFFFF
(1547755055.997845) can0 0CEFFF00#64062B7DFFFFFFFF
(1547755055.998418) can0 18FEF200#2000FFFFFFFFFFFF
(1547755056.007019) can0 0DEF0603#0101FFFFFFFFFFF5
(1547755056.007588) can0 0CF00400#F0FF9C341CFFFFFF
(1547755056.008236) can0 04EF0006#641514F01119930E
(1547755056.008754) can0 0CFFFE06#5C271D271DFFFFFF
(1547755056.009325) can0 18FEF147#FF0000FFFFFFFFFF
(1547755056.009928) can0 18F00503#7DFFFFFFFFFFFFFF
(1547755056.017249) can0 0CF00300#FF0021FF07FFFFFF
(1547755056.017858) can0 0CEFFF00#6406287DFFFFFFFF
(1547755056.018403) can0 18EF0600#640E4300FFFFFFFF
(1547755056.026972) can0 0DEF0603#0101FFFFFFFFFFF5
(1547755056.027551) can0 0CF00400#F0FF9B3A1CFFFFFF
(1547755056.028179) can0 04EF0006#641515F00719A90E
(1547755056.037174) can0 0CF00300#FF0021FF06FFFFFF
(1547755056.037777) can0 0CEFFF00#6406277DFFFFFFFF
(1547755056.038348) can0 18EFFF00#64100101D702057D
(1547755056.046537) can0 0DEF0647#0104FFFFFFFFFFF1
(1547755056.047149) can0 0DEF0603#0101FFFFFFFFFFF5
(1547755056.047717) can0 0CF00400#FEFF9A341CFFFFFF
(1547755056.048305) can0 04EF0006#641516F0CC18930E
(1547755056.048858) can0 0CFFFE06#5C271D271DFFFFFF
(1547755056.049463) can0 18FFFB06#0005AAF8FFFFFFFF
(1547755056.057405) can0 0CF00300#FF0022FF06FFFFFF
(1547755056.058014) can0 0CEFFF00#64062E7DFFFFFFFF
(1547755056.058558) can0 18FEEE00#5542FFFFFFFFFFFF
(1547755056.066951) can0 0DEF0603#0101FFFFFFFFFFF5
(1547755056.067557) can0 0CF00400#F0FF9D321CFFFFFF
(1547755056.068178) can0 04EF0006#641517F00719930E
(1547755056.077174) can0 0CF00300#FF0021FF06FFFFFF
(1547755056.077779) can0 0CEFFF00#6406287DFFFFFFFF
(1547755056.086974) can0 0DEF0603#0101FFFFFFFFFFF5
(1547755056.087549) can0 0CF00400#F0FF9B341CFFFFFF
(1547755056.088122) can0 18FEDF00#8B201CFFFFFFFFFF
(1547755056.088671) can0 04EF0006#641518F00719930E
(1547755056.089214) can0 0CFE4947#FFFFFFFFFFFFFFFF
(1547755056.089786) can0 0CFE4347#0000FFFF3FFFFFFF
(1547755056.090423) can0 0CFE4447#0000FFFF3FFFFFFF
(1547755056.097179) can0 0CF00300#FF0021FF06FFFFFF
(1547755056.097794) can0 0CEFFF00#6406277DFFFFFFFF
(1547755056.098358) can0 18FEF200#1F00FFFFFFFFFFFF
(1547755056.106940) can0 0DEF0603#0101FFFFFFFFFFF5
(1547755056.107511) can0 0CF00400#F0FF9A2E1CFFFFFF
(1547755056.108155) can0 04EF0006#641519F00719930E
(1547755056.117151) can0 0CF00300#FF0021FF06FFFFFF
(1547755056.117734) can0 0CEFFF00#6406287DFFFFFFFF
(1547755056.118307) can0 18EF0600#640E4D00FFFFFFFF
(1547755056.126923) can0 0DEF0603#0101FFFFFFFFFFF5
(1547755056.127529) can0 0CF00400#F0FF9B2E1CFFFFFF
(1547755056.128150) can0 04EF0006#64151AF01119930E
(1547755056.128693) can0 18FEF147#FF0000FFFFFFFFFF
(1547755056.129297) can0 18F00503#7DFFFFFFFFFFFFFF
(1547755056.137175) can0 0CF00300#FF0021FF06FFFFFF
(1547755056.137721) can0 0CEFFF00#6406287DFFFFFFFF
(1547755056.138301) can0 18EFFF00#64100101D602057D
(1547755056.138870) can0 18FEF700#FFFFFFFFFFFF0201
(1547755056.146494) can0 0DEF0647#0104FFFFFFFFFFF1
(1547755056.147070) can0 0DEF0603#0101FFFFFFFFFFF5
(1547755056.147636) can0 0CF00400#F0FF9B301CFFFFFF
(1547755056.148265) can0 04EF0006#64151BF01119930E
(1547755056.157125) can0 0CF00300#FF0021FF07FFFFFF
(1547755056.157729) can0 0CEFFF00#6406277DFFFFFFFF
(1547755056.166932) can0 0DEF0603#0101FFFFFFFFFFF5
(1547755056.167508) can0 0CF00400#F0FF9A2C1CFFFFFF
(1547755056.168155) can0 04EF0006#64151CF00719A90E
(1547755056.168706) can0 0CFE4947#FFFFFFFFFFFFFFFF
(1547755056.169285) can0 18FFFB06#0005A9F8FFFFFFFF
(1547755056.169876) can0 0CFE4347#0000FFFF3FFFFFFF
(1547755056.170472) can0 0CFE4447#0000FFFF3FFFFFFF
(1547755056.171057) can0 0CFFFE06#5C531D531DFFFFFF
(1547755056.177147) can0 0CF00300#FF0022FF06FFFFFF
(1547755056.177741) can0 0CEFFF00#6406287DFFFFFFFF
(1547755056.185994) can0 18EAFF06#E5FE00
(1547755056.186971) can0 0DEF0603#0101FFFFFFFFFFF5
(1547755056.187547) can0 0CF00400#FEFF9B221CFFFFFF
(1547755056.188196) can0 04EF0006#64151DF01119930E
(1547755056.192925) can0 18FEE500#CD0A0000FFFFFFFF
(1547755056.197193) can0 0CF00300#FF0024FF06FFFFFF
(1547755056.197746) can0 0CEFFF00#6406357DFFFFFFFF
(1547755056.198342) can0 18FEF200#2500FFFFFFFFFFFF
(1547755056.206915) can0 0DEF0603#0101FFFFFFFFFFF5
(1547755056.207489) can0 0CF00400#F0FFA01E1CFFFFFF
(1547755056.208091) can0 04EF0006#64151EF00B19930E
(1547755056.208636) can0 0CFFFE06#5C271D271DFFFFFF
(1547755056.209257) can0 18FEF147#FF0000FFFFFFFFFF
(1547755056.209864) can0 18FEE706#CC0A0000FFFFFFFF
(1547755056.210489) can0 18F00503#7DFFFFFFFFFFFFFF
(1547755056.217158) can0 0CF00300#FF0022FF07FFFFFF
(1547755056.217708) can0 0CEFFF00#64062B7DFFFFFFFF
(1547755056.218282) can0 18EF0600#640E5700FFFFFFFF
(1547755056.226929) can0 0DEF0603#0101FFFFFFFFFFF5
(1547755056.227444) can0 0CF00400#F0FF9B181CFFFFFF
(1547755056.228149) can0 04EF0006#64151FF00419A90E
(1547755056.237299) can0 0CF00300#FF0023FF07FFFFFF
(1547755056.237875) can0 0CEFFF00#64062C7DFFFFFFFF
(1547755056.238422) can0 18EFFF00#64100101D502057D
(1547755056.239025) can0 18FED500#FFFFFDFFFFFFFFFF
(1547755056.246469) can0 0DEF0647#0104FFFFFFFFFFF1
(1547755056.247143) can0 0DEF0603#0101FFFFFFFFFFF5
(1547755056.247719) can0 0CF00400#FEFF9C0C1CFFFFFF
(1547755056.248363) can0 04EF0006#641510F00419A90E
(1547755056.248908) can0 0CFFFE06#5C531D531DFFFFFF
(1547755056.257076) can0 0CF00300#FF0023FF07FFFFFF
(1547755056.257654) can0 0CEFFF00#64063B7DFFFFFFFF
(1547755056.266882) can0 0DEF0603#0101FFFFFFFFFFF5
(1547755056.267452) can0 0CF00400#F0FFA2121CFFFFFF
(1547755056.268131) can0 04EF0006#641511F00219A90E
(1547755056.277377) can0 0CF00300#FF0026FF06FFFFFF
(1547755056.277979) can0 0CEFFF00#64062D7DFFFFFFFF
(1547755056.278555) can0 18FDB300#FFFF9029FFFFFFFF
(1547755056.286899) can0 0DEF0603#0101FFFFFFFFFFF5
(1547755056.287476) can0 0CF00400#F0FF9C181CFFFFFF
(1547755056.288148) can0 04EF0006#641512F00919930E
(1547755056.288664) can0 0CFE4947#FFFFFFFFFFFFFFFF
(1547755056.289269) can0 18FFFB06#0005BDF8FFFFFFFF
(1547755056.289876) can0 0CFFFF47#5DFFFFF3FFFFFFFF
(1547755056.290436) can0 0CFE4347#0000FFFF3FFFFFFF
(1547755056.291046) can0 0CFE4447#0000FFFF3FFFFFFF
(1547755056.291620) can0 0CFFFE06#5C271D271DFFFFFF
(1547755056.297085) can0 0CF00300#FF0025FF06FFFFFF
(1547755056.297688) can0 0CEFFF00#64062C7DFFFFFFFF
(1547755056.298266) can0 18FEF200#2000FFFFFFFFFFFF
(1547755056.306863) can0 0DEF0603#0101FFFFFFFFFFF5
(1547755056.307433) can0 0CF00400#F0FF9C101CFFFFFF
(1547755056.308110) can0 04EF0006#641513F00419930E
(1547755056.317108) can0 0CF00300#FF0023FF07FFFFFF
(1547755056.317710) can0 0CEFFF00#64062E7DFFFFFFFF
(1547755056.318282) can0 18EF0600#640E6100FFFFFFFF
(1547755056.326834) can0 0DEF0603#0101FFFFFFFFFFF5
(1547755056.327430) can0 0CF00400#F0FF9D0C1CFFFFFF
(1547755056.328127) can0 04EF0006#641514F00919A90E
(1547755056.328644) can0 0CFFFE06#5C531D531DFFFFFF
(1547755056.329228) can0 18FEF147#FF0000FFFFFFFFFF
(1547755056.329844) can0 18FFFB06#001BFFFFFFFFFFFF
(1547755056.330450) can0 18F00503#7DFFFFFFFFFFFFFF
(1547755056.337072) can0 0CF00300#FF0024FF06FFFFFF
(1547755056.337619) can0 0CEFFF00#64062E7DFFFFFFFF
(1547755056.338195) can0 18EFFF00#64100101D402057D
(1547755056.338766) can0 18FEDF00#8A201CFFFFFFFFFF
(1547755056.346389) can0 0DEF0647#0104FFFFFFFFFFF1
(1547755056.346990) can0 0DEF0603#0101FFFFFFFFFFF5
(1547755056.347552) can0 0CF00400#FEFF9D0C1CFFFFFF
(1547755056.348193) can0 04EF0006#641515F00219930E
(1547755056.357163) can0 0CF00300#FF0024FF06FFFFFF
(1547755056.357786) can0 0CEFFF00#6406387DFFFFFFFF
(1547755056.358329) can0 18FEEF00#FFFFFF64FFFFFFFA
(1547755056.366856) can0 0DEF0603#0101FFFFFFFFFFF5
(1547755056.367434) can0 0CF00400#F0FFA0061CFFFFFF
(1547755056.368101) can0 04EF0006#641516F00219930E
(1547755056.368681) can0 0CFE4947#FFFFFFFFFFFFFFFF
(1547755056.369276) can0 18FE6847#3CFFFFFFFFFFFFFF
(1547755056.369821) can0 0CFE4347#0000FFFF3FFFFFFF
(1547755056.370392) can0 18FFFF06#73FFFFFFFFFFFFFF
(1547755056.370972) can0 0CFE4447#0000FFFF3FFFFFFF
(1547755056.371560) can0 0CFFFE06#5C271D271DFFFFFF
(1547755056.377070) can0 0CF00300#FF0025FF07FFFFFF
(1547755056.377621) can0 0CEFFF00#64062F7DFFFFFFFF
(1547755056.386819) can0 0DEF0603#0101FFFFFFFFFFF5
(1547755056.387387) can0 0CF00400#F0FF9DFE1BFFFFFF
(1547755056.388068) can0 04EF0006#641517F01319A90E
(1547755056.397031) can0 0CF00300#FF0024FF06FFFFFF
(1547755056.397596) can0 0CEFFF00#6406317DFFFFFFFF
(1547755056.398237) can0 18FEF200#2300FFFFFFFFFFFF
(1547755056.406834) can0 0DEF0603#0101FFFFFFFFFFF5
(1547755056.407409) can0 0CF00400#F0FF9E081CFFFFFF
(1547755056.408080) can0 04EF0006#641518F00C19930E
(1547755056.408627) can0 0CFFFF47#5EFFFFFFFFFFFFFF
(1547755056.409202) can0 18FEF147#FF0000FFFFFFFFFF
(1547755056.409780) can0 0CFFFE06#5C271D271DFFFFFF
(1547755056.410354) can0 18FEFC47#FFFFFFFFFFFFFFFF
(1547755056.410934) can0 18EF0047#F220610FFFFFFFFF
(1547755056.411522) can0 18F00647#FFCFFFFFFFFFFFFF
(1547755056.412126) can0 1CFDDF47#FCFFFFFFFFFFFFFF
(1547755056.412729) can0 18FFFB06#0005B1F8FFFFFFFF
(1547755056.413354) can0 18F00503#7DFFFFFFFFFFFFFF
(1547755056.417053) can0 0CF00300#FF0024FF07FFFFFF
(1547755056.417624) can0 0CEFFF00#64062F7DFFFFFFFF
(1547755056.418202) can0 18EF0600#640E6B00FFFFFFFF
(1547755056.426799) can0 0DEF0603#0101FFFFFFFFFFF5
(1547755056.427367) can0 0CF00400#F0FF9D101CFFFFFF
(1547755056.428047) can0 04EF0006#641519F00219A90E
(1547755056.436988) can0 0CF00300#FF0024FF06FFFFFF
(1547755056.437594) can0 0CEFFF00#64062F7DFFFFFFFF
(1547755056.438139) can0 18EFFF00#64100101D402057D
(1547755056.438712) can0 18FEF600#FF003DFF00FFFFFF
(1547755056.446339) can0 0DEF0647#0104FFFFFFFFFFF1
(1547755056.446967) can0 0DEF0603#0101FFFFFFFFFFF5
(1547755056.447505) can0 0CF00400#FEFF9D0A1CFFFFFF
(1547755056.448169) can0 04EF0006#64151AF00919930E
(1547755056.448706) can0 0CFFFE06#5C271D271DFFFFFF
(1547755056.457159) can0 0CF00300#FF0024FF06FFFFFF
(1547755056.457729) can0 0CEFFF00#6406387DFFFFFFFF
(1547755056.466778) can0 0DEF0603#0101FFFFFFFFFFF5
(1547755056.467379) can0 0CF00400#F0FFA00A1CFFFFFF
(1547755056.468024) can0 04EF0006#64151BF00219930E
(1547755056.477000) can0 0CF00300#FF0024FF06FFFFFF
(1547755056.477601) can0 0CEFFF00#6406307DFFFFFFFF
(1547755056.486797) can0 0DEF0603#0101FFFFFFFFFFF5
(1547755056.487368) can0 0CF00400#F0FF9D101CFFFFFF
(1547755056.487940) can0 18FFFA00#022C0000180C0081
(1547755056.488493) can0 04EF0006#64151CF00219930E
(1547755056.489036) can0 0CFE4947#FFFFFFFFFFFFFFFF
(1547755056.489635) can0 0CFE4347#0000FFFF3FFFFFFF
(1547755056.490270) can0 0CFE4447#0000FFFF3FFFFFFF
(1547755056.497010) can0 0CF00300#FF0024FF06FFFFFF
(1547755056.497615) can0 0CEFFF00#64062F7DFFFFFFFF
(1547755056.498155) can0 18FEF200#2300FFFFFFFFFFFF
(1547755056.506759) can0 0DEF0603#0101FFFFFFFFFFF5
(1547755056.507328) can0 0CF00400#F0FF9D121CFFFFFF
(1547755056.508010) can0 04EF0006#64151DF00919930E
(1547755056.516951) can0 0CF00300#FF0024FF06FFFFFF
(1547755056.517554) can0 0CEFFF00#64062F7DFFFFFFFF
(1547755056.518127) can0 18EF0600#640E7500FFFFFFFF
(1547755056.518676) can0 18FEF500#C8FFFFFFFF3AFFFF
(1547755056.526744) can0 0DEF0603#0101FFFFFFFFFFF5
(1547755056.527349) can0 0CF00400#F0FF9D181CFFFFFF
(1547755056.527992) can0 04EF0006#64151EF00919930E
(1547755056.528599) can0 18FEF147#FF0000FFFFFFFFFF
(1547755056.529195) can0 18FFFB06#0005B2F8FFFFFFFF
(1547755056.529768) can0 18F00503#7DFFFFFFFFFFFFFF
(1547755056.535991) can0 1CFFFF17#22FFFF3CFFFFFFFF
(1547755056.536994) can0 0CF00300#FF0023FF06FFFFFF
(1547755056.537595) can0 0CEFFF00#64062E7DFFFFFFFF
(1547755056.538139) can0 18EFFF00#64100101D502057D
(1547755056.546317) can0 0DEF0647#0104FFFFFFFFFFF1
(1547755056.546937) can0 0DEF0603#0101FFFFFFFFFFF5
(1547755056.547489) can0 0CF00400#F0FF9D221CFFFFFF
(1547755056.548161) can0 04EF0006#64151FF00419930E
(1547755056.556987) can0 0CF00300#FF0023FF07FFFFFF
(1547755056.557560) can0 0CEFFF00#64062C7DFFFFFFFF
(1547755056.558100) can0 18FE6900#C224D427FFFF60FE
(1547755056.566724) can0 0DEF0603#0101FFFFFFFFFFF5
(1547755056.567327) can0 0CF00400#F0FF9C221CFFFFFF
(1547755056.567918) can0 04EF0006#641510F00B19A90E
(1547755056.568497) can0 0CFE4947#FFFFFFFFFFFFFFFF
(1547755056.569105) can0 0CFE4347#0000FFFF3FFFFFFF
(1547755056.569700) can0 0CFE4447#0000FFFF3FFFFFFF
(1547755056.570275) can0 0CFFFE06#5C531D531DFFFFFF
(1547755056.576947) can0 0CF00300#FF0023FF06FFFFFF
(1547755056.577527) can0 0CEFFF00#64062C7DFFFFFFFF
(1547755056.586696) can0 0DEF0603#0101FFFFFFFFFFF5
(1547755056.587271) can0 0CF00400#FEFF9C1C1CFFFFFF
(1547755056.587849) can0 18FEDF00#8A2A1CFFFFFFFFFF
(1547755056.588398) can0 04EF0006#641511F00B19930E
(1547755056.596986) can0 0CF00300#FF0025FF07FFFFFF
(1547755056.597597) can0 0CEFFF00#6406347DFFFFFFFF
(1547755056.598168) can0 18FEF200#2400FFFFFFFFFFFF
(1547755056.606706) can0 0DEF0603#0101FFFFFFFFFFF5
(1547755056.607313) can0 0CF00400#F0FF9F1C1CFFFFFF
(1547755056.607952) can0 04EF0006#641512F00419A90E
(1547755056.608540) can0 0CFFFE06#5C531D531DFFFFFF
(1547755056.609112) can0 18FEF147#FF0000FFFFFFFFFF
(1547755056.609739) can0 18F00503#7DFFFFFFFFFFFFFF
(1547755056.616926) can0 0CF00300#FF0024FF06FFFFFF
(1547755056.617536) can0 0CEFFF00#64062E7DFFFFFFFF
(1547755056.618080) can0 18EF0600#640E7F00FFFFFFFF
(1547755056.626697) can0 0DEF0603#0101FFFFFFFFFFF5
(1547755056.627303) can0 0CF00400#FEFF9D181CFFFFFF
(1547755056.627941) can0 04EF0006#641513F00419930E
(1547755056.636941) can0 0CF00300#FF0024FF06FFFFFF
(1547755056.637550) can0 0CEFFF00#6406337DFFFFFFFF
(1547755056.638120) can0 18EFFF00#64100101D602057D
(1547755056.646238) can0 0DEF0647#0104FFFFFFFFFFF1
(1547755056.646873) can0 0DEF0603#0101FFFFFFFFFFF5
(1547755056.647444) can0 0CF00400#F0FF9E0E1CFFFFFF
(1547755056.648093) can0 04EF0006#641514F00419930E
(1547755056.648630) can0 0CFFFE06#5C271D271DFFFFFF
(1547755056.649233) can0 18FFFB06#0005B2F8FFFFFFFF
(1547755056.656883) can0 0CF00300#FF0024FF06FFFFFF
(1547755056.657490) can0 0CEFFF00#6406307DFFFFFFFF
(1547755056.666709) can0 0DEF0603#0101FFFFFFFFFFF5
(1547755056.667254) can0 0CF00400#F0FF9D1A1CFFFFFF
(1547755056.667932) can0 04EF0006#641515F00219930E
(1547755056.677070) can0 0CF00300#FF0023FF07FFFFFF
(1547755056.677644) can0 0CEFFF00#64062E7DFFFFFFFF
(1547755056.678220) can0 18FD7C00#F880F1F000CF03FD
(1547755056.686703) can0 0DEF0603#0101FFFFFFFFFFF5
(1547755056.687280) can0 0CF00400#F0FF9D2A1CFFFFFF
(1547755056.687950) can0 04EF0006#641516F00419A90E
(1547755056.688527) can0 0CFE4947#FFFFFFFFFFFFFFFF
(1547755056.689124) can0 0CFE4347#0000FFFF3FFFFFFF
(1547755056.689727) can0 0CFE4447#0000FFFF3FFFFFFF
(1547755056.690267) can0 0CFFFE06#5C531D531DFFFFFF
(1547755056.696908) can0 0CF00300#FF0023FF06FFFFFF
(1547755056.697477) can0 0CEFFF00#64062B7DFFFFFFFF
(1547755056.698046) can0 18FEF200#2000FFFFFFFFFFFF
(1547755056.706654) can0 0DEF0603#0101FFFFFFFFFFF5
(1547755056.707237) can0 0CF00400#FEFF9C281CFFFFFF
(1547755056.707831) can0 0C000006#30FFFFFFF8FFFFFF
(1547755056.708352) can0 04EF0006#641517F01119930E
(1547755056.716929) can0 0CF00300#FF0024FF07FFFFFF
(1547755056.717529) can0 0CEFFF00#64062E7DFFFFFFFF
(1547755056.718075) can0 18EF0600#640E8900FFFFFFFF
(1547755056.726620) can0 0DEF0603#0101FFFFFFFFFFF5
(1547755056.727225) can0 0CF00400#F0FF9D241CFFFFFF
(1547755056.727828) can0 04EF0006#641518F01119A90E
(1547755056.728383) can0 0CFFFE06#5C531D531DFFFFFF
(1547755056.728968) can0 18FEF147#FF0000FFFFFFFFFF
(1547755056.729595) can0 18F00503#7DFFFFFFFFFFFFFF
(1547755056.736868) can0 0CF00300#FF0023FF07FFFFFF
(1547755056.737441) can0 0CEFFF00#64062C7DFFFFFFFF
(1547755056.738021) can0 18EFFF00#64100101D702057D
(1547755056.746190) can0 0DEF0647#0104FFFFFFFFFFF1
(1547755056.746867) can0 0DEF0603#0101FFFFFFFFFFF5
(1547755056.747438) can0 0CF00400#FEFF9C261CFFFFFF
(1547755056.748084) can0 04EF0006#641519F00B19A90E
(1547755056.756828) can0 0CF00300#FF0023FF06FFFFFF
(1547755056.757437) can0 0CEFFF00#64062F7DFFFFFFFF
(1547755056.766634) can0 0DEF0603#0101FFFFFFFFFFF5
(1547755056.767304) can0 0CF00400#FEFF9D241CFFFFFF
(1547755056.767879) can0 04EF0006#64151AF00B19930E
(1547755056.768428) can0 0CFE4947#FFFFFFFFFFFFFFFF
(1547755056.769002) can0 18FFFB06#0005AFF8FFFFFFFF
(1547755056.769574) can0 0CFFFF47#5DFFFFF3FFFFFFFF
(1547755056.770175) can0 0CFE4347#0000FFFF3FFFFFFF
(1547755056.770780) can0 0CFE4447#0000FFFF3FFFFFFF
(1547755056.771343) can0 0CFFFE06#5C271D271DFFFFFF
(1547755056.776850) can0 0CF00300#FF0024FF06FFFFFF
(1547755056.777424) can0 0CEFFF00#6406307DFFFFFFFF
(1547755056.778002) can0 18FDB300#FFFF8429FFFFFFFF
(1547755056.778600) can0 1CEFFF00#64070000FFFFFFFF
(1547755056.786594) can0 0DEF0603#0101FFFFFFFFFFF5
(1547755056.787166) can0 0CF00400#F0FF9E1E1CFFFFFF
(1547755056.787812) can0 04EF0006#64151BF00B19930E
(1547755056.796887) can0 0CF00300#FF0023FF07FFFFFF
(1547755056.797493) can0 0CEFFF00#64062E7DFFFFFFFF
(1547755056.798035) can0 18FEF200#2100FFFFFFFFFFFF
(1547755056.806605) can0 0DEF0603#0101FFFFFFFFFFF5
(1547755056.807211) can0 0CF00400#F0FF9D261CFFFFFF
(1547755056.807884) can0 04EF0006#64151CF00419A90E
(1547755056.808428) can0 0CFFFE06#5C531D531DFFFFFF
(1547755056.808977) can0 18FEF147#FF0000FFFFFFFFFF
(1547755056.809603) can0 18F00503#7DFFFFFFFFFFFFFF
(1547755056.816873) can0 0CF00300#FF0023FF06FFFFFF
(1547755056.817482) can0 0CEFFF00#64062C7DFFFFFFFF
(1547755056.818025) can0 18EF0600#640E9300FFFFFFFF
(1547755056.826594) can0 0DEF0603#0101FFFFFFFFFFF5
(1547755056.827177) can0 0CF00400#FEFF9C2C1CFFFFFF
(1547755056.827849) can0 04EF0006#64151DF00B19930E
(1547755056.836847) can0 0CF00300#FF0024FF06FFFFFF
(1547755056.837364) can0 0CEFFF00#64062C7DFFFFFFFF
(1547755056.837994) can0 18EFFF00#64100101D802057D
(1547755056.838535) can0 18FEDF00#8B2C1CFFFFFFFFFF
(1547755056.846134) can0 0DEF0647#0104FFFFFFFFFFF1
(1547755056.846742) can0 0DEF0603#0101FFFFFFFFFFF5
(1547755056.847278) can0 0CF00400#F0FF9C241CFFFFFF
(1547755056.847903) can0 04EF0006#64151EF01119930E
(1547755056.848512) can0 0CFFFE06#5C271D271DFFFFFF
(1547755056.849055) can0 18FFFF06#73FFFFFFFFFFFFFF
(1547755056.856925) can0 0CF00300#FF0023FF06FFFFFF
(1547755056.857530) can0 0CEFFF00#64062C7DFFFFFFFF
(1547755056.858131) can0 18FEEF00#FFFFFF64FFFFFFFA
(1547755056.866580) can0 0DEF0603#0101FFFFFFFFFFF5
(1547755056.867147) can0 0CF00400#F0FF9C241CFFFFFF
(1547755056.867802) can0 04EF0006#64151FF00B19930E
(1547755056.876800) can0 0CF00300#FF0023FF07FFFFFF
(1547755056.877401) can0 0CEFFF00#64062C7DFFFFFFFF
(1547755056.886597) can0 0DEF0603#0101FFFFFFFFFFF5
(1547755056.887167) can0 0CF00400#F0FF9C221CFFFFFF
(1547755056.887818) can0 04EF0006#641510F00B19A90E
(1547755056.888367) can0 0CFE4947#FFFFFFFFFFFFFFFF
(1547755056.888935) can0 1CFDDF47#FCFFFFFFFFFFFFFF
(1547755056.889511) can0 0CFE4347#0000FFFF3FFFFFFF
(1547755056.890141) can0 18FFFB06#0005ACF8FFFFFFFF
(1547755056.890689) can0 0CFE4447#0000FFFF3FFFFFFF
(1547755056.891256) can0 0CFFFE06#5C531D531DFFFFFF
(1547755056.896809) can0 0CF00300#FF0023FF07FFFFFF
(1547755056.897383) can0 0CEFFF00#64062D7DFFFFFFFF
(1547755056.897962) can0 18FEF200#2100FFFFFFFFFFFF
(1547755056.906559) can0 0DEF0603#0101FFFFFFFFFFF5
(1547755056.907107) can0 0CF00400#FEFF9D181CFFFFFF
(1547755056.907785) can0 04EF0006#641511F00B19A90E
(1547755056.916749) can0 0CF00300#FF0024FF07FFFFFF
(1547755056.917354) can0 0CEFFF00#6406367DFFFFFFFF
(1547755056.917927) can0 18EF0600#640E9D00FFFFFFFF
(1547755056.926544) can0 0DEF0603#0101FFFFFFFFFFF5
(1547755056.927147) can0 0CF00400#F0FFA0181CFFFFFF
(1547755056.927845) can0 04EF0006#641512F00419A90E
(1547755056.928368) can0 18FEF147#FF0000FFFFFFFFFF
(1547755056.928968) can0 18F00647#FFCFFFFFFFFFFFFF
(1547755056.929601) can0 18F00503#7DFFFFFFFFFFFFFF
(1547755056.936792) can0 0CF00300#FF0024FF06FFFFFF
(1547755056.937396) can0 0CEFFF00#64062F7DFFFFFFFF
(1547755056.937939) can0 18EFFF00#64100101D702057D
(1547755056.938515) can0 18FEF600#FF003CFF00FFFFFF
(1547755056.946088) can0 0DEF0647#0104FFFFFFFFFFF1
(1547755056.946686) can0 0DEF0603#0101FFFFFFFFFFF5
(1547755056.947255) can0 0CF00400#FEFF9D221CFFFFFF
(1547755056.947935) can0 04EF0006#641513F00419930E
(1547755056.956758) can0 18EFFA00#6401FF0000FFFFFF
(1547755056.957333) can0 0CEFFF00#64062D7DFFFFFFFF
(1547755056.957911) can0 0CF00300#FF0022FF06FFFFFF
(1547755056.966529) can0 0DEF0603#0101FFFFFFFFFFF5
(1547755056.967128) can0 0CF00400#F0FF9D241CFFFFFF
(1547755056.967750) can0 04EF0006#641514F00B19930E
(1547755056.968327) can0 0CFE4947#FFFFFFFFFFFFFFFF
(1547755056.968931) can0 0CFE4347#0000FFFF3FFFFFFF
(1547755056.969528) can0 0CFE4447#0000FFFF3FFFFFFF
(1547755056.970097) can0 0CFFFE06#5C271D271DFFFFFF
(1547755056.976774) can0 0CF00300#FF0023FF07FFFFFF
(1547755056.977344) can0 0CEFFF00#64062C7DFFFFFFFF
(1547755056.986518) can0 0DEF0603#0101FFFFFFFFFFF5
(1547755056.987089) can0 0CF00400#F0FF9C201CFFFFFF
(1547755056.987744) can0 04EF0006#641515F00B19A90E
(1547755056.996790) can0 0CF00300#FF0023FF07FFFFFF
(1547755056.997389) can0 0CEFFF00#64062D7DFFFFFFFF
(1547755056.997965) can0 18FEF200#2100FFFFFFFFFFFF
(1547755057.006535) can0 0DEF0603#0101FFFFFFFFFFF5
(1547755057.007110) can0 0CF00400#FEFF9D221CFFFFFF
(1547755057.007755) can0 04EF0006#641516F00B19A90E
(1547755057.008277) can0 0CFFFE06#5C531D531DFFFFFF
(1547755057.008860) can0 18FEF147#FF0000FFFFFFFFFF
(1547755057.009450) can0 18FFFB06#0005ACF8FFFFFFFF
(1547755057.010041) can0 18F00503#7DFFFFFFFFFFFFFF
(1547755057.016738) can0 0CF00300#FF0024FF07FFFFFF
(1547755057.017277) can0 0CEFFF00#6406307DFFFFFFFF
(1547755057.017881) can0 18EF0600#640EA700FFFFFFFF
(1547755057.026499) can0 0DEF0603#0101FFFFFFFFFFF5
(1547755057.027074) can0 0CF00400#FEFF9E221CFFFFFF
(1547755057.027723) can0 04EF0006#641517F00B19A90E
(1547755057.036897) can0 0CF00300#FF0025FF07FFFFFF
(1547755057.037446) can0 0CEFFF00#64062F7DFFFFFFFF
(1547755057.038068) can0 18EFFF00#64100101D802057D
(1547755057.046034) can0 0DEF0647#0104FFFFFFFFFFF1
(1547755057.046670) can0 0DEF0603#0101FFFFFFFFFFF5
(1547755057.047240) can0 0CF00400#FEFF9D1A1CFFFFFF
(1547755057.047831) can0 04EF0006#641518F00B19A90E
(1547755057.056674) can0 0CF00300#FF0024FF06FFFFFF
(1547755057.057309) can0 0CEFFF00#6406327DFFFFFFFF
(1547755057.057830) can0 18FEEE00#5542FFFFFFFFFFFF
(1547755057.066504) can0 0DEF0603#0101FFFFFFFFFFF5
(1547755057.067103) can0 0CF00400#F0FF9E241CFFFFFF
(1547755057.067750) can0 04EF0006#641519F00419930E
(1547755057.076974) can0 0CF00300#FF0022FF06FFFFFF
(1547755057.077577) can0 0CEFFF00#64062D7DFFFFFFFF
(1547755057.086496) can0 0DEF0603#0101FFFFFFFFFFF5
(1547755057.087048) can0 0CF00400#F0FF9D2E1CFFFFFF
(1547755057.087619) can0 18FEDF00#8A201CFFFFFFFFFF
(1547755057.088169) can0 04EF0006#64151AF00B19930E
(1547755057.088735) can0 0CFE4947#FFFFFFFFFFFFFFFF
(1547755057.089315) can0 0CFE4347#0000FFFF3FFFFFFF
(1547755057.089948) can0 0CFE4447#0000FFFF3FFFFFFF
(1547755057.090485) can0 0CFFFE06#5C271D271DFFFFFF
(1547755057.096708) can0 0CF00300#FF0022FF06FFFFFF
(1547755057.097279) can0 0CEFFF00#64062B7DFFFFFFFF
(1547755057.097893) can0 18FEF200#2000FFFFFFFFFFFF
(1547755057.106459) can0 0DEF0603#0101FFFFFFFFFFF5
(1547755057.107010) can0 0CF00400#F0FF9C2C1CFFFFFF
(1547755057.107655) can0 04EF0006#64151BF01119930E
(1547755057.116728) can0 0CF00300#FF0023FF06FFFFFF
(1547755057.117332) can0 0CEFFF00#64062B7DFFFFFFFF
(1547755057.117902) can0 18EF0600#640EB100FFFFFFFF
(1547755057.126450) can0 0DEF0603#0101FFFFFFFFFFF5
(1547755057.127054) can0 0CF00400#F0FF9C281CFFFFFF
(1547755057.127696) can0 04EF0006#64151CF01119930E
(1547755057.128217) can0 18FEF147#FF0000FFFFFFFFFF
(1547755057.128820) can0 18FFFB06#0005AFF8FFFFFFFF
(1547755057.129424) can0 18F00503#7DFFFFFFFFFFFFFF
(1547755057.136671) can0 0CF00300#FF0023FF06FFFFFF
(1547755057.137264) can0 0CEFFF00#64062C7DFFFFFFFF
(1547755057.137819) can0 18EFFF00#64100101D802057D
(1547755057.138417) can0 18FEF700#FFFFFFFFFFFF1801
(1547755057.145988) can0 0DEF0647#0104FFFFFFFFFFF1
(1547755057.146592) can0 0DEF0603#0101FFFFFFFFFFF5
(1547755057.147169) can0 0CF00400#F0FF9C2A1CFFFFFF
(1547755057.147797) can0 04EF0006#64151DF01119930E
(1547755057.156661) can0 0CF00300#FF0023FF06FFFFFF
(1547755057.157234) can0 0CEFFF00#64062C7DFFFFFFFF
(1547755057.166429) can0 0DEF0603#0101FFFFFFFFFFF5
(1547755057.167032) can0 0CF00400#F0FF9C261CFFFFFF
(1547755057.167677) can0 04EF0006#64151EF01119930E
(1547755057.168227) can0 0CFE4947#FFFFFFFFFFFFFFFF
(1547755057.168601) can0 18EA0006#E3FE00
(1547755057.169172) can0 0CFE4347#0000FFFF3FFFFFFF
(1547755057.169779) can0 0CFE4447#0000FFFF3FFFFFFF
(1547755057.176668) can0 0CF00300#FF0024FF06FFFFFF
(1547755057.177274) can0 0CEFFF00#64062C7DFFFFFFFF
(1547755057.186414) can0 0DEF0603#0101FFFFFFFFFFF5
(1547755057.187022) can0 0CF00400#F0FF9C201CFFFFFF
(1547755057.187668) can0 04EF0006#64151FF00B19930E
(1547755057.191771) can0 1CEC0600#1022000505E3FE00
(1547755057.194319) can0 1CEC0006#110501FFFFE3FE00
(1547755057.195766) can0 1CFFFF17#22FFFF3CFFFFFFFF
(1547755057.196691) can0 0CF00300#FF0023FF06FFFFFF
(1547755057.197266) can0 0CEFFF00#64062D7DFFFFFFFF
(1547755057.197837) can0 18FEF200#2100FFFFFFFFFFFF
(1547755057.205536) can0 18EAFF06#E5FE00
(1547755057.206508) can0 0DEF0603#0101FFFFFFFFFFF5
(1547755057.207085) can0 0CF00400#F0FF9D2A1CFFFFFF
(1547755057.207732) can0 04EF0006#641510F00B19930E
(1547755057.208282) can0 0CFFFE06#5C271D271DFFFFFF
(1547755057.208858) can0 18FEF147#FF0000FFFFFFFFFF
(1547755057.209428) can0 18FEE706#CC0A0000FFFFFFFF
(1547755057.210057) can0 18F00503#7DFFFFFFFFFFFFFF
(1547755057.216721) can0 0CF00300#FF0022FF06FFFFFF
(1547755057.217297) can0 0CEFFF00#64062B7DFFFFFFFF
(1547755057.217876) can0 18EF0600#640EBB00FFFFFFFF
(1547755057.226392) can0 0DEF0603#0101FFFFFFFFFFF5
(1547755057.226998) can0 0CF00400#F0FF9C321CFFFFFF
(1547755057.227612) can0 04EF0006#641511F01119930E
(1547755057.236610) can0 0CF00300#FF0022FF06FFFFFF
(1547755057.237220) can0 0CEFFF00#64062A7DFFFFFFFF
(1547755057.237795) can0 18EFFF00#64100101D802057D
(1547755057.238339) can0 18FED500#FFFFFDFFFFFFFFFF
(1547755057.239458) can0 18FEE500#CD0A0000FFFFFFFF
(1547755057.245968) can0 0DEF0647#0104FFFFFFFFFFF1
(1547755057.246635) can0 0DEF0603#0101FFFFFFFFFFF5
(1547755057.247213) can0 0CF00400#F0FF9B2A1CFFFFFF
(1547755057.247861) can0 04EF0006#641512F00719930E
(1547755057.248407) can0 18FFFB06#0005AFF8FFFFFFFF
(1547755057.256887) can0 0CF00300#FF0023FF07FFFFFF
(1547755057.257463) can0 0CEFFF00#64062B7DFFFFFFFF
(1547755057.266433) can0 0DEF0603#0101FFFFFFFFFFF5
(1547755057.266980) can0 0CF00400#F0FF9C2A1CFFFFFF
(1547755057.267630) can0 04EF0006#641513F01119A90E
(1547755057.276629) can0 0CF00300#FF0023FF06FFFFFF
(1547755057.277201) can0 0CEFFF00#64062B7DFFFFFFFF
(1547755057.277776) can0 18FDB300#FFFF9C29FFFFFFFF
(1547755057.286423) can0 0DEF0603#0101FFFFFFFFFFF5
(1547755057.286997) can0 0CF00400#FEFF9C281CFFFFFF
(1547755057.287619) can0 04EF0006#641514F01119930E
(1547755057.288162) can0 0CFE4947#FFFFFFFFFFFFFFFF
(1547755057.288758) can0 0CFFFF47#5DFFFFF3FFFFFFFF
(1547755057.289397) can0 0CFE4347#0000FFFF3FFFFFFF
(1547755057.289955) can0 0CFE4447#0000FFFF3FFFFFFF
(1547755057.290539) can0 0CFFFE06#5C271D271DFFFFFF
(1547755057.291813) can0 1CEB0600#01201CDD6842DCA0
(1547755057.296638) can0 0CF00300#FF0024FF06FFFFFF
(1547755057.297177) can0 0CEFFF00#6406307DFFFFFFFF
(1547755057.297788) can0 18FEF200#2300FFFFFFFFFFFF
(1547755057.306362) can0 0DEF0603#0101FFFFFFFFFFF5
(1547755057.306961) can0 0CF00400#F0FF9E1E1CFFFFFF
(1547755057.307610) can0 04EF0006#641515F01119930E
(1547755057.316609) can0 0CF00300#FF0023FF06FFFFFF
(1547755057.317180) can0 0CEFFF00#64062E7DFFFFFFFF
(1547755057.317755) can0 18EF0600#640EC500FFFFFFFF
(1547755057.326369) can0 0DEF0603#0101FFFFFFFFFFF5
(1547755057.326976) can0 0CF00400#F0FF9D241CFFFFFF
(1547755057.327619) can0 04EF0006#641516F00419930E
(1547755057.328195) can0 18FEF147#FF0000FFFFFFFFFF
(1547755057.328793) can0 18FFFB06#001BFFFFFFFFFFFF
(1547755057.329391) can0 18F00503#7DFFFFFFFFFFFFFF
(1547755057.336594) can0 0CF00300#FF0022FF07FFFFFF
(1547755057.337165) can0 0CEFFF00#64062C7DFFFFFFFF
(1547755057.337745) can0 18EFFF00#64100101D702057D
(1547755057.338320) can0 18FEDF00#8B201CFFFFFFFFFF
(1547755057.339469) can0 1CEB0600#020FD58D20E37A31
(1547755057.345916) can0 0DEF0647#0104FFFFFFFFFFF1
(1547755057.346547) can0 0DEF0603#0101FFFFFFFFFFF5
(1547755057.347090) can0 0CF00400#F0FF9C341CFFFFFF
(1547755057.347744) can0 04EF0006#641517F00B19A90E
(1547755057.356557) can0 0CF00300#FF0021FF06FFFFFF
(1547755057.357159) can0 0CEFFF00#64062A7DFFFFFFFF
(1547755057.357736) can0 18FEEF00#FFFFFF64FFFFFFFA
(1547755057.366383) can0 0DEF0603#0101FFFFFFFFFFF5
(1547755057.366956) can0 0CF00400#FEFF9B3A1CFFFFFF
(1547755057.367571) can0 04EF0006#641518F00719930E
(1547755057.368180) can0 0CFE4947#FFFFFFFFFFFFFFFF
(1547755057.368721) can0 18FE6847#3CFFFFFFFFFFFFFF
(1547755057.369303) can0 0CFE4347#0000FFFF3FFFFFFF
(1547755057.369898) can0 18FFFF06#73FFFFFFFFFFFFFF
(1547755057.370479) can0 0CFE4447#0000FFFF3FFFFFFF
(1547755057.371055) can0 18FFFB06#0005ACF8FFFFFFFF
(1547755057.371607) can0 0CFFFE06#5C271D271DFFFFFF
(1547755057.376575) can0 0CF00300#FF0022FF06FFFFFF
(1547755057.377146) can0 0CEFFF00#6406287DFFFFFFFF
(1547755057.386339) can0 0DEF0603#0101FFFFFFFFFFF5
(1547755057.386886) can0 0CF00400#F0FF9B341CFFFFFF
(1547755057.387570) can0 04EF0006#641519F0CC18930E
(1547755057.392242) can0 1CEB0600#03F1C044FFFF0401
(1547755057.396595) can0 0CF00300#FF0022FF06FFFFFF
(1547755057.397165) can0 0CEFFF00#64062A7DFFFFFFFF
(1547755057.397768) can0 18FEF200#2000FFFFFFFFFFFF
(1547755057.406365) can0 0DEF0603#0101FFFFFFFFFFF5
(1547755057.406879) can0 0CF00400#F0FF9B341CFFFFFF
(1547755057.407562) can0 04EF0006#64151AF00719930E
(1547755057.408135) can0 0CFFFF47#5EFFFFFFFFFFFFFF
(1547755057.408711) can0 18FEF147#FF0000FFFFFFFFFF
(1547755057.409302) can0 18FEFC47#FFFFFFFFFFFFFFFF
(1547755057.409873) can0 18EF0047#F220610FFFFFFFFF
(1547755057.410512) can0 18F00647#FFCFFFFFFFFFFFFF
(1547755057.411110) can0 1CFDDF47#FCFFFFFFFFFFFFFF
(1547755057.411708) can0 18F00503#7DFFFFFFFFFFFFFF
(1547755057.416531) can0 0CF00300#FF0022FF06FFFFFF
(1547755057.417119) can0 0CEFFF00#6406297DFFFFFFFF
(1547755057.417680) can0 18EF0600#640ECF00FFFFFFFF
(1547755057.426325) can0 0DEF0603#0101FFFFFFFFFFF5
(1547755057.426899) can0 0CF00400#F0FF9B301CFFFFFF
(1547755057.427528) can0 04EF0006#64151BF00719930E
(1547755057.436671) can0 0CF00300#FF0022FF06FFFFFF
(1547755057.437270) can0 0CEFFF00#64062A7DFFFFFFFF
(1547755057.437870) can0 18EFFF00#64100101D802057D
(1547755057.438382) can0 18FEF600#FF003CFF00FFFFFF
(1547755057.439462) can0 1CEB0600#04204E0001FAC9FA
(1547755057.445895) can0 0DEF0647#0104FFFFFFFFFFF1
(1547755057.446488) can0 0DEF0603#0101FFFFFFFFFFF5
(1547755057.447042) can0 0CF00400#F0FF9B261CFFFFFF
(1547755057.447689) can0 04EF0006#64151CF00719930E
(1547755057.456531) can0 0CF00300#FF0022FF07FFFFFF
(1547755057.457136) can0 0CEFFF00#64062B7DFFFFFFFF
(1547755057.466334) can0 0DEF0603#0101FFFFFFFFFFF5
(1547755057.466904) can0 0CF00400#F0FF9C2E1CFFFFFF
(1547755057.467553) can0 04EF0006#64151DF00B19A90E
(1547755057.476820) can0 0CF00300#FF0022FF07FFFFFF
(1547755057.477384) can0 0CEFFF00#64062A7DFFFFFFFF
(1547755057.486324) can0 0DEF0603#0101FFFFFFFFFFF5
(1547755057.486870) can0 0CF00400#FEFF9B381CFFFFFF
(1547755057.487468) can0 18FFFA00#022C0000180C0081
(1547755057.487996) can0 04EF0006#64151EF01119A90E
(1547755057.488560) can0 0CFE4947#FFFFFFFFFFFFFFFF
(1547755057.489136) can0 18FFFB06#0005ACF8FFFFFFFF
(1547755057.489752) can0 0CFE4347#0000FFFF3FFFFFFF
(1547755057.490311) can0 0CFE4447#0000FFFF3FFFFFFF
(1547755057.490920) can0 0CFFFE06#5C531D531DFFFFFF
(1547755057.491810) can0 1CEB0600#05C05D0000FFFFFF
(1547755057.496540) can0 0CF00300#FF0022FF07FFFFFF
(1547755057.497142) can0 0CEFFF00#6406297DFFFFFFFF
(1547755057.497688) can0 18FEF200#2000FFFFFFFFFFFF
(1547755057.499162) can0 1CEC0006#13220005FFE3FE00
(1547755057.506287) can0 0DEF0603#0101FFFFFFFFFFF5
(1547755057.506860) can0 0CF00400#FEFF9B301CFFFFFF
(1547755057.507510) can0 04EF0006#64151FF0CC18A90E
(1547755057.516559) can0 0CF00300#FF0023FF06FFFFFF
(1547755057.517131) can0 0CEFFF00#64062D7DFFFFFFFF
(1547755057.517708) can0 18EF0600#640ED900FFFFFFFF
(1547755057.518254) can0 18FEF500#C8FFFFFFFF3AFFFF
(1547755057.526304) can0 0DEF0603#0101FFFFFFFFFFF5
(1547755057.526852) can0 0CF00400#FEFF9D2A1CFFFFFF
(1547755057.527457) can0 04EF0006#641510F00719930E
(1547755057.528052) can0 0CFFFE06#5C271D271DFFFFFF
(1547755057.528623) can0 18FEF147#FF0000FFFFFFFFFF
(1547755057.529188) can0 18F00503#7DFFFFFFFFFFFFFF
(1547755057.536489) can0 0CF00300#FF0023FF07FFFFFF
(1547755057.537095) can0 0CEFFF00#64062D7DFFFFFFFF
(1547755057.537671) can0 18EFFF00#64100101D802057D
(1547755057.545812) can0 0DEF0647#0104FFFFFFFFFFF1
(1547755057.546394) can0 0DEF0603#0101FFFFFFFFFFF5
(1547755057.546951) can0 0CF00400#F0FF9D2C1CFFFFFF
(1547755057.547611) can0 04EF0006#641511F01119A90E
(1547755057.556585) can0 0CF00300#FF0022FF06FFFFFF
(1547755057.557186) can0 0CEFFF00#64062A7DFFFFFFFF
(1547755057.557702) can0 18FE6900#A424D427FFFF60FE
(1547755057.566284) can0 0DEF0603#0101FFFFFFFFFFF5
(1547755057.566858) can0 0CF00400#FEFF9B281CFFFFFF
(1547755057.567479) can0 04EF0006#641512F01119930E
(1547755057.568056) can0 0CFE4947#FFFFFFFFFFFFFFFF
(1547755057.568652) can0 0CFE4347#0000FFFF3FFFFFFF
(1547755057.569222) can0 0CFE4447#0000FFFF3FFFFFFF
(1547755057.569796) can0 0CFFFE06#5C271D271DFFFFFF
(1547755057.576519) can0 0CF00300#FF0025FF07FFFFFF
(1547755057.577104) can0 0CEFFF00#64062F7DFFFFFFFF
(1547755057.586114) can0 0DEF0603#0101FFFFFFFFFFF5
(1547755057.586699) can0 0CF00400#F0FF9D241CFFFFFF
(1547755057.587271) can0 18FEDF00#8B201CFFFFFFFFFF
(1547755057.587785) can0 04EF0006#641513F01119A90E
(1547755057.596489) can0 0CF00300#FF0022FF06FFFFFF
(1547755057.597091) can0 0CEFFF00#64062B7DFFFFFFFF
(1547755057.597664) can0 18FEF200#2000FFFFFFFFFFFF
(1547755057.606179) can0 0DEF0603#0101FFFFFFFFFFF5
(1547755057.606786) can0 0CF00400#FEFF9C2E1CFFFFFF
(1547755057.607399) can0 04EF0006#641514F00B19930E
(1547755057.607953) can0 0CFFFE06#5C271D271DFFFFFF
(1547755057.608530) can0 18FEF147#FF0000FFFFFFFFFF
(1547755057.609133) can0 18FFFB06#000587F8FFFFFFFF
(1547755057.609786) can0 18F00503#80FFFFFFFFFFFFFF
(1547755057.616509) can0 0CF00300#FF0022FF06FFFFFF
(1547755057.617081) can0 0CEFFF00#64062A7DFFFFFFFF
(1547755057.617655) can0 18EF0600#640EE300FFFFFFFF
(1547755057.626179) can0 0DEF0603#0101FFFFFFFFFFF5
(1547755057.626775) can0 0CF00400#F0FF9B321CFFFFFF
(1547755057.627399) can0 04EF0006#641515F01119930E
(1547755057.636449) can0 0CF00300#FF0022FF07FFFFFF
(1547755057.637046) can0 0CEFFF00#6406297DFFFFFFFF
(1547755057.637620) can0 18EFFF00#64100101D802057D
(1547755057.645759) can0 0DEF0647#0104FFFFFFFFFFF1
(1547755057.646372) can0 0DEF0603#0101FFFFFFFFFFF5
(1547755057.646942) can0 0CF00400#F0FF9B2A1CFFFFFF
(1547755057.647504) can0 04EF0006#641516F00719A90E
(1547755057.648057) can0 0CFFFE06#5C531D531DFFFFFF
(1547755057.656529) can0 0CF00300#FF0022FF06FFFFFF
(1547755057.657102) can0 0CEFFF00#64062A7DFFFFFFFF
(1547755057.666155) can0 0DEF0603#0101FFFFFFFFFFF5
(1547755057.666755) can0 0CF00400#FEFF9B281CFFFFFF
(1547755057.667375) can0 04EF0006#641517F01119930E
(1547755057.676400) can0 0CF00300#FF0023FF06FFFFFF
(1547755057.677000) can0 0CEFFF00#6406307DFFFFFFFF
(1547755057.677576) can0 18FD7C00#F880F1F400CF03FC
(1547755057.686175) can0 0DEF0603#0101FFFFFFFFFFF5
(1547755057.686747) can0 0CF00400#F0FF9E281CFFFFFF
(1547755057.687371) can0 04EF0006#641518F01119930E
(1547755057.687913) can0 0CFE4947#FFFFFFFFFFFFFFFF
(1547755057.688517) can0 0CFE4347#0000FFFF3FFFFFFF
(1547755057.689146) can0 0CFE4447#0000FFFF3FFFFFFF
(1547755057.689713) can0 0CFFFE06#5C271D271DFFFFFF
(1547755057.696509) can0 0CF00300#FF0023FF06FFFFFF
(1547755057.697089) can0 0CEFFF00#64062A7DFFFFFFFF
(1547755057.697714) can0 18FEF200#2000FFFFFFFFFFFF
(1547755057.706109) can0 0DEF0603#0101FFFFFFFFFFF5
(1547755057.706709) can0 0CF00400#F0FF9B1C1CFFFFFF
(1547755057.707288) can0 0C000006#30FFFFFFF8FFFFFF
(1547755057.707832) can0 04EF0006#641519F01119930E
(1547755057.716380) can0 0CF00300#FF0023FF07FFFFFF
(1547755057.717005) can0 0CEFFF00#64062D7DFFFFFFFF
(1547755057.717528) can0 18EF0600#640EED00FFFFFFFF
(1547755057.726119) can0 0DEF0603#0101FFFFFFFFFFF5
(1547755057.726726) can0 0CF00400#F0FF9C1C1CFFFFFF
(1547755057.727367) can0 04EF0006#64151AF00419A90E
(1547755057.727976) can0 0CFFFE06#5C531D531DFFFFFF
(1547755057.728522) can0 18FEF147#FF0000FFFFFFFFFF
(1547755057.729152) can0 18FFFB06#000586F8FFFFFFFF
(1547755057.729721) can0 18F00503#80FFFFFFFFFFFFFF
(1547755057.736489) can0 0CF00300#FF0023FF06FFFFFF
(1547755057.737069) can0 0CEFFF00#64062D7DFFFFFFFF
(1547755057.737624) can0 18EFFF00#64100101D702057D
(1547755057.745716) can0 0DEF0647#0104FFFFFFFFFFF1
(1547755057.746329) can0 0DEF0603#0101FFFFFFFFFFF5
(1547755057.746913) can0 0CF00400#FEFF9C261CFFFFFF
(1547755057.747617) can0 04EF0006#64151BF00419930E
(1547755057.756386) can0 0CF00300#FF0022FF06FFFFFF
(1547755057.756984) can0 0CEFFF00#64062E7DFFFFFFFF
(1547755057.766105) can0 0DEF0603#0101FFFFFFFFFFF5
(1547755057.766707) can0 0CF00400#F0FF9D261CFFFFFF
(1547755057.767356) can0 04EF0006#64151CF00B19930E
(1547755057.767903) can0 0CFE4947#FFFFFFFFFFFFFFFF
(1547755057.768482) can0 0CFFFF47#5DFFFFF3FFFFFFFF
(1547755057.769073) can0 0CFE4347#0000FFFF3FFFFFFF
(1547755057.769675) can0 0CFE4447#0000FFFF3FFFFFFF
(1547755057.770256) can0 0CFFFE06#5C271D271DFFFFFF
(1547755057.776425) can0 0CF00300#FF0023FF06FFFFFF
(1547755057.776998) can0 0CEFFF00#64062B7DFFFFFFFF
(1547755057.777553) can0 18FDB300#FFFF9C29FFFFFFFF
(1547755057.778148) can0 1CEFFF00#64070000FFFFFFFF
(1547755057.786096) can0 0DEF0603#0101FFFFFFFFFFF5
(1547755057.786667) can0 0CF00400#F0FF9C221CFFFFFF
(1547755057.787296) can0 04EF0006#64151DF00B19930E
(1547755057.796435) can0 0CF00300#FF0023FF06FFFFFF
(1547755057.797017) can0 0CEFFF00#64062B7DFFFFFFFF
(1547755057.797582) can0 18FEF200#2000FFFFFFFFFFFF
(1547755057.806084) can0 0DEF0603#0101FFFFFFFFFFF5
(1547755057.806686) can0 0CF00400#F0FF9C221CFFFFFF
(1547755057.807333) can0 04EF0006#64151EF00B19930E
(1547755057.807882) can0 18FEF147#FF0000FFFFFFFFFF
(1547755057.808485) can0 18F00503#80FFFFFFFFFFFFFF
(1547755057.816326) can0 0CF00300#FF0023FF07FFFFFF
(1547755057.816919) can0 0CEFFF00#64062B7DFFFFFFFF
(1547755057.817478) can0 18EF0600#640EF700FFFFFFFF
(1547755057.826073) can0 0DEF0603#0101FFFFFFFFFFF5
(1547755057.826647) can0 0CF00400#F0FF9C1E1CFFFFFF
(1547755057.827276) can0 04EF0006#64151FF00B19A90E
(1547755057.836467) can0 0CF00300#FF0023FF06FFFFFF
(1547755057.837069) can0 0CEFFF00#64062D7DFFFFFFFF
(1547755057.837667) can0 18EFFF00#64100101D702057D
(1547755057.838191) can0 18FEDF00#8B201CFFFFFFFFFF
(1547755057.845685) can0 0DEF0647#0104FFFFFFFFFFF1
(1547755057.846319) can0 0DEF0603#0101FFFFFFFFFFF5
(1547755057.846833) can0 0CF00400#FEFF9C121CFFFFFF
(1547755057.847461) can0 04EF0006#641510F00419930E
(1547755057.848041) can0 0CFFFE06#5C271D271DFFFFFF
(1547755057.848632) can0 18FFFF06#73FFFFFFFFFFFFFF
(1547755057.849186) can0 18FFFB06#000586F8FFFFFFFF
(1547755057.856334) can0 0CF00300#FF0023FF06FFFFFF
(1547755057.856884) can0 0CEFFF00#6406397DFFFFFFFF
(1547755057.857463) can0 18FEEF00#FFFFFF64FFFFFFFA
(1547755057.866081) can0 0DEF0603#0101FFFFFFFFFFF5
(1547755057.866629) can0 0CF00400#F0FFA11E1CFFFFFF
(1547755057.867307) can0 04EF0006#641511F00919930E
(1547755057.875304) can0 1CFFFF17#22FFFF3CFFFFFFFF
(1547755057.876676) can0 0CF00300#FF0023FF06FFFFFF
(1547755057.877249) can0 0CEFFF00#64062D7DFFFFFFFF
(1547755057.886074) can0 0DEF0603#0101FFFFFFFFFFF5
(1547755057.886647) can0 0CF00400#F0FF9C2A1CFFFFFF
(1547755057.887320) can0 04EF0006#641512F00419930E
(1547755057.887921) can0 0CFE4947#FFFFFFFFFFFFFFFF
(1547755057.888494) can0 1CFDDF47#FCFFFFFFFFFFFFFF
(1547755057.889070) can0 0CFE4347#0000FFFF3FFFFFFF
(1547755057.889636) can0 0CFE4447#0000FFFF3FFFFFFF
(1547755057.896334) can0 0CF00300#FF0022FF07FFFFFF
(1547755057.896909) can0 0CEFFF00#64062A7DFFFFFFFF
(1547755057.897489) can0 18FEF200#2000FFFFFFFFFFFF
(1547755057.906034) can0 0DEF0603#0101FFFFFFFFFFF5
(1547755057.906637) can0 0CF00400#F0FF9B261CFFFFFF
(1547755057.907282) can0 04EF0006#641513F01119A90E
(1547755057.916354) can0 0CF00300#FF0023FF07FFFFFF
(1547755057.916957) can0 0CEFFF00#64062B7DFFFFFFFF
(1547755057.917532) can0 18EF0600#640E0100FFFFFFFF
(1547755057.926025) can0 0DEF0603#0101FFFFFFFFFFF5
(1547755057.926626) can0 0CF00400#FEFF9C221CFFFFFF
(1547755057.927273) can0 04EF0006#641514F00B19A90E
(1547755057.927793) can0 0CFFFE06#5C531D531DFFFFFF
(1547755057.928363) can0 18FEF147#FF0000FFFFFFFFFF
(1547755057.928974) can0 18F00647#FFCFFFFFFFFFFFFF
(1547755057.929599) can0 18F00503#80FFFFFFFFFFFFFF
(1547755057.936319) can0 0CF00300#FF0023FF06FFFFFF
(1547755057.936894) can0 0CEFFF00#6406317DFFFFFFFF
(1547755057.937475) can0 18EFFF00#64100101D802057D
(1547755057.938043) can0 18FEF600#FF003BFF00FFFFFF
(1547755057.939144) can0 1CECFF00#20220005FFE3FE00
(1547755057.945618) can0 0DEF0647#0104FFFFFFFFFFF1
(1547755057.946247) can0 0DEF0603#0101FFFFFFFFFFF5
(1547755057.946816) can0 0CF00400#FEFF9E241CFFFFFF
(1547755057.947391) can0 04EF0006#641515F00B19930E
(1547755057.956350) can0 18EFFA00#6401FF0000FFFFFF
(1547755057.956961) can0 0CEFFF00#64062E7DFFFFFFFF
(1547755057.957537) can0 0CF00300#FF0024FF06FFFFFF
(1547755057.966034) can0 0DEF0603#0101FFFFFFFFFFF5
(1547755057.966610) can0 0CF00400#F0FF9D1E1CFFFFFF
(1547755057.967219) can0 04EF0006#641516F00B19930E
(1547755057.967798) can0 0CFE4947#FFFFFFFFFFFFFFFF
(1547755057.968408) can0 18FFFB06#000587F8FFFFFFFF
(1547755057.968953) can0 0CFE4347#0000FFFF3FFFFFFF
(1547755057.969581) can0 0CFE4447#0000FFFF3FFFFFFF
(1547755057.970131) can0 0CFFFE06#5C271D271DFFFFFF
(1547755057.976299) can0 0CF00300#FF0024FF06FFFFFF
(1547755057.976873) can0 0CEFFF00#64062D7DFFFFFFFF
(1547755057.986021) can0 0DEF0603#0101FFFFFFFFFFF5
(1547755057.986568) can0 0CF00400#F0FF9C1C1CFFFFFF
(1547755057.987267) can0 04EF0006#641517F00419930E
(1547755057.991222) can0 1CEBFF00#01201CEC6842EAA0
(1547755057.996317) can0 0CF00300#FF0023FF07FFFFFF
(1547755057.996892) can0 0CEFFF00#64062E7DFFFFFFFF
(1547755057.997469) can0 18FEF200#2100FFFFFFFFFFFF
(1547755058.006038) can0 0DEF0603#0101FFFFFFFFFFF5
(1547755058.006585) can0 0CF00400#F0FF9D2A1CFFFFFF
(1547755058.007258) can0 04EF0006#641518F00419A90E
(1547755058.007837) can0 0CFFFE06#5C531D531DFFFFFF
(1547755058.008411) can0 18FEF147#FF0000FFFFFFFFFF
(1547755058.008977) can0 18F00503#80FFFFFFFFFFFFFF
(1547755058.016249) can0 0CF00300#FF0022FF07FFFFFF
(1547755058.016810) can0 0CEFFF00#64062B7DFFFFFFFF
(1547755058.017434) can0 18EF0600#640E0B00FFFFFFFF
(1547755058.025969) can0 0DEF0603#0101FFFFFFFFFFF5
(1547755058.026548) can0 0CF00400#FEFF9C361CFFFFFF
(1547755058.027172) can0 04EF0006#641519F01119A90E
(1547755058.036244) can0 0CF00300#FF0023FF07FFFFFF
(1547755058.036846) can0 0CEFFF00#6406297DFFFFFFFF
(1547755058.037421) can0 18EFFF00#64100101D802057D
(1547755058.038992) can0 1CEBFF00#020FE38D20F17A31
(1547755058.045593) can0 0DEF0647#0104FFFFFFFFFFF1
(1547755058.046190) can0 0DEF0603#0101FFFFFFFFFFF5
(1547755058.046768) can0 0CF00400#FEFF9B301CFFFFFF
(1547755058.047340) can0 04EF0006#64151AF00719A90E
(1547755058.056360) can0 0CF00300#FF0023FF06FFFFFF
(1547755058.056937) can0 0CEFFF00#64062C7DFFFFFFFF
(1547755058.057512) can0 18FEEE00#5543FFFFFFFFFFFF
(1547755058.065983) can0 0DEF0603#0101FFFFFFFFFFF5
(1547755058.066557) can0 0CF00400#FEFF9C301CFFFFFF
(1547755058.067170) can0 04EF0006#64151BF00719930E
(1547755058.076253) can0 0CF00300#FF0022FF07FFFFFF
(1547755058.076826) can0 0CEFFF00#64062C7DFFFFFFFF
(1547755058.085944) can0 0DEF0603#0101FFFFFFFFFFF5
(1547755058.086547) can0 0CF00400#F0FF9C321CFFFFFF
(1547755058.087094) can0 18FEDF00#8B201CFFFFFFFFFF
(1547755058.087668) can0 04EF0006#64151CF00719A90E
(1547755058.088221) can0 0CFE4947#FFFFFFFFFFFFFFFF
(1547755058.088823) can0 18FFFB06#000586F8FFFFFFFF
(1547755058.089363) can0 0CFE4347#0000FFFF3FFFFFFF
(1547755058.089962) can0 0CFE4447#0000FFFF3FFFFFFF
(1547755058.090532) can0 0CFFFE06#5C531D531DFFFFFF
(1547755058.091610) can0 1CEBFF00#03FAC044FFFF0401
(1547755058.096366) can0 0CF00300#FF0022FF06FFFFFF
(1547755058.096942) can0 0CEFFF00#6406297DFFFFFFFF
(1547755058.097544) can0 18FEF200#2000FFFFFFFFFFFF
(1547755058.105964) can0 0DEF0603#0101FFFFFFFFFFF5
(1547755058.106508) can0 0CF00400#FEFF9B281CFFFFFF
(1547755058.107185) can0 04EF0006#64151DF00719930E
(1547755058.116205) can0 0CF00300#FF0024FF06FFFFFF
(1547755058.116806) can0 0CEFFF00#6406307DFFFFFFFF
(1547755058.117383) can0 18EF0600#640E1500FFFFFFFF
(1547755058.125921) can0 0DEF0603#0101FFFFFFFFFFF5
(1547755058.126525) can0 0CF00400#F0FF9E2A1CFFFFFF
(1547755058.127173) can0 04EF0006#64151EF01119930E
(1547755058.127693) can0 0CFFFE06#5C271D271DFFFFFF
(1547755058.128264) can0 18FEF147#FF0000FFFFFFFFFF
(1547755058.128875) can0 18F00503#80FFFFFFFFFFFFFF
(1547755058.136288) can0 0CF00300#FF0022FF06FFFFFF
(1547755058.136870) can0 0CEFFF00#64062B7DFFFFFFFF
(1547755058.137423) can0 18EFFF00#64100101D802057D
(1547755058.138015) can0 18FEF700#FFFFFFFFFFFF1801
(1547755058.139217) can0 1CEBFF00#04204E0001FAC9FA
(1547755058.145540) can0 0DEF0647#0104FFFFFFFFFFF1
(1547755058.146146) can0 0DEF0603#0101FFFFFFFFFFF5
(1547755058.146693) can0 0CF00400#F0FF9C321CFFFFFF
(1547755058.147319) can0 04EF0006#64151FF01119930E
(1547755058.156206) can0 0CF00300#FF0022FF06FFFFFF
(1547755058.156789) can0 0CEFFF00#6406297DFFFFFFFF
(1547755058.165933) can0 0DEF0603#0101FFFFFFFFFFF5
(1547755058.166506) can0 0CF00400#F0FF9B301CFFFFFF
(1547755058.167155) can0 04EF0006#641510F00719930E
(1547755058.167698) can0 0CFE4947#FFFFFFFFFFFFFFFF
(1547755058.168278) can0 0CFE4347#0000FFFF3FFFFFFF
(1547755058.168903) can0 0CFE4447#0000FFFF3FFFFFFF
(1547755058.176201) can0 0CF00300#FF0022FF07FFFFFF
(1547755058.176774) can0 0CEFFF00#64062A7DFFFFFFFF
(1547755058.185896) can0 0DEF0603#0101FFFFFFFFFFF5
(1547755058.186490) can0 0CF00400#F0FF9B2A1CFFFFFF
(1547755058.187115) can0 04EF0006#641511F00719A90E
(1547755058.191942) can0 1CEBFF00#05C05D0000FFFFFF
(1547755058.196245) can0 0CF00300#FF0022FF07FFFFFF
(1547755058.196816) can0 0CEFFF00#64062A7DFFFFFFFF
(1547755058.197393) can0 18FEF200#2000FFFFFFFFFFFF
(1547755058.205915) can0 0DEF0603#0101FFFFFFFFFFF5
(1547755058.206486) can0 0CF00400#FEFF9B2A1CFFFFFF
(1547755058.207136) can0 04EF0006#641512F01119A90E
(1547755058.207686) can0 0CFFFE06#5C531D531DFFFFFF
(1547755058.208235) can0 18FEF147#FF0000FFFFFFFFFF
(1547755058.208827) can0 18FFFB06#000586F8FFFFFFFF
(1547755058.209454) can0 18F00503#80FFFFFFFFFFFFFF
(1547755058.216211) can0 0CF00300#FF0023FF07FFFFFF
(1547755058.216781) can0 0CEFFF00#64062F7DFFFFFFFF
(1547755058.217356) can0 18EF0600#640E1F00FFFFFFFF
(1547755058.225055) can0 18EAFF06#E5FE00
(1547755058.225981) can0 0DEF0603#0101FFFFFFFFFFF5
(1547755058.226526) can0 0CF00400#FEFF9D261CFFFFFF
(1547755058.227174) can0 04EF0006#641513F01119A90E
(1547755058.236274) can0 0CF00300#FF0025FF07FFFFFF
(1547755058.236847) can0 0CEFFF00#64062D7DFFFFFFFF
(1547755058.237423) can0 18EFFF00#64100101D802057D
(1547755058.237999) can0 18FED500#FFFFFDFFFFFFFFFF
(1547755058.239095) can0 18FEE500#CD0A0000FFFFFFFF
