(1547754033.605646) can0 18EEFF47#4D74300400340220
(1547754033.606243) can0 18EEFF06#4D743004000E0020
(1547754033.606790) can0 18EEFF03#4D74300400030220
(1547754033.630519) can0 18EEFF00#56F5290400000220
(1547754033.632742) can0 0CF00400#F0FF000000FFFFFF
(1547754033.633118) can0 18EAFF00#00EE00
(1547754033.642645) can0 0CF00300#FF0000FF00FFFFFF
(1547754033.643245) can0 0CEFFF00#6406007DFFFFFFFF
(1547754033.643793) can0 18FEF200#0000FFFFFFFFFFFF
(1547754033.652845) can0 0CF00400#F0FF7D0000FFFFFF
(1547754033.662710) can0 0CF00300#FF0000FF06FFFFFF
(1547754033.663276) can0 0CEFFF00#6406007DFFFFFFFF
(1547754033.663849) can0 18EF0600#640E0302FFFFFFFF
(1547754033.672728) can0 0CF00400#F0FF7D0000FFFFFF
(1547754033.682767) can0 0CF00300#FF0000FF06FFFFFF
(1547754033.683340) can0 0CEFFF00#6406007DFFFFFFFF
(1547754033.683913) can0 18EFFF00#64100B0B0000007D
(1547754033.684489) can0 18FEDF00#7D041DFFFFFFFFFF
(1547754033.685063) can0 1CECFF00#20220005FFE3FE00
(1547754033.692749) can0 0CF00400#F0FF7D0000FFFFFF
(1547754033.702717) can0 0CF00300#FF0000FF06FFFFFF
(1547754033.703315) can0 0CEFFF00#6406007DFFFFFFFF
(1547754033.703888) can0 18FEEF00#FFFFFFFEFFFFFFFA
(1547754033.712750) can0 0CF00400#F0FF7D0000FFFFFF
(1547754033.722719) can0 0CF00300#FF0000FF06FFFFFF
(1547754033.723292) can0 0CEFFF00#6406007DFFFFFFFF
(1547754033.732768) can0 0CF00400#F0FF7D0000FFFFFF
(1547754033.735918) can0 1CEBFF00#01201CDD6842DCA0
(1547754033.742734) can0 0CF00300#FF0000FF06FFFFFF
(1547754033.743329) can0 0CEFFF00#6406007DFFFFFFFF
(1547754033.743903) can0 18FEF200#0000FFFFFFFFFFFF
(1547754033.752757) can0 0CF00400#F0FF7D0000FFFFFF
(1547754033.762733) can0 0CF00300#FF0000FF06FFFFFF
(1547754033.763306) can0 0CEFFF00#6406007DFFFFFFFF
(1547754033.763878) can0 18EF0600#640E0D02FFFFFFFF
(1547754033.772783) can0 0CF00400#F0FF7D0000FFFFFF
(1547754033.782733) can0 0CF00300#FF0000FF06FFFFFF
(1547754033.783306) can0 0CEFFF00#6406007DFFFFFFFF
(1547754033.783879) can0 18EFFF00#64100B0B0000007D
(1547754033.784457) can0 18FEF600#FF0046FF00FFFFFF
(1547754033.785004) can0 1CEBFF00#020FD58D20E37A31
(1547754033.792766) can0 0CF00400#F0FF7D0000FFFFFF
(1547754033.802734) can0 18EFFA00#6401FF0000FFFFFF
(1547754033.803308) can0 0CEFFF00#6406007DFFFFFFFF
(1547754033.803880) can0 0CF00300#FF0000FF06FFFFFF
(1547754033.812767) can0 0CF00400#F0FF7D0000FFFFFF
(1547754033.822736) can0 0CF00300#FF0000FF06FFFFFF
(1547754033.823334) can0 0CEFFF00#6406007DFFFFFFFF
(1547754033.832785) can0 0CF00400#F0FF7D0000FFFFFF
(1547754033.835961) can0 1CEBFF00#03F1C044FFFF0401
(1547754033.842760) can0 0CF00300#FF0000FF06FFFFFF
(1547754033.843334) can0 0CEFFF00#6406007DFFFFFFFF
(1547754033.843933) can0 18FEF200#0000FFFFFFFFFFFF
(1547754033.852787) can0 0CF00400#F0FF7D0000FFFFFF
(1547754033.862737) can0 0CF00300#FF0000FF07FFFFFF
(1547754033.863335) can0 0CEFFF00#6406007DFFFFFFFF
(1547754033.863908) can0 18EF0600#640E1706FFFFFFFF
(1547754033.867013) can0 0DEF0603#0101FFFFFFFFFFF5
(1547754033.867559) can0 04EF0006#641510F00000A90E
(1547754033.868134) can0 0C000006#30FFFFFFF8FFFFFF
(1547754033.872789) can0 0CF00400#F0FF7D0000FFFFFF
(1547754033.882738) can0 0CF00300#FF0000FF06FFFFFF
(1547754033.883310) can0 0CEFFF00#6406007DFFFFFFFF
(1547754033.883883) can0 18EEFF00#56F5290400000220
(1547754033.884460) can0 18EFFF00#64100B0B0000007D
(1547754033.885034) can0 1CEBFF00#04204E0001FAC9FA
(1547754033.886920) can0 0DEF0647#0104FFFFFFFFFFF1
(1547754033.887536) can0 0DEF0603#0101FFFFFFFFFFF5
(1547754033.888084) can0 04EF0006#641510F00000930E
(1547754033.888644) can0 0CFFFE06#5C271D271DFFFFFF
(1547754033.889219) can0 18FFFB06#00057DF8FFFFFFFF
(1547754033.889617) can0 18EAFF47#00EE00
(1547754033.892772) can0 0CF00400#F0FF7D0000FFFFFF
(1547754033.902739) can0 0CF00300#FF0000FF07FFFFFF
(1547754033.903336) can0 0CEFFF00#6406007DFFFFFFFF
(1547754033.903910) can0 18FEEE00#5241FFFFFFFFFFFF
(1547754033.907015) can0 0DEF0603#0101FFFFFFFFFFF5
(1547754033.907586) can0 04EF0006#641510F00000A90E
(1547754033.912814) can0 0CF00400#F0FF7D0000FFFFFF
(1547754033.922777) can0 0CF00300#FF0000FF07FFFFFF
(1547754033.923350) can0 0CEFFF00#6406007DFFFFFFFF
(1547754033.927029) can0 0DEF0603#0101FFFFFFFFFFF5
(1547754033.927600) can0 04EF0006#641510F00000A90E
(1547754033.928174) can0 0CFE4947#FFFFFFFFFFFFFFFF
(1547754033.928751) can0 0CFE4347#FFFFFFFFFFFFFFFF
(1547754033.929350) can0 0CFE4447#0000FFFF3FFFFFFF
(1547754033.929926) can0 0CFFFE06#5C531D531DFFFFFF
(1547754033.932784) can0 0CF00400#F0FF7D0000FFFFFF
(1547754033.933359) can0 18FEDF00#7D521DFFFFFFFFFF
(1547754033.936237) can0 18EEFF00#56F5290400000220
(1547754033.936807) can0 1CEBFF00#05C05D0000FFFFFF
(1547754033.942778) can0 0CF00300#FF0000FF06FFFFFF
(1547754033.943375) can0 0CEFFF00#6406007DFFFFFFFF
(1547754033.943933) can0 18FEF200#0000FFFFFFFFFFFF
(1547754033.947027) can0 0DEF0603#0101FFFFFFFFFFF5
(1547754033.947576) can0 04EF0006#641510F00000930E
(1547754033.952804) can0 0CF00400#F0FF7D0000FFFFFF
(1547754033.962753) can0 0CF00300#FF0000FF06FFFFFF
(1547754033.963326) can0 0CEFFF00#6406007DFFFFFFFF
(1547754033.963884) can0 18EF0600#640E2100FFFFFFFF
(1547754033.967028) can0 0DEF0603#0101FFFFFFFFFFF5
(1547754033.967577) can0 04EF0006#641510F00000930E
(1547754033.968150) can0 0CFFFE06#5C271D271DFFFFFF
(1547754033.968727) can0 18FEF147#FF0000FFFFFFFFFF
(1547754033.969328) can0 18F00503#FFFFFFFFFFFFFFFF
(1547754033.972785) can0 0CF00400#F0FF7D0000FFFFFF
(1547754033.982764) can0 0CF00300#FF0000FF06FFFFFF
(1547754033.983378) can0 0CEFFF00#6406007DFFFFFFFF
(1547754033.983924) can0 18EFFF00#64100B0B0000007D
(1547754033.984498) can0 18FEF700#FFFFFFFFFFFFFA00
(1547754033.986914) can0 0DEF0647#0104FFFFFFFFFFF1
(1547754033.987528) can0 0DEF0603#0101FFFFFFFFFFF5
(1547754033.988101) can0 04EF0006#641510F00000930E
(1547754033.992793) can0 0CF00400#F0FF7D0000FFFFFF
(1547754034.002745) can0 0CF00300#FF0000FF07FFFFFF
(1547754034.003341) can0 0CEFFF00#6406007DFFFFFFFF
(1547754034.007030) can0 0DEF0603#0101FFFFFFFFFFF5
(1547754034.007602) can0 04EF0006#641510F00000A90E
(1547754034.008177) can0 0CFE4947#FFFFFFFFFFFFFFFF
(1547754034.008754) can0 0CFE4347#FFFFFFFFFFFFFFFF
(1547754034.009354) can0 0CFE4447#0000FFFF3FFFFFFF
(1547754034.009954) can0 0CFFFE06#5C531D531DFFFFFF
(1547754034.012787) can0 0CF00400#F0FF7D0000FFFFFF
(1547754034.022751) can0 0CF00300#FF0000FF06FFFFFF
(1547754034.023380) can0 0CEFFF00#6406007DFFFFFFFF
(1547754034.027017) can0 0DEF0603#0101FFFFFFFFFFF5
(1547754034.027580) can0 04EF0006#641510F00000930E
(1547754034.032806) can0 0CF00400#F0FF7D0000FFFFFF
(1547754034.035655) can0 18EEFF47#4D74300400340220
(1547754034.036230) can0 18EEFF06#4D743004000E0020
(1547754034.036802) can0 18EEFF03#4D74300400030220
(1547754034.042781) can0 0CF00300#FF0000FF06FFFFFF
(1547754034.043380) can0 0CEFFF00#6406007DFFFFFFFF
(1547754034.043954) can0 18FEF200#0000FFFFFFFFFFFF
(1547754034.047032) can0 0DEF0603#0101FFFFFFFFFFF5
(1547754034.047580) can0 04EF0006#641510F00000930E
(1547754034.048154) can0 0CFFFE06#5C271D271DFFFFFF
(1547754034.048714) can0 18FEF147#FF0000FFFFFFFFFF
(1547754034.049314) can0 18F00503#FFFFFFFFFFFFFFFF
(1547754034.052804) can0 0CF00400#F0FF7D0000FFFFFF
(1547754034.062758) can0 0CF00300#FF0000FF06FFFFFF
(1547754034.063330) can0 0CEFFF00#6406007DFFFFFFFF
(1547754034.063902) can0 18EF0600#640E2B00FFFFFFFF
(1547754034.067032) can0 0DEF0603#0101FFFFFFFFFFF5
(1547754034.067603) can0 04EF0006#641510F00000930E
(1547754034.072805) can0 0CF00400#F0FF7D0000FFFFFF
(1547754034.082782) can0 0CF00300#FF0000FF07FFFFFF
(1547754034.083355) can0 0CEFFF00#6406007DFFFFFFFF
(1547754034.083952) can0 18EFFF00#64100B0B0000007D
(1547754034.084530) can0 18FED500#FFFFFCFFFFFFFFFF
(1547754034.086913) can0 0DEF0647#0104FFFFFFFFFFF1
(1547754034.087554) can0 0DEF0603#0101FFFFFFFFFFF5
(1547754034.088103) can0 04EF0006#641510F00000A90E
(1547754034.088655) can0 0CFFFE06#5C531D531DFFFFFF
(1547754034.092816) can0 0CF00400#F0FF7D0000FFFFFF
(1547754034.102767) can0 0CF00300#FF0000FF06FFFFFF
(1547754034.103339) can0 0CEFFF00#6406007DFFFFFFFF
(1547754034.107056) can0 0DEF0603#0101FFFFFFFFFFF5
(1547754034.107604) can0 04EF0006#641510F00000930E
(1547754034.112807) can0 0CF00400#F0FF7D0000FFFFFF
(1547754034.122758) can0 0CF00300#FF0000FF06FFFFFF
(1547754034.123356) can0 0CEFFF00#6406007DFFFFFFFF
(1547754034.123928) can0 18FDB300#FFFF3629FFFFFFFF
(1547754034.127031) can0 0DEF0603#0101FFFFFFFFFFF5
(1547754034.127580) can0 04EF0006#641510F00000930E
(1547754034.128179) can0 0CFE4947#FFFFFFFFFFFFFFFF
(1547754034.128756) can0 0CFE4347#FFFFFFFFFFFFFFFF
(1547754034.129356) can0 0CFE4447#0000FFFF3FFFFFFF
(1547754034.129917) can0 0CFFFE06#5C271D271DFFFFFF
(1547754034.132816) can0 0CF00400#F0FF7D0000FFFFFF
(1547754034.142768) can0 0CF00300#FF0000FF06FFFFFF
(1547754034.143355) can0 0CEFFF00#6406007DFFFFFFFF
(1547754034.143939) can0 18FEF200#0000FFFFFFFFFFFF
(1547754034.147032) can0 0DEF0603#0101FFFFFFFFFFF5
(1547754034.147606) can0 04EF0006#641510F00000930E
(1547754034.152807) can0 0CF00400#F0FF7D0000FFFFFF
(1547754034.162783) can0 0CF00300#FF0000FF06FFFFFF
(1547754034.163382) can0 0CEFFF00#6406007DFFFFFFFF
(1547754034.163955) can0 18EF0600#640E3500FFFFFFFF
(1547754034.167057) can0 0DEF0603#0101FFFFFFFFFFF5
(1547754034.167607) can0 04EF0006#641510F00000930E
(1547754034.168159) can0 18FEF147#FF0000FFFFFFFFFF
(1547754034.168782) can0 18F00503#FFFFFFFFFFFFFFFF
(1547754034.172808) can0 0CF00400#F0FF7D0000FFFFFF
(1547754034.182759) can0 0CF00300#FF0000FF06FFFFFF
(1547754034.183334) can0 0CEFFF00#6406007DFFFFFFFF
(1547754034.183906) can0 18EFFF00#64100B0B0000007D
(1547754034.184483) can0 18FEDF00#7D261DFFFFFFFFFF
(1547754034.186936) can0 0DEF0647#0104FFFFFFFFFFF1
(1547754034.187559) can0 0DEF0603#0101FFFFFFFFFFF5
(1547754034.188130) can0 04EF0006#641510F00000930E
(1547754034.192834) can0 0CF00400#F0FF7D0000FFFFFF
(1547754034.202815) can0 0CF00300#FF0000FF06FFFFFF
(1547754034.203390) can0 0CEFFF00#6406007DFFFFFFFF
(1547754034.203964) can0 18FEEF00#FFFFFF00FFFFFFFA
(1547754034.207365) can0 0DEF0603#0101FFFFFFFFFFF5
(1547754034.207914) can0 04EF0006#641510F00000930E
(1547754034.208491) can0 0CFE4947#FFFFFFFFFFFFFFFF
(1547754034.209054) can0 0CFFFF47#5DFFFFF3FFFFFFFF
(1547754034.209694) can0 0CFE4347#0000FFFF3FFFFFFF
(1547754034.212899) can0 0CF00400#F0FF7D0000FFFFFF
(1547754034.222820) can0 0CF00300#FF0000FF07FFFFFF
(1547754034.223392) can0 0CEFFF00#6406007DFFFFFFFF
(1547754034.232829) can0 0CF00400#F0FF7D0000FFFFFF
(1547754034.242820) can0 0CF00300#FF0000FF06FFFFFF
(1547754034.243417) can0 0CEFFF00#6406007DFFFFFFFF
(1547754034.243992) can0 18FEF200#0000FFFFFFFFFFFF
(1547754034.252846) can0 0CF00400#F0FF7D0000FFFFFF
(1547754034.262822) can0 0CF00300#FF0000FF07FFFFFF
(1547754034.263395) can0 0CEFFF00#6406007DFFFFFFFF
(1547754034.263989) can0 18EF0600#640E3F00FFFFFFFF
(1547754034.272875) can0 0CF00400#F0FF7D0000FFFFFF
(1547754034.282822) can0 0CF00300#FF0000FF06FFFFFF
(1547754034.283394) can0 0CEFFF00#6406007DFFFFFFFF
(1547754034.283968) can0 18EFFF00#64100B0B0000007D
(1547754034.284545) can0 18FEF600#FF0041FF00FFFFFF
(1547754034.292851) can0 0CF00400#F0FF7D0000FFFFFF
(1547754034.302823) can0 0CF00300#FF0000FF07FFFFFF
(1547754034.303394) can0 0CEFFF00#6406007DFFFFFFFF
(1547754034.312849) can0 0CF00400#F0FF7D0000FFFFFF
(1547754034.322798) can0 0CF00300#FF0000FF06FFFFFF
(1547754034.323397) can0 0CEFFF00#6406007DFFFFFFFF
(1547754034.332846) can0 0CF00400#F0FF7D0000FFFFFF
(1547754034.333445) can0 18FFFA00#022C0000180C0000
(1547754034.342874) can0 0CF00300#FF0000FF07FFFFFF
(1547754034.343472) can0 0CEFFF00#6406007DFFFFFFFF
(1547754034.344044) can0 18FEF200#0000FFFFFFFFFFFF
(1547754034.352876) can0 0CF00400#F0FF7D0000FFFFFF
(1547754034.362826) can0 0CF00300#FF0000FF06FFFFFF
(1547754034.363397) can0 0CEFFF00#6406007DFFFFFFFF
(1547754034.363971) can0 18EF0600#640E4900FFFFFFFF
(1547754034.364548) can0 18FEF500#C8FFFFFFFF3BFFFF
(1547754034.372875) can0 0CF00400#F0FF7D0000FFFFFF
(1547754034.382827) can0 0CF00300#FF0000FF06FFFFFF
(1547754034.383399) can0 0CEFFF00#6406007DFFFFFFFF
(1547754034.383970) can0 18EFFF00#64100B0B0000007D
(1547754034.392852) can0 0CF00400#F0FF7D0000FFFFFF
(1547754034.402826) can0 0CF00300#FF0000FF06FFFFFF
(1547754034.403397) can0 0CEFFF00#6406007DFFFFFFFF
(1547754034.403972) can0 18FE6900#32257E27FFFF60FE
(1547754034.412875) can0 0CF00400#F0FF7D0000FFFFFF
(1547754034.422825) can0 0CF00300#FF0000FF07FFFFFF
(1547754034.423401) can0 0CEFFF00#6406007DFFFFFFFF
(1547754034.432875) can0 0CF00400#F0FF7D0000FFFFFF
(1547754034.433452) can0 18FEDF00#7D081DFFFFFFFFFF
(1547754034.442853) can0 0CF00300#FF0000FF07FFFFFF
(1547754034.443425) can0 0CEFFF00#6406007DFFFFFFFF
(1547754034.444024) can0 18FEF200#0000FFFFFFFFFFFF
(1547754034.452876) can0 0CF00400#F0FF7D0000FFFFFF
(1547754034.462828) can0 0CF00300#FF0000FF07FFFFFF
(1547754034.463403) can0 0CEFFF00#6406007DFFFFFFFF
(1547754034.463975) can0 18EF0600#640E5306FFFFFFFF
(1547754034.472852) can0 0CF00400#F0FF7D0000FFFFFF
(1547754034.482827) can0 0CF00300#FF0000FF07FFFFFF
(1547754034.483427) can0 0CEFFF00#6406007DFFFFFFFF
(1547754034.484000) can0 18EFFF00#64100B0B0000007D
(1547754034.492880) can0 0CF00400#F0FF7D0000FFFFFF
(1547754034.502830) can0 0CF00300#FF0000FF07FFFFFF
(1547754034.503402) can0 0CEFFF00#6406007DFFFFFFFF
(1547754034.512878) can0 0CF00400#F0FF7D0000FFFFFF
(1547754034.522829) can0 0CF00300#FF0000FF07FFFFFF
(1547754034.523405) can0 0CEFFF00#6406007DFFFFFFFF
(1547754034.523978) can0 18FD7C00#F880F0F000CF03FC
(1547754034.532911) can0 0CF00400#F0FF7D0000FFFFFF
(1547754034.542862) can0 0CF00300#FF0000FF06FFFFFF
(1547754034.543437) can0 0CEFFF00#6406007DFFFFFFFF
(1547754034.544010) can0 18FEF200#0000FFFFFFFFFFFF
(1547754034.552887) can0 0CF00400#F0FF7D0000FFFFFF
(1547754034.562864) can0 0CF00300#FF0000FF07FFFFFF
(1547754034.563438) can0 0CEFFF00#6406007DFFFFFFFF
(1547754034.564012) can0 18EF0600#640E5D06FFFFFFFF
(1547754034.572887) can0 0CF00400#F0FF7D0000FFFFFF
(1547754034.582837) can0 0CF00300#FF0000FF06FFFFFF
(1547754034.583412) can0 0CEFFF00#6406007DFFFFFFFF
(1547754034.583986) can0 18EFFF00#64100B0B0000007D
(1547754034.592862) can0 0CF00400#F0FF7D0000FFFFFF
(1547754034.602844) can0 0CF00300#FF0000FF06FFFFFF
(1547754034.603415) can0 0CEFFF00#6406007DFFFFFFFF
(1547754034.612892) can0 0CF00400#F0FF7D0000FFFFFF
(1547754034.622842) can0 0CF00300#FF0000FF06FFFFFF
(1547754034.623414) can0 0CEFFF00#6406007DFFFFFFFF
(1547754034.624012) can0 18FDB300#FFFF3629FFFFFFFF
(1547754034.624590) can0 1CEFFF00#64070000FFFFFFFF
(1547754034.632918) can0 0CF00400#F0FF7D0000FFFFFF
(1547754034.642895) can0 0CF00300#FF0000FF06FFFFFF
(1547754034.643442) can0 0CEFFF00#6406007DFFFFFFFF
(1547754034.644067) can0 18FEF200#0000FFFFFFFFFFFF
(1547754034.652886) can0 0CF00400#F0FF7D0000FFFFFF
(1547754034.662846) can0 0CF00300#FF0000FF06FFFFFF
(1547754034.663446) can0 0CEFFF00#6406007DFFFFFFFF
(1547754034.664020) can0 18EF0600#640E6706FFFFFFFF
(1547754034.672924) can0 0CF00400#F0FF7D0000FFFFFF
(1547754034.682847) can0 0CF00300#FF0000FF06FFFFFF
(1547754034.683417) can0 0CEFFF00#6406007DFFFFFFFF
(1547754034.683990) can0 18EFFF00#64100B0B0000007D
(1547754034.684567) can0 18FEDF00#7D021DFFFFFFFFFF
(1547754034.692898) can0 0CF00400#F0FF7D0000FFFFFF
(1547754034.702847) can0 0CF00300#FF0000FF06FFFFFF
(1547754034.703442) can0 0CEFFF00#6406007DFFFFFFFF
(1547754034.704016) can0 18FEEF00#FFFFFF00FFFFFFFA
(1547754034.712898) can0 0CF00400#F0FF7D0000FFFFFF
(1547754034.722851) can0 0CF00300#FF0000FF06FFFFFF
(1547754034.723421) can0 0CEFFF00#6406007DFFFFFFFF
(1547754034.732900) can0 0CF00400#F0FF7D0000FFFFFF
(1547754034.742826) can0 0CF00300#FF0000FF06FFFFFF
(1547754034.743391) can0 0CEFFF00#6406007DFFFFFFFF
(1547754034.743990) can0 18FEF200#0000FFFFFFFFFFFF
(1547754034.752903) can0 0CF00400#F0FF7D0000FFFFFF
(1547754034.762850) can0 0CF00300#FF0000FF06FFFFFF
(1547754034.763421) can0 0CEFFF00#6406007DFFFFFFFF
(1547754034.763993) can0 18EF0600#640E7106FFFFFFFF
(1547754034.772900) can0 0CF00400#F0FF7D0000FFFFFF
(1547754034.782875) can0 0CF00300#FF0000FF07FFFFFF
(1547754034.783448) can0 0CEFFF00#6406007DFFFFFFFF
(1547754034.784021) can0 18EFFF00#64100B0B0000007D
(1547754034.784598) can0 18FEF600#FF003FFF00FFFFFF
(1547754034.792901) can0 0CF00400#F0FF7D0000FFFFFF
(1547754034.802854) can0 18EFFA00#6401FF0000FFFFFF
(1547754034.803425) can0 0CEFFF00#6406007DFFFFFFFF
(1547754034.803995) can0 0CF00300#FF0000FF07FFFFFF
(1547754034.812901) can0 0CF00400#F0FF7D0000FFFFFF
(1547754034.822853) can0 0CF00300#FF0000FF06FFFFFF
(1547754034.823450) can0 0CEFFF00#6406007DFFFFFFFF
(1547754034.832904) can0 0CF00400#F0FF7D0000FFFFFF
(1547754034.842902) can0 0CF00300#FF0000FF07FFFFFF
(1547754034.843473) can0 0CEFFF00#6406007DFFFFFFFF
(1547754034.844048) can0 18FEF200#0000FFFFFFFFFFFF
(1547754034.852926) can0 0CF00400#F0FF7D0000FFFFFF
(1547754034.862854) can0 0CF00300#FF0000FF07FFFFFF
(1547754034.863450) can0 0CEFFF00#6406007DFFFFFFFF
(1547754034.864023) can0 18EF0600#640E7B06FFFFFFFF
(1547754034.872906) can0 0CF00400#F0FF7D0000FFFFFF
(1547754034.882876) can0 0CF00300#FF0000FF06FFFFFF
(1547754034.883475) can0 0CEFFF00#6406007DFFFFFFFF
(1547754034.884049) can0 18EFFF00#64100B0B0000007D
(1547754034.892930) can0 0CF00400#F0FF7D0000FFFFFF
(1547754034.902882) can0 0CF00300#FF0000FF06FFFFFF
(1547754034.903455) can0 0CEFFF00#6406007DFFFFFFFF
(1547754034.904050) can0 18FEEE00#5241FFFFFFFFFFFF
(1547754034.912864) can0 0CF00400#F0FF7D0000FFFFFF
(1547754034.922903) can0 0CF00300#FF0000FF07FFFFFF
(1547754034.923477) can0 0CEFFF00#6406007DFFFFFFFF
(1547754034.932907) can0 0CF00400#F0FF7D0000FFFFFF
(1547754034.933479) can0 18FEDF00#7D081DFFFFFFFFFF
(1547754034.942882) can0 0CF00300#FF0000FF06FFFFFF
(1547754034.943479) can0 0CEFFF00#6406007DFFFFFFFF
(1547754034.944053) can0 18FEF200#0000FFFFFFFFFFFF
(1547754034.952932) can0 0CF00400#F0FF7D0000FFFFFF
(1547754034.962858) can0 0CF00300#FF0000FF06FFFFFF
(1547754034.963456) can0 0CEFFF00#6406007DFFFFFFFF
(1547754034.964027) can0 18EF0600#640E8506FFFFFFFF
(1547754034.972932) can0 0CF00400#F0FF7D0000FFFFFF
(1547754034.982884) can0 0CF00300#FF0000FF06FFFFFF
(1547754034.983458) can0 0CEFFF00#6406007DFFFFFFFF
(1547754034.984030) can0 18EFFF00#64100B0B0000007D
(1547754034.984605) can0 18FEF700#FFFFFFFFFFFFF800
(1547754034.992886) can0 0CF00400#F0FF7D0000FFFFFF
(1547754035.002886) can0 0CF00300#FF0000FF07FFFFFF
(1547754035.003456) can0 0CEFFF00#6406007DFFFFFFFF
(1547754035.012912) can0 0CF00400#F0FF7D0000FFFFFF
(1547754035.022886) can0 0CF00300#FF0000FF06FFFFFF
(1547754035.023457) can0 0CEFFF00#6406007DFFFFFFFF
(1547754035.026586) can0 18EEFF47#4D74300400340220
(1547754035.027180) can0 18EEFF06#4D743004000E0020
(1547754035.027758) can0 18EEFF03#4D74300400030220
(1547754035.032933) can0 0CF00400#F0FF7D0000FFFFFF
(1547754035.042910) can0 0CF00300#FF0000FF06FFFFFF
(1547754035.043508) can0 0CEFFF00#6406007DFFFFFFFF
(1547754035.044082) can0 18FEF200#0000FFFFFFFFFFFF
(1547754035.052932) can0 0CF00400#F0FF7D0000FFFFFF
(1547754035.062885) can0 0CF00300#FF0000FF06FFFFFF
(1547754035.063458) can0 0CEFFF00#6406007DFFFFFFFF
(1547754035.064032) can0 18EF0600#640E8F06FFFFFFFF
(1547754035.072935) can0 0CF00400#F0FF7D0000FFFFFF
(1547754035.082860) can0 0CF00300#FF0000FF06FFFFFF
(1547754035.083461) can0 0CEFFF00#6406007DFFFFFFFF
(1547754035.084032) can0 18EFFF00#64100B0B0000007D
(1547754035.084609) can0 18FED500#FFFFFCFFFFFFFFFF
(1547754035.092936) can0 0CF00400#F0FF7D0000FFFFFF
(1547754035.102688) can0 18EEFF17#0C6E240400130220
(1547754035.103258) can0 0CEFFF00#6406007DFFFFFFFF
(1547754035.103836) can0 0CF00300#FF0000FF07FFFFFF
(1547754035.112936) can0 0CF00400#F0FF7D0000FFFFFF
(1547754035.122887) can0 0CF00300#FF0000FF06FFFFFF
(1547754035.123463) can0 0CEFFF00#6406007DFFFFFFFF
(1547754035.124036) can0 18FDB300#FFFF3629FFFFFFFF
(1547754035.132937) can0 0CF00400#F0FF7D0000FFFFFF
(1547754035.142913) can0 0CF00300#FF0000FF06FFFFFF
(1547754035.143488) can0 0CEFFF00#6406007DFFFFFFFF
(1547754035.144063) can0 18FEF200#0000FFFFFFFFFFFF
(1547754035.152913) can0 0CF00400#F0FF7D0000FFFFFF
(1547754035.162890) can0 0CF00300#FF0000FF07FFFFFF
(1547754035.163490) can0 0CEFFF00#6406007DFFFFFFFF
(1547754035.164037) can0 18EF0600#640E9906FFFFFFFF
(1547754035.172934) can0 0CF00400#F0FF7D0000FFFFFF
(1547754035.182888) can0 0CF00300#FF0000FF06FFFFFF
(1547754035.183461) can0 0CEFFF00#6406007DFFFFFFFF
(1547754035.184036) can0 18EFFF00#64100B0B0000007D
(1547754035.184611) can0 18FEDF00#7D001DFFFFFFFFFF
(1547754035.192936) can0 0CF00400#F0FF7D0000FFFFFF
(1547754035.202886) can0 0CF00300#FF0000FF06FFFFFF
(1547754035.203461) can0 0CEFFF00#6406007DFFFFFFFF
(1547754035.204039) can0 18FEEF00#FFFFFF00FFFFFFFA
(1547754035.212939) can0 0CF00400#F0FF7D0000FFFFFF
(1547754035.222866) can0 0CF00300#FF0000FF06FFFFFF
(1547754035.223462) can0 0CEFFF00#6406007DFFFFFFFF
(1547754035.232943) can0 0CF00400#F0FF7D0000FFFFFF
(1547754035.242919) can0 0CF00300#FF0000FF06FFFFFF
(1547754035.243488) can0 0CEFFF00#6406007DFFFFFFFF
(1547754035.244056) can0 18FEF200#0000FFFFFFFFFFFF
(1547754035.252844) can0 0CF00400#F0FF7D0000FFFFFF
(1547754035.263045) can0 0CF00300#FF0000FF06FFFFFF
(1547754035.263559) can0 0CEFFF00#6406007DFFFFFFFF
(1547754035.264188) can0 18EF0600#640EA306FFFFFFFF
(1547754035.272845) can0 0CF00400#F0FF7D0000FFFFFF
(1547754035.282796) can0 0CF00300#FF0000FF06FFFFFF
(1547754035.283390) can0 0CEFFF00#6406007DFFFFFFFF
(1547754035.283885) can0 18EFFF00#64100B0B2003007D
(1547754035.284515) can0 18FEF600#FF003FFF00FFFFFF
(1547754035.287872) can0 0DEF0603#0101FFFFFFFFFFF5
(1547754035.292771) can0 0CF00400#F0FF7D0000FFFFFF
(1547754035.302746) can0 0CF00300#FF0000FF06FFFFFF
(1547754035.303318) can0 0CEFFF00#6406007DFFFFFFFF
(1547754035.307773) can0 0DEF0647#0104FFFFFFFFFFF1
(1547754035.308369) can0 0DEF0603#0101FFFFFFFFFFF5
(1547754035.308742) can0 18EAFF47#00EE00
(1547754035.309342) can0 0CFFFE06#5CFFFFFFFFFFFFFF
(1547754035.312796) can0 0CF00400#F0FF7D0000FFFFFF
(1547754035.322746) can0 0CF00300#FF0000FF07FFFFFF
(1547754035.323316) can0 0CEFFF00#6406007DFFFFFFFF
(1547754035.327874) can0 0DEF0603#0101FFFFFFFFFFF5
(1547754035.332797) can0 0CF00400#F0FF7D0000FFFFFF
(1547754035.333369) can0 18FFFA00#022C0000180C00A5
(1547754035.336242) can0 18EEFF00#56F5290400000220
(1547754035.342797) can0 0CF00300#FF0000FF06FFFFFF
(1547754035.343370) can0 0CEFFF00#6406007DFFFFFFFF
(1547754035.343968) can0 18FEF200#0000FFFFFFFFFFFF
(1547754035.347873) can0 0DEF0603#0101FFFFFFFFFFF5
(1547754035.348471) can0 0CFE4947#FFFFFFFFFFFFFFFF
(1547754035.349067) can0 0CFE4347#FFFFFFFFFFFFFFFF
(1547754035.349668) can0 0CFE4447#0000FFFF3FFFFFFF
(1547754035.352799) can0 0CF00400#F0FF7D0000FFFFFF
(1547754035.362748) can0 0CF00300#FF0000FF06FFFFFF
(1547754035.363318) can0 0CEFFF00#6406007DFFFFFFFF
(1547754035.363892) can0 18EF0600#640EAD06FFFFFFFF
(1547754035.364469) can0 18FEF500#C8FFFFFFFF3AFFFF
(1547754035.367826) can0 0DEF0603#0101FFFFFFFFFFF5
(1547754035.372800) can0 0CF00400#F0FF7D0000FFFFFF
(1547754035.382749) can0 0CF00300#FF0000FF06FFFFFF
(1547754035.383320) can0 0CEFFF00#6406007DFFFFFFFF
(1547754035.383719) can0 18EAFF17#00EE00
(1547754035.384267) can0 18EFFF00#64100B0B2003007D
(1547754035.387874) can0 0DEF0603#0101FFFFFFFFFFF5
(1547754035.388448) can0 18FEF147#FF0000FFFFFFFFFF
(1547754035.389043) can0 18F00503#FFFFFFFFFFFFFFFF
(1547754035.392799) can0 0CF00400#F0FF7D0000FFFFFF
(1547754035.402750) can0 0CF00300#FF0000FF06FFFFFF
(1547754035.403321) can0 0CEFFF00#6406007DFFFFFFFF
(1547754035.403893) can0 18FE6900#08258027FFFF60FE
(1547754035.404475) can0 1CFFFF17#22FFFF3CFFFFFFFF
(1547754035.407770) can0 0DEF0647#0104FFFFFFFFFFF1
(1547754035.408395) can0 0DEF0603#0101FFFFFFFFFFF5
(1547754035.412801) can0 0CF00400#F0FF7D0000FFFFFF
(1547754035.422746) can0 0CF00300#FF0000FF07FFFFFF
(1547754035.423322) can0 0CEFFF00#6406007DFFFFFFFF
(1547754035.427874) can0 0DEF0603#0101FFFFFFFFFFF5
(1547754035.428498) can0 0CFE4947#FFFFFFFFFFFFFFFF
(1547754035.429095) can0 0CFE4347#FFFFFFFFFFFFFFFF
(1547754035.429700) can0 0CFE4447#0000FFFF3FFFFFFF
(1547754035.430291) can0 0CFFFE06#5CFFFFFFFFFFFFFF
(1547754035.432798) can0 0CF00400#F0FF7D0000FFFFFF
(1547754035.433372) can0 18FEDF00#7D081DFFFFFFFFFF
(1547754035.436149) can0 18EEFF00#56F5290400000220
(1547754035.442802) can0 0CF00300#FF0000FF07FFFFFF
(1547754035.443372) can0 0CEFFF00#6406007DFFFFFFFF
(1547754035.443947) can0 18FEF200#0000FFFFFFFFFFFF
(1547754035.447872) can0 0DEF0603#0101FFFFFFFFFFF5
(1547754035.452804) can0 0CF00400#F0FF7D0000FFFFFF
(1547754035.462753) can0 0CF00300#FF0000FF07FFFFFF
(1547754035.463323) can0 0CEFFF00#6406007DFFFFFFFF
(1547754035.463920) can0 18EF0600#640EB706FFFFFFFF
(1547754035.467874) can0 0DEF0603#0101FFFFFFFFFFF5
(1547754035.468449) can0 18FEF147#FF0000FFFFFFFFFF
(1547754035.469046) can0 18F00503#FFFFFFFFFFFFFFFF
(1547754035.472803) can0 0CF00400#F0FF7D0000FFFFFF
(1547754035.482780) can0 0CF00300#FF0000FF06FFFFFF
(1547754035.483324) can0 0CEFFF00#6406007DFFFFFFFF
(1547754035.483897) can0 18EFFF00#64100B0B2003007D
(1547754035.487877) can0 0DEF0603#0101FFFFFFFFFFF5
(1547754035.492805) can0 0CF00400#F0FF7D0000FFFFFF
(1547754035.502756) can0 0CF00300#FF0000FF06FFFFFF
(1547754035.503324) can0 0CEFFF00#6406007DFFFFFFFF
(1547754035.503725) can0 18EA0017#09FF00
(1547754035.507775) can0 0DEF0647#0104FFFFFFFFFFF1
(1547754035.508376) can0 0DEF0603#0101FFFFFFFFFFF5
(1547754035.509000) can0 0CFFFE06#5CFFFFFFFFFFFFFF
(1547754035.512805) can0 0CF00400#F0FF7D0000FFFFFF
(1547754035.522759) can0 0CF00300#FF0000FF06FFFFFF
(1547754035.523327) can0 0CEFFF00#6406007DFFFFFFFF
(1547754035.523899) can0 18FD7C00#F880F1F000CF03FC
(1547754035.527921) can0 0DEF0603#0101FFFFFFFFFFF5
(1547754035.528550) can0 04EF0006#641510F00000930E
(1547754035.529124) can0 0C000006#30FFFFFFF8FFFFFF
(1547754035.532802) can0 0CF00400#F0FF7D0000FFFFFF
(1547754035.536256) can0 18FF0900#454355FFFFFFFFFF
(1547754035.542809) can0 0CF00300#FF0000FF06FFFFFF
(1547754035.543376) can0 0CEFFF00#6406007DFFFFFFFF
(1547754035.543952) can0 18FEF200#0000FFFFFFFFFFFF
(1547754035.547982) can0 0DEF0603#0101FFFFFFFFFFF5
(1547754035.548526) can0 04EF0006#641510F00000930E
(1547754035.549069) can0 0CFE4947#FFFFFFFFFFFFFFFF
(1547754035.549704) can0 18FFFB06#00057DF8FFFFFFFF
(1547754035.550277) can0 0CFE4347#FFFFFFFFFFFFFFFF
(1547754035.550829) can0 0CFE4447#0000FFFF3FFFFFFF
(1547754035.551403) can0 0CFFFE06#5C271D271DFFFFFF
(1547754035.552803) can0 0CF00400#F0FF7D0000FFFFFF
(1547754035.562758) can0 0CF00300#FF0000FF06FFFFFF
(1547754035.563352) can0 0CEFFF00#6406007DFFFFFFFF
(1547754035.563926) can0 18EF0600#640EC100FFFFFFFF
(1547754035.567984) can0 0DEF0603#0101FFFFFFFFFFF5
(1547754035.568473) can0 04EF0006#641510F00000930E
(1547754035.572808) can0 0CF00400#F0FF7D0000FFFFFF
(1547754035.582783) can0 0CF00300#FF0000FF06FFFFFF
(1547754035.583328) can0 0CEFFF00#6406007DFFFFFFFF
(1547754035.583903) can0 18EFFF00#64100B0B2003007D
(1547754035.587984) can0 0DEF0603#0101FFFFFFFFFFF5
(1547754035.588555) can0 04EF0006#641510F00000930E
(1547754035.589129) can0 18FEF147#FF0000FFFFFFFFFF
(1547754035.589730) can0 18F00503#FFFFFFFFFFFFFFFF
(1547754035.592808) can0 0CF00400#F0FF7D0000FFFFFF
(1547754035.602758) can0 0CF00300#FF0000FF06FFFFFF
(1547754035.603331) can0 0CEFFF00#6406007DFFFFFFFF
(1547754035.607884) can0 0DEF0647#0104FFFFFFFFFFF1
(1547754035.608504) can0 0DEF0603#0101FFFFFFFFFFF5
(1547754035.609053) can0 04EF0006#641510F00000930E
(1547754035.612810) can0 0CF00400#F0FF7D0000FFFFFF
(1547754035.622760) can0 0CF00300#FF0000FF06FFFFFF
(1547754035.623356) can0 0CEFFF00#6406007DFFFFFFFF
(1547754035.623906) can0 18FDB300#FFFF3629FFFFFFFF
(1547754035.624507) can0 1CEFFF00#64070000FFFFFFFF
(1547754035.628284) can0 0DEF0603#0101FFFFFFFFFFF5
(1547754035.628829) can0 04EF0006#641510F00000930E
(1547754035.629409) can0 0CFE4947#FFFFFFFFFFFFFFFF
(1547754035.630009) can0 0CFFFF47#5DFFFFF3FFFFFFFF
(1547754035.630561) can0 0CFE4347#0000FFFF3FFFFFFF
(1547754035.631139) can0 0CFE4447#0000FFFF3FFFFFFF
(1547754035.632830) can0 0CF00400#F0FF7D0000FFFFFF
(1547754035.642812) can0 0CF00300#FF0000FF06FFFFFF
(1547754035.643381) can0 0CEFFF00#6406007DFFFFFFFF
(1547754035.643980) can0 18FEF200#0000FFFFFFFFFFFF
(1547754035.648263) can0 0DEF0603#0101FFFFFFFFFFF5
(1547754035.648829) can0 04EF0006#641510F00000930E
(1547754035.652811) can0 0CF00400#F0FF7D0000FFFFFF
(1547754035.662750) can0 0CF00300#FF0000FF06FFFFFF
(1547754035.663314) can0 0CEFFF00#6406007DFFFFFFFF
(1547754035.663889) can0 18EF0600#640ECB00FFFFFFFF
(1547754035.668241) can0 0DEF0603#0101FFFFFFFFFFF5
(1547754035.668789) can0 04EF0006#641510F00000930E
(1547754035.669340) can0 0CFFFE06#5C271D271DFFFFFF
(1547754035.669913) can0 18FEF147#FF0000FFFFFFFFFF
(1547754035.670514) can0 18F00503#7DFFFFFFFFFFFFFF
(1547754035.672772) can0 0CF00400#F0FF7D0000FFFFFF
(1547754035.682714) can0 0CF00300#FF0000FF06FFFFFF
(1547754035.683303) can0 0CEFFF00#6406007DFFFFFFFF
(1547754035.683875) can0 18EFFF00#64100B0B2003007D
(1547754035.684436) can0 18FEDF00#7D261DFFFFFFFFFF
(1547754035.688238) can0 0DEF0603#0101FFFFFFFFFFF5
(1547754035.688803) can0 04EF0006#641510F00000930E
(1547754035.692778) can0 0CF00400#F0FF7D0000FFFFFF
(1547754035.702754) can0 0CF00300#FF0000FF06FFFFFF
(1547754035.703328) can0 0CEFFF00#6406007DFFFFFFFF
(1547754035.703902) can0 18FEEF00#FFFFFF00FFFFFFFA
(1547754035.707906) can0 0DEF0647#0104FFFFFFFFFFF1
(1547754035.708529) can0 0DEF0603#0101FFFFFFFFFFF5
(1547754035.709076) can0 04EF0006#641510F00000930E
(1547754035.709653) can0 18FFFF06#73FFFFFFFFFFFFFF
(1547754035.711603) can0 18EEFF47#4D74300400340220
(1547754035.712177) can0 18EEFF06#4D743004000E0020
(1547754035.712712) can0 18EEFF17#0C6E240400130220
(1547754035.713286) can0 0CF00400#F0FF7D0000FFFFFF
(1547754035.713879) can0 18EEFF03#4D74300400030220
(1547754035.722713) can0 0CF00300#FF0000FF06FFFFFF
(1547754035.723304) can0 0CEFFF00#6406007DFFFFFFFF
(1547754035.728240) can0 0DEF0603#0101FFFFFFFFFFF5
(1547754035.728804) can0 04EF0006#641510F00000930E
(1547754035.732763) can0 0CF00400#F0FF7D0000FFFFFF
(1547754035.742780) can0 0CF00300#FF0000FF06FFFFFF
(1547754035.743355) can0 0CEFFF00#6406007DFFFFFFFF
(1547754035.743954) can0 18FEF200#0000FFFFFFFFFFFF
(1547754035.748241) can0 0DEF0603#0101FFFFFFFFFFF5
(1547754035.748789) can0 04EF0006#641510F00000930E
(1547754035.749365) can0 0CFE4947#FFFFFFFFFFFFFFFF
(1547754035.749964) can0 1CFDDF47#FCFFFFFFFFFFFFFF
(1547754035.750540) can0 0CFE4347#0000FFFF3FFFFFFF
(1547754035.751124) can0 0CFE4447#0000FFFF3FFFFFFF
(1547754035.751714) can0 0CFFFE06#5C271D271DFFFFFF
(1547754035.752814) can0 0CF00400#F0FF7D0000FFFFFF
(1547754035.753406) can0 18FECA03#01FFF4FEFF00FFFF
(1547754035.762740) can0 0CF00300#FF0000FF06FFFFFF
(1547754035.763314) can0 0CEFFF00#6406007DFFFFFFFF
(1547754035.763903) can0 18EF0600#640ED500FFFFFFFF
(1547754035.768159) can0 0DEF0603#0101FFFFFFFFFFF5
(1547754035.768731) can0 04EF0006#641510F00000930E
(1547754035.772781) can0 0CF00400#F0FF7D0000FFFFFF
(1547754035.782757) can0 0CF00300#FF0000FF07FFFFFF
(1547754035.783332) can0 0CEFFF00#6406007DFFFFFFFF
(1547754035.783879) can0 18EFFF00#64100B0B2003007D
(1547754035.784456) can0 18FEF600#FF003FFF00FFFFFF
(1547754035.788160) can0 0DEF0603#0101FFFFFFFFFFF5
(1547754035.788707) can0 04EF0006#641510F00000A90E
(1547754035.789307) can0 0CFFFE06#5C531D531DFFFFFF
(1547754035.789856) can0 18FEF147#FF0000FFFFFFFFFF
(1547754035.790441) can0 18F00647#FFCFFFFFFFFFFFFF
(1547754035.791039) can0 18F00503#7DFFFFFFFFFFFFFF
(1547754035.792807) can0 0CF00400#F0FF7D0000FFFFFF
(1547754035.802734) can0 18EFFA00#6401FF0000FFFFFF
(1547754035.803308) can0 0CEFFF00#6406007DFFFFFFFF
(1547754035.803880) can0 0CF00300#FF0000FF06FFFFFF
(1547754035.807911) can0 0DEF0647#0104FFFFFFFFFFF1
(1547754035.808534) can0 0DEF0603#0101FFFFFFFFFFF5
(1547754035.809079) can0 04EF0006#641510F00000930E
(1547754035.812783) can0 0CF00400#F0FF7D0000FFFFFF
(1547754035.822734) can0 0CF00300#FF0000FF06FFFFFF
(1547754035.823334) can0 0CEFFF00#6406007DFFFFFFFF
(1547754035.828186) can0 0DEF0603#0101FFFFFFFFFFF5
(1547754035.828734) can0 04EF0006#641511F00000930E
(1547754035.829308) can0 0CFE4947#FFFFFFFFFFFFFFFF
(1547754035.829907) can0 0CFE4347#0000FFFF3FFFFFFF
(1547754035.830509) can0 0CFE4447#0000FFFF3FFFFFFF
(1547754035.831082) can0 0CFFFE06#5C271D271DFFFFFF
(1547754035.832792) can0 0CF00400#F0FF7D0000FFFFFF
(1547754035.842768) can0 0CF00300#FF0000FF06FFFFFF
(1547754035.843360) can0 0CEFFF00#6406007DFFFFFFFF
(1547754035.843941) can0 18FEF200#0000FFFFFFFFFFFF
(1547754035.848170) can0 0DEF0603#0101FFFFFFFFFFF5
(1547754035.848734) can0 04EF0006#641512F00000930E
(1547754035.852810) can0 0CF00400#F0FF7D0000FFFFFF
(1547754035.862760) can0 0CF00300#FF0000FF07FFFFFF
(1547754035.863335) can0 0CEFFF00#6406007DFFFFFFFF
(1547754035.863908) can0 18EF0600#640EDF00FFFFFFFF
(1547754035.868188) can0 0DEF0603#0101FFFFFFFFFFF5
(1547754035.868736) can0 04EF0006#641513F00000A90E
(1547754035.869310) can0 0CFFFE06#5C531D531DFFFFFF
(1547754035.869884) can0 18FEF147#FF0000FFFFFFFFFF
(1547754035.870460) can0 18F00503#7DFFFFFFFFFFFFFF
(1547754035.872769) can0 0CF00400#F0FF7D0000FFFFFF
(1547754035.882731) can0 0CF00300#FF0000FF07FFFFFF
(1547754035.883362) can0 0CEFFF00#6406007DFFFFFFFF
(1547754035.883909) can0 18EFFF00#64100B0B2003007D
(1547754035.888170) can0 0DEF0603#0101FFFFFFFFFFF5
(1547754035.888736) can0 04EF0006#641514F00000A90E
(1547754035.892771) can0 0CF00400#F0FF7D0000FFFFFF
(1547754035.902760) can0 0CF00300#FF0000FF07FFFFFF
(1547754035.903338) can0 0CEFFF00#6406007DFFFFFFFF
(1547754035.903717) can0 18EA4717#09FF00
(1547754035.904311) can0 18FEEE00#5341FFFFFFFFFFFF
(1547754035.904671) can0 18EA0617#09FF00
(1547754035.905082) can0 18EA0317#09FF00
(1547754035.907940) can0 0DEF0647#0104FFFFFFFFFFF1
(1547754035.908538) can0 0DEF0603#0101FFFFFFFFFFF5
(1547754035.909085) can0 04EF0006#641515F00000A90E
(1547754035.909663) can0 18FF0947#434355FFFFFFFFFF
(1547754035.910250) can0 18FF0906#454943FFFFFFFFFF
(1547754035.910850) can0 18FF0903#505452FFFFFFFFFF
(1547754035.911450) can0 18FECA06#00FF00000000FFFF
(1547754035.912800) can0 18FECA47#00FF00000000FFFF
(1547754035.913358) can0 0CF00400#F0FF7D0000FFFFFF
(1547754035.922748) can0 0CF00300#FF0000FF06FFFFFF
(1547754035.923321) can0 0CEFFF00#6406007DFFFFFFFF
(1547754035.928149) can0 0DEF0603#0101FFFFFFFFFFF5
(1547754035.928738) can0 04EF0006#641516F00000930E
(1547754035.932791) can0 0CF00400#F0FF7D0000FFFFFF
(1547754035.933348) can0 18FEDF00#7D521DFFFFFFFFFF
(1547754035.942817) can0 0CF00300#FF0000FF07FFFFFF
(1547754035.943373) can0 0CEFFF00#6406007DFFFFFFFF
(1547754035.943962) can0 18FEF200#0000FFFFFFFFFFFF
(1547754035.948191) can0 0DEF0603#0101FFFFFFFFFFF5
(1547754035.948738) can0 04EF0006#641517F00000A90E
(1547754035.949315) can0 0CFE4947#FFFFFFFFFFFFFFFF
(1547754035.949899) can0 0CFE4347#0000FFFF3FFFFFFF
(1547754035.950498) can0 0CFE4447#0000FFFF3FFFFFFF
(1547754035.951087) can0 0CFFFE06#5C531D531DFFFFFF
(1547754035.952797) can0 0CF00400#F0FF7D0000FFFFFF
(1547754035.962750) can0 0CF00300#FF0000FF06FFFFFF
(1547754035.963340) can0 0CEFFF00#6406007DFFFFFFFF
(1547754035.963921) can0 18EF0600#640EE900FFFFFFFF
(1547754035.968176) can0 0DEF0603#0101FFFFFFFFFFF5
(1547754035.968739) can0 04EF0006#641518F00000930E
(1547754035.972818) can0 0CF00400#F0FF7D0000FFFFFF
(1547754035.982768) can0 0CF00300#FF0000FF07FFFFFF
(1547754035.983341) can0 0CEFFF00#6406007DFFFFFFFF
(1547754035.983897) can0 18EFFF00#64100B0B2003007D
(1547754035.984491) can0 18FEF700#FFFFFFFFFFFFF800
(1547754035.985064) can0 18FECA17#00FF00000000FFFF
(1547754035.988193) can0 0DEF0603#0101FFFFFFFFFFF5
(1547754035.988740) can0 04EF0006#641519F00000A90E
(1547754035.989316) can0 0CFFFE06#5C531D531DFFFFFF
(1547754035.989873) can0 18FEF147#FF0000FFFFFFFFFF
(1547754035.990449) can0 18F00503#7DFFFFFFFFFFFFFF
(1547754035.992799) can0 0CF00400#F0FF7D0000FFFFFF
(1547754036.002771) can0 0CF00300#FF0000FF07FFFFFF
(1547754036.003342) can0 0CEFFF00#6406007DFFFFFFFF
(1547754036.007944) can0 0DEF0647#0104FFFFFFFFFFF1
(1547754036.008541) can0 0DEF0603#0101FFFFFFFFFFF5
(1547754036.009115) can0 04EF0006#64151AF00000A90E
(1547754036.012794) can0 0CF00400#F0FF7D0000FFFFFF
(1547754036.022769) can0 0CF00300#FF0000FF06FFFFFF
(1547754036.023343) can0 0CEFFF00#6406007DFFFFFFFF
(1547754036.027495) can0 18EAFF06#E5FE00
(1547754036.028266) can0 0DEF0603#0101FFFFFFFFFFF5
(1547754036.028816) can0 04EF0006#64151BF00000930E
(1547754036.029393) can0 0CFE4947#FFFFFFFFFFFFFFFF
(1547754036.029945) can0 18FEE706#CC0A0000FFFFFFFF
(1547754036.030568) can0 0CFE4347#0000FFFF3FFFFFFF
(1547754036.031166) can0 0CFE4447#0000FFFF3FFFFFFF
(1547754036.031743) can0 0CFFFE06#5C271D271DFFFFFF
(1547754036.032817) can0 0CF00400#F0FF7D0000FFFFFF
(1547754036.036317) can0 18FEE500#CC0A0000FFFFFFFF
(1547754036.042796) can0 0CF00300#FF0000FF06FFFFFF
(1547754036.043368) can0 0CEFFF00#6406007DFFFFFFFF
(1547754036.043967) can0 18FEF200#0000FFFFFFFFFFFF
(1547754036.048196) can0 0DEF0603#0101FFFFFFFFFFF5
(1547754036.048743) can0 04EF0006#64151CF00000930E
(1547754036.052796) can0 0CF00400#F0FF7D0000FFFFFF
(1547754036.062772) can0 0CF00300#FF0000FF07FFFFFF
(1547754036.063369) can0 0CEFFF00#6406007DFFFFFFFF
(1547754036.063917) can0 18EF0600#640EF300FFFFFFFF
(1547754036.064495) can0 1CFFFF17#22FFFF3CFFFFFFFF
(1547754036.068197) can0 0DEF0603#0101FFFFFFFFFFF5
(1547754036.068744) can0 04EF0006#64151DF00000A90E
(1547754036.069319) can0 0CFFFE06#5C531D531DFFFFFF
(1547754036.069894) can0 18FEF147#FF0000FFFFFFFFFF
(1547754036.070477) can0 18F00503#7DFFFFFFFFFFFFFF
(1547754036.072802) can0 0CF00400#F0FF7D0000FFFFFF
(1547754036.082771) can0 0CF00300#FF0000FF06FFFFFF
(1547754036.083345) can0 0CEFFF00#6406007DFFFFFFFF
(1547754036.083917) can0 18EFFF00#64100B0B2003007D
(1547754036.084496) can0 18FED500#FFFFFCFFFFFFFFFF
(1547754036.088181) can0 0DEF0603#0101FFFFFFFFFFF5
(1547754036.088745) can0 04EF0006#64151EF00000930E
(1547754036.092823) can0 0CF00400#F0FF7D0000FFFFFF
(1547754036.102773) can0 0CF00300#FF0000FF06FFFFFF
(1547754036.103345) can0 0CEFFF00#6406007DFFFFFFFF
(1547754036.107948) can0 0DEF0647#0104FFFFFFFFFFF1
(1547754036.108547) can0 0DEF0603#0101FFFFFFFFFFF5
(1547754036.109119) can0 04EF0006#64151FF00000930E
(1547754036.109671) can0 0CFFFE06#5C271D271DFFFFFF
(1547754036.112823) can0 0CF00400#F0FF7D0000FFFFFF
(1547754036.122775) can0 0CF00300#FF0000FF06FFFFFF
(1547754036.123347) can0 0CEFFF00#6406007DFFFFFFFF
(1547754036.123919) can0 18FDB300#FFFF3629FFFFFFFF
(1547754036.128199) can0 0DEF0603#0101FFFFFFFFFFF5
(1547754036.128746) can0 04EF0006#641510F00000930E
(1547754036.132825) can0 0CF00400#F0FF7D0000FFFFFF
(1547754036.142825) can0 0CF00300#FF0000FF06FFFFFF
(1547754036.143399) can0 0CEFFF00#6406007DFFFFFFFF
(1547754036.143971) can0 18FEF200#0000FFFFFFFFFFFF
(1547754036.148199) can0 0DEF0603#0101FFFFFFFFFFF5
(1547754036.148748) can0 04EF0006#641511F00000930E
(1547754036.149323) can0 0CFE4947#FFFFFFFFFFFFFFFF
(1547754036.149923) can0 0CFFFF47#5DFFFFF3FFFFFFFF
(1547754036.150524) can0 0CFE4347#0000FFFF3FFFFFFF
(1547754036.151104) can0 0CFE4447#0000FFFF3FFFFFFF
(1547754036.152831) can0 0CF00400#F0FF7D0000FFFFFF
(1547754036.162759) can0 0CF00300#FF0000FF06FFFFFF
(1547754036.163348) can0 0CEFFF00#6406007DFFFFFFFF
(1547754036.163915) can0 18EF0600#640EFD00FFFFFFFF
(1547754036.168170) can0 0DEF0603#0101FFFFFFFFFFF5
(1547754036.168736) can0 04EF0006#641512F00000930E
(1547754036.172811) can0 0CF00400#F0FF7D0000FFFFFF
(1547754036.182764) can0 0CF00300#FF0000FF07FFFFFF
(1547754036.183337) can0 0CEFFF00#6406007DFFFFFFFF
(1547754036.183910) can0 18EFFF00#64100B0B2003007D
(1547754036.184487) can0 18FEDF00#7D261DFFFFFFFFFF
(1547754036.188187) can0 0DEF0603#0101FFFFFFFFFFF5
(1547754036.188737) can0 04EF0006#641513F00000A90E
(1547754036.189312) can0 0CFFFE06#5C531D531DFFFFFF
(1547754036.189888) can0 18FEF147#FF0000FFFFFFFFFF
(1547754036.190471) can0 18FFFB06#001BFFFFFFFFFFFF
(1547754036.191069) can0 18F00503#7DFFFFFFFFFFFFFF
(1547754036.192820) can0 0CF00400#F0FF7D0000FFFFFF
(1547754036.202766) can0 0CF00300#FF0000FF06FFFFFF
(1547754036.203338) can0 0CEFFF00#6406007DFFFFFFFF
(1547754036.203911) can0 18FEEF00#FFFFFF00FFFFFFFA
(1547754036.207940) can0 0DEF0647#0104FFFFFFFFFFF1
(1547754036.208538) can0 0DEF0603#0101FFFFFFFFFFF5
(1547754036.209086) can0 04EF0006#641514F00000930E
(1547754036.212816) can0 0CF00400#F0FF7D0000FFFFFF
(1547754036.222766) can0 0CF00300#FF0000FF06FFFFFF
(1547754036.223340) can0 0CEFFF00#6406007DFFFFFFFF
(1547754036.228189) can0 0DEF0603#0101FFFFFFFFFFF5
(1547754036.228738) can0 04EF0006#641515F00000930E
(1547754036.229314) can0 0CFE4947#FFFFFFFFFFFFFFFF
(1547754036.229913) can0 18FE6847#3DFFFFFFFFFFFFFF
(1547754036.230489) can0 0CFE4347#0000FFFF3FFFFFFF
(1547754036.231087) can0 18FFFF06#73FFFFFFFFFFFFFF
(1547754036.231647) can0 0CFE4447#0000FFFF3FFFFFFF
(1547754036.232220) can0 0CFFFE06#5C271D271DFFFFFF
(1547754036.232847) can0 0CF00400#F0FF7D0000FFFFFF
(1547754036.242800) can0 0CF00300#FF0000FF07FFFFFF
(1547754036.243374) can0 0CEFFF00#6406007DFFFFFFFF
(1547754036.243988) can0 18FEF200#0000FFFFFFFFFFFF
(1547754036.248190) can0 0DEF0603#0101FFFFFFFFFFF5
(1547754036.248739) can0 04EF0006#641516F00000A90E
(1547754036.252815) can0 0CF00400#F0FF7D0000FFFFFF
(1547754036.262768) can0 0CF00300#FF0000FF07FFFFFF
(1547754036.263341) can0 0CEFFF00#6406007DFFFFFFFF
(1547754036.263938) can0 18EF0600#640E0700FFFFFFFF
(1547754036.268191) can0 0DEF0603#0101FFFFFFFFFFF5
(1547754036.268741) can0 04EF0006#641517F00000A90E
(1547754036.269317) can0 0CFFFF47#5EFFFFFFFFFFFFFF
(1547754036.269916) can0 18FEF147#FF0000FFFFFFFFFF
(1547754036.270467) can0 0CFFFE06#5C531D531DFFFFFF
(1547754036.271022) can0 18FEFC47#FFFFFFFFFFFFFFFF
(1547754036.271624) can0 18EF0047#F220610FFFFFFFFF
(1547754036.272222) can0 18F00647#FFCFFFFFFFFFFFFF
(1547754036.272815) can0 1CFDDF47#FCFFFFFFFFFFFFFF
(1547754036.273399) can0 0CF00400#F0FF7D0000FFFFFF
(1547754036.273974) can0 18F00503#7DFFFFFFFFFFFFFF
(1547754036.282769) can0 0CF00300#FF0000FF07FFFFFF
(1547754036.283366) can0 0CEFFF00#6406007DFFFFFFFF
(1547754036.283914) can0 18EFFF00#64100B0B2003007D
(1547754036.284492) can0 18FEF600#FF003FFF00FFFFFF
(1547754036.288192) can0 0DEF0603#0101FFFFFFFFFFF5
(1547754036.288741) can0 04EF0006#641518F00000A90E
(1547754036.292802) can0 0CF00400#F0FF7D0000FFFFFF
(1547754036.302770) can0 0CF00300#FF0000FF07FFFFFF
(1547754036.303367) can0 0CEFFF00#6406007DFFFFFFFF
(1547754036.307942) can0 0DEF0647#0104FFFFFFFFFFF1
(1547754036.308544) can0 0DEF0603#0101FFFFFFFFFFF5
(1547754036.309115) can0 04EF0006#641519F00000A90E
(1547754036.312820) can0 0CF00400#F0FF7D0000FFFFFF
(1547754036.322772) can0 0CF00300#FF0000FF07FFFFFF
(1547754036.323343) can0 0CEFFF00#6406007DFFFFFFFF
(1547754036.328193) can0 0DEF0603#0101FFFFFFFFFFF5
(1547754036.328743) can0 04EF0006#64151AF00000A90E
(1547754036.332821) can0 0CF00400#F0FF7D0000FFFFFF
(1547754036.333393) can0 18FFFA00#022C0000180C00A5
(1547754036.342822) can0 0CF00300#FF0000FF07FFFFFF
(1547754036.343394) can0 0CEFFF00#6406007DFFFFFFFF
(1547754036.343967) can0 18FEF200#0000FFFFFFFFFFFF
(1547754036.348194) can0 0DEF0603#0101FFFFFFFFFFF5
(1547754036.348744) can0 04EF0006#64151BF00000A90E
(1547754036.349319) can0 0CFE4947#FFFFFFFFFFFFFFFF
(1547754036.349918) can0 0CFE4347#0000FFFF3FFFFFFF
(1547754036.350504) can0 0CFE4447#0000FFFF3FFFFFFF
(1547754036.352802) can0 0CF00400#F0FF7D0000FFFFFF
(1547754036.362755) can0 0CF00300#FF0000FF06FFFFFF
(1547754036.363345) can0 0CEFFF00#6406007DFFFFFFFF
(1547754036.363918) can0 18EF0600#640E1100FFFFFFFF
(1547754036.364478) can0 18FEF500#C8FFFFFFFF39FFFF
(1547754036.368172) can0 0DEF0603#0101FFFFFFFFFFF5
(1547754036.368745) can0 04EF0006#64151CF00000930E
(1547754036.372823) can0 0CF00400#F0FF7D0000FFFFFF
(1547754036.382771) can0 0CF00300#FF0000FF07FFFFFF
(1547754036.383372) can0 0CEFFF00#6406007DFFFFFFFF
(1547754036.383919) can0 18EFFF00#64100B0B2003007D
(1547754036.388199) can0 0DEF0603#0101FFFFFFFFFFF5
(1547754036.388772) can0 04EF0006#64151DF00000A90E
(1547754036.389321) can0 0CFFFE06#5C531D531DFFFFFF
(1547754036.389895) can0 18FEF147#FF0000FFFFFFFFFF
(1547754036.390496) can0 18F00503#7DFFFFFFFFFFFFFF
(1547754036.392804) can0 0CF00400#F0FF7D0000FFFFFF
(1547754036.402760) can0 0CF00300#FF0000FF07FFFFFF
(1547754036.403371) can0 0CEFFF00#6406007DFFFFFFFF
(1547754036.403920) can0 18FE6900#06258227FFFF60FE
(1547754036.407932) can0 0DEF0647#0104FFFFFFFFFFF1
(1547754036.408542) can0 0DEF0603#0101FFFFFFFFFFF5
(1547754036.409119) can0 04EF0006#64151EF00000A90E
(1547754036.412825) can0 0CF00400#F0FF7D0000FFFFFF
(1547754036.422800) can0 0CF00300#FF0000FF07FFFFFF
(1547754036.423373) can0 0CEFFF00#6406007DFFFFFFFF
(1547754036.428224) can0 0DEF0603#0101FFFFFFFFFFF5
(1547754036.428774) can0 04EF0006#64151FF00000A90E
(1547754036.429348) can0 0CFE4947#FFFFFFFFFFFFFFFF
(1547754036.429949) can0 0CFE4347#0000FFFF3FFFFFFF
(1547754036.430549) can0 0CFE4447#0000FFFF3FFFFFFF
(1547754036.432825) can0 0CF00400#F0FF7D0000FFFFFF
(1547754036.433398) can0 18FEDF00#7D521DFFFFFFFFFF
(1547754036.442810) can0 0CF00300#FF0000FF06FFFFFF
(1547754036.443398) can0 0CEFFF00#6406007DFFFFFFFF
(1547754036.443955) can0 18FEF200#0000FFFFFFFFFFFF
(1547754036.448183) can0 0DEF0603#0101FFFFFFFFFFF5
(1547754036.448773) can0 04EF0006#641510F00000930E
(1547754036.452826) can0 0CF00400#F0FF7D0000FFFFFF
(1547754036.462802) can0 0CF00300#FF0000FF06FFFFFF
(1547754036.463374) can0 0CEFFF00#6406007DFFFFFFFF
(1547754036.463949) can0 18EF0600#640E1B00FFFFFFFF
(1547754036.468204) can0 0DEF0603#0101FFFFFFFFFFF5
(1547754036.468749) can0 04EF0006#641511F00000930E
(1547754036.469322) can0 0CFFFE06#5C271D271DFFFFFF
(1547754036.469899) can0 18FEF147#FF0000FFFFFFFFFF
(1547754036.470500) can0 18F00503#7DFFFFFFFFFFFFFF
(1547754036.472807) can0 0CF00400#F0FF7D0000FFFFFF
(1547754036.482762) can0 0CF00300#FF0000FF07FFFFFF
(1547754036.483375) can0 0CEFFF00#6406007DFFFFFFFF
(1547754036.483923) can0 18EFFF00#64100B0B2003007D
(1547754036.488186) can0 0DEF0603#0101FFFFFFFFFFF5
(1547754036.488775) can0 04EF0006#641512F00000A90E
(1547754036.492828) can0 0CF00400#F0FF7D0000FFFFFF
(1547754036.502801) can0 0CF00300#FF0000FF07FFFFFF
(1547754036.503376) can0 0CEFFF00#6406007DFFFFFFFF
(1547754036.507935) can0 0DEF0647#0104FFFFFFFFFFF1
(1547754036.508553) can0 0DEF0603#0101FFFFFFFFFFF5
(1547754036.509100) can0 04EF0006#641513F00000A90E
(1547754036.509653) can0 0CFFFE06#5C531D531DFFFFFF
(1547754036.512869) can0 0CF00400#F0FF7D0000FFFFFF
(1547754036.522859) can0 0CF00300#FF0000FF07FFFFFF
(1547754036.523428) can0 0CEFFF00#6406007DFFFFFFFF
(1547754036.524008) can0 18FD7C00#F880F1F000CF03FC
(1547754036.528253) can0 0DEF0603#0101FFFFFFFFFFF5
(1547754036.528830) can0 04EF0006#641514F00000A90E
(1547754036.529406) can0 0C000006#30FFFFFFF8FFFFFF
(1547754036.532878) can0 0CF00400#F0FF7D0000FFFFFF
(1547754036.542881) can0 0CF00300#FF0000FF07FFFFFF
(1547754036.543480) can0 0CEFFF00#6406007DFFFFFFFF
(1547754036.544055) can0 18FEF200#0000FFFFFFFFFFFF
(1547754036.548256) can0 0DEF0603#0101FFFFFFFFFFF5
(1547754036.548830) can0 04EF0006#641515F00000A90E
(1547754036.549407) can0 0CFE4947#FFFFFFFFFFFFFFFF
(1547754036.549984) can0 18FFFB06#00057DF8FFFFFFFF
(1547754036.550556) can0 0CFE4347#0000FFFF3FFFFFFF
(1547754036.551111) can0 0CFE4447#0000FFFF3FFFFFFF
(1547754036.552884) can0 0CF00400#F0FF7D0000FFFFFF
(1547754036.562763) can0 0CF00300#FF0000FF06FFFFFF
(1547754036.563405) can0 0CEFFF00#6406007DFFFFFFFF
(1547754036.563978) can0 18EF0600#640E2500FFFFFFFF
(1547754036.568260) can0 0DEF0603#0101FFFFFFFFFFF5
(1547754036.568833) can0 04EF0006#641516F00000930E
(1547754036.572909) can0 0CF00400#F0FF7D0000FFFFFF
(1547754036.582835) can0 0CF00300#FF0000FF06FFFFFF
(1547754036.583407) can0 0CEFFF00#6406007DFFFFFFFF
(1547754036.583981) can0 18EFFF00#64100B0B2003007D
(1547754036.588285) can0 0DEF0603#0101FFFFFFFFFFF5
(1547754036.588830) can0 04EF0006#641517F00000930E
(1547754036.589380) can0 0CFFFE06#5C271D271DFFFFFF
(1547754036.589956) can0 18FEF147#FF0000FFFFFFFFFF
(1547754036.590558) can0 18F00503#7DFFFFFFFFFFFFFF
(1547754036.592838) can0 0CF00400#F0FF7D0000FFFFFF
(1547754036.602816) can0 0CF00300#FF0000FF06FFFFFF
(1547754036.603434) can0 0CEFFF00#6406007DFFFFFFFF
(1547754036.608012) can0 0DEF0647#0104FFFFFFFFFFF1
(1547754036.608633) can0 0DEF0603#0101FFFFFFFFFFF5
(1547754036.609181) can0 04EF0006#641518F00000930E
(1547754036.612908) can0 0CF00400#F0FF7D0000FFFFFF
(1547754036.622861) can0 0CF00300#FF0000FF07FFFFFF
(1547754036.623433) can0 0CEFFF00#6406007DFFFFFFFF
(1547754036.624009) can0 18FDB300#FFFF3629FFFFFFFF
(1547754036.624585) can0 1CEFFF00#64070000FFFFFFFF
(1547754036.628290) can0 0DEF0603#0101FFFFFFFFFFF5
(1547754036.628832) can0 04EF0006#641519F00000A90E
(1547754036.629409) can0 0CFE4947#FFFFFFFFFFFFFFFF
(1547754036.630009) can0 0CFFFF47#5DFFFFF3FFFFFFFF
(1547754036.630564) can0 0CFE4347#0000FFFF3FFFFFFF
(1547754036.631168) can0 0CFE4447#0000FFFF3FFFFFFF
(1547754036.631738) can0 0CFFFE06#5C531D531DFFFFFF
(1547754036.632936) can0 0CF00400#F0FF7D0000FFFFFF
(1547754036.642887) can0 0CF00300#FF0000FF07FFFFFF
(1547754036.643488) can0 0CEFFF00#6406007DFFFFFFFF
(1547754036.644059) can0 18FEF200#0000FFFFFFFFFFFF
(1547754036.648263) can0 0DEF0603#0101FFFFFFFFFFF5
(1547754036.648833) can0 04EF0006#64151AF00000A90E
(1547754036.652909) can0 0CF00400#F0FF7D0000FFFFFF
(1547754036.662815) can0 0CF00300#FF0000FF07FFFFFF
(1547754036.663382) can0 0CEFFF00#6406007DFFFFFFFF
(1547754036.664007) can0 18EF0600#640E2F00FFFFFFFF
(1547754036.668263) can0 0DEF0603#0101FFFFFFFFFFF5
(1547754036.668835) can0 04EF0006#64151BF00000A90E
(1547754036.669412) can0 18FEF147#FF0000FFFFFFFFFF
(1547754036.669964) can0 18F00503#7DFFFFFFFFFFFFFF
(1547754036.672888) can0 0CF00400#F0FF7D0000FFFFFF
(1547754036.682854) can0 0CF00300#FF0000FF07FFFFFF
(1547754036.683431) can0 0CEFFF00#6406007DFFFFFFFF
(1547754036.684003) can0 18EFFF00#64100B0B2003007D
(1547754036.684582) can0 18FEDF00#7D521DFFFFFFFFFF
(1547754036.688216) can0 0DEF0603#0101FFFFFFFFFFF5
(1547754036.688833) can0 04EF0006#64151CF00000A90E
(1547754036.692881) can0 0CF00400#F0FF7D0000FFFFFF
(1547754036.702790) can0 0CF00300#FF0000FF07FFFFFF
(1547754036.703431) can0 0CEFFF00#6406007DFFFFFFFF
(1547754036.704005) can0 18FEEF00#FFFFFF00FFFFFFFA
(1547754036.708036) can0 0DEF0647#0104FFFFFFFFFFF1
(1547754036.708633) can0 0DEF0603#0101FFFFFFFFFFF5
(1547754036.709179) can0 04EF0006#64151DF00000A90E
(1547754036.709759) can0 18FFFF06#73FFFFFFFFFFFFFF
(1547754036.712917) can0 0CF00400#F0FF7D0000FFFFFF
(1547754036.713484) can0 18FECA03#01FFF4FEFF00FFFF
(1547754036.722819) can0 0CF00300#FF0000FF06FFFFFF
(1547754036.723434) can0 0CEFFF00#6406007DFFFFFFFF
(1547754036.728286) can0 0DEF0603#0101FFFFFFFFFFF5
(1547754036.728830) can0 04EF0006#64151EF00000930E
(1547754036.732911) can0 0CF00400#F0FF7D0000FFFFFF
(1547754036.742887) can0 0CF00300#FF0000FF06FFFFFF
(1547754036.743418) can0 0CEFFF00#6406007DFFFFFFFF
(1547754036.744060) can0 18FEF200#0000FFFFFFFFFFFF
(1547754036.744635) can0 1CFFFF17#22FFFF3CFFFFFFFF
(1547754036.748263) can0 0DEF0603#0101FFFFFFFFFFF5
(1547754036.748834) can0 04EF0006#64151FF00000930E
(1547754036.749408) can0 0CFE4947#FFFFFFFFFFFFFFFF
(1547754036.749983) can0 1CFDDF47#FCFFFFFFFFFFFFFF
(1547754036.750515) can0 0CFE4347#0000FFFF3FFFFFFF
(1547754036.751121) can0 0CFE4447#0000FFFF3FFFFFFF
(1547754036.751691) can0 0CFFFE06#5C271D271DFFFFFF
(1547754036.752933) can0 0CF00400#F0FF7D0000FFFFFF
(1547754036.762770) can0 0CF00300#FF0000FF06FFFFFF
(1547754036.763331) can0 0CEFFF00#6406007DFFFFFFFF
(1547754036.763927) can0 18EF0600#640E3900FFFFFFFF
(1547754036.768262) can0 0DEF0603#0101FFFFFFFFFFF5
(1547754036.768809) can0 04EF0006#641510F00000930E
(1547754036.772888) can0 0CF00400#F0FF7D0000FFFFFF
(1547754036.782866) can0 0CF00300#FF0000FF07FFFFFF
(1547754036.783435) can0 0CEFFF00#6406007DFFFFFFFF
(1547754036.784013) can0 18EFFF00#64100B0B2003007D
(1547754036.784584) can0 18FEF600#FF003FFF00FFFFFF
(1547754036.788288) can0 0DEF0603#0101FFFFFFFFFFF5
(1547754036.788834) can0 04EF0006#641511F00000A90E
(1547754036.789410) can0 0CFFFE06#5C531D531DFFFFFF
(1547754036.789984) can0 18FEF147#FF0000FFFFFFFFFF
(1547754036.790542) can0 18F00647#FFCFFFFFFFFFFFFF
(1547754036.791126) can0 18F00503#7DFFFFFFFFFFFFFF
(1547754036.792893) can0 0CF00400#F0FF7D0000FFFFFF
(1547754036.802838) can0 18EFFA00#6401FF0000FFFFFF
(1547754036.803411) can0 0CEFFF00#6406007DFFFFFFFF
(1547754036.803985) can0 0CF00300#FF0000FF06FFFFFF
(1547754036.808040) can0 0DEF0647#0104FFFFFFFFFFF1
(1547754036.808638) can0 0DEF0603#0101FFFFFFFFFFF5
(1547754036.809184) can0 04EF0006#641512F00000930E
(1547754036.812891) can0 0CF00400#F0FF7D0000FFFFFF
(1547754036.822868) can0 0CF00300#FF0000FF07FFFFFF
(1547754036.823446) can0 0CEFFF00#6406007DFFFFFFFF
(1547754036.828296) can0 0DEF0603#0101FFFFFFFFFFF5
(1547754036.828841) can0 04EF0006#641513F00000A90E
(1547754036.829420) can0 0CFE4947#FFFFFFFFFFFFFFFF
(1547754036.830019) can0 0CFE4347#0000FFFF3FFFFFFF
(1547754036.830620) can0 0CFE4447#0000FFFF3FFFFFFF
(1547754036.831190) can0 0CFFFE06#5C531D531DFFFFFF
(1547754036.832872) can0 0CF00400#F0FF7D0000FFFFFF
(1547754036.842852) can0 0CF00300#FF0000FF06FFFFFF
(1547754036.843468) can0 0CEFFF00#6406007DFFFFFFFF
(1547754036.844022) can0 18FEF200#0000FFFFFFFFFFFF
(1547754036.848243) can0 0DEF0603#0101FFFFFFFFFFF5
(1547754036.848842) can0 04EF0006#641514F00000930E
(1547754036.852892) can0 0CF00400#F0FF7D0000FFFFFF
(1547754036.862876) can0 0CF00300#FF0000FF06FFFFFF
(1547754036.863445) can0 0CEFFF00#6406007DFFFFFFFF
(1547754036.864018) can0 18EF0600#640E4300FFFFFFFF
(1547754036.868275) can0 0DEF0603#0101FFFFFFFFFFF5
(1547754036.868844) can0 04EF0006#641515F00000930E
(1547754036.869393) can0 0CFFFE06#5C271D271DFFFFFF
(1547754036.869995) can0 18FEF147#FF0000FFFFFFFFFF
(1547754036.870568) can0 18F00503#7DFFFFFFFFFFFFFF
(1547754036.872877) can0 0CF00400#F0FF7D0000FFFFFF
(1547754036.882829) can0 0CF00300#FF0000FF06FFFFFF
(1547754036.883446) can0 0CEFFF00#6406007DFFFFFFFF
(1547754036.883994) can0 18EFFF00#64100B0B2003007D
(1547754036.888241) can0 0DEF0603#0101FFFFFFFFFFF5
(1547754036.888837) can0 04EF0006#641516F00000930E
(1547754036.892916) can0 0CF00400#F0FF7D0000FFFFFF
(1547754036.902865) can0 0CF00300#FF0000FF06FFFFFF
(1547754036.903436) can0 0CEFFF00#6406007DFFFFFFFF
(1547754036.904037) can0 18FEEE00#5341FFFFFFFFFFFF
(1547754036.908038) can0 0DEF0647#0104FFFFFFFFFFF1
(1547754036.908637) can0 0DEF0603#0101FFFFFFFFFFF5
(1547754036.909186) can0 04EF0006#641517F00000930E
(1547754036.912918) can0 0CF00400#F0FF7D0000FFFFFF
(1547754036.922862) can0 0CF00300#FF0000FF06FFFFFF
(1547754036.923440) can0 0CEFFF00#6406007DFFFFFFFF
(1547754036.928287) can0 0DEF0603#0101FFFFFFFFFFF5
(1547754036.928839) can0 04EF0006#641518F00000930E
(1547754036.932921) can0 0CF00400#F0FF7D0000FFFFFF
(1547754036.933497) can0 18FEDF00#7D261DFFFFFFFFFF
(1547754036.942901) can0 0CF00300#FF0000FF06FFFFFF
(1547754036.943498) can0 0CEFFF00#6406007DFFFFFFFF
(1547754036.944075) can0 18FEF200#0000FFFFFFFFFFFF
(1547754036.948301) can0 0DEF0603#0101FFFFFFFFFFF5
(1547754036.948848) can0 04EF0006#641519F00000930E
(1547754036.949425) can0 0CFE4947#FFFFFFFFFFFFFFFF
(1547754036.949985) can0 0CFE4347#0000FFFF3FFFFFFF
(1547754036.950575) can0 0CFE4447#0000FFFF3FFFFFFF
(1547754036.952917) can0 0CF00400#F0FF7D0000FFFFFF
(1547754036.962873) can0 0CF00300#FF0000FF06FFFFFF
(1547754036.963443) can0 0CEFFF00#6406007DFFFFFFFF
(1547754036.964016) can0 18EF0600#640E4D00FFFFFFFF
(1547754036.968293) can0 0DEF0603#0101FFFFFFFFFFF5
(1547754036.968842) can0 04EF0006#64151AF00000930E
(1547754036.972923) can0 0CF00400#F0FF7D0000FFFFFF
(1547754036.982871) can0 0CF00300#FF0000FF06FFFFFF
(1547754036.983442) can0 0CEFFF00#6406007DFFFFFFFF
(1547754036.983992) can0 18EFFF00#64100B0B2003007D
(1547754036.984594) can0 18FEF700#FFFFFFFFFFFFF800
(1547754036.988296) can0 0DEF0603#0101FFFFFFFFFFF5
(1547754036.988845) can0 04EF0006#64151BF00000930E
(1547754036.989395) can0 0CFFFE06#5C271D271DFFFFFF
(1547754036.989995) can0 18FEF147#FF0000FFFFFFFFFF
(1547754036.990526) can0 18F00503#7DFFFFFFFFFFFFFF
(1547754036.992876) can0 0CF00400#F0FF7D0000FFFFFF
(1547754037.002829) can0 0CF00300#FF0000FF07FFFFFF
(1547754037.003444) can0 0CEFFF00#6406007DFFFFFFFF
(1547754037.008010) can0 0DEF0647#0104FFFFFFFFFFF1
(1547754037.008599) can0 0DEF0603#0101FFFFFFFFFFF5
(1547754037.009147) can0 04EF0006#64151CF00000A90E
(1547754037.012919) can0 0CF00400#F0FF7D0000FFFFFF
(1547754037.022876) can0 0CF00300#FF0000FF06FFFFFF
(1547754037.023446) can0 0CEFFF00#6406007DFFFFFFFF
(1547754037.028297) can0 0DEF0603#0101FFFFFFFFFFF5
(1547754037.028846) can0 04EF0006#64151DF00000930E
(1547754037.029445) can0 0CFE4947#FFFFFFFFFFFFFFFF
(1547754037.029976) can0 0CFE4347#0000FFFF3FFFFFFF
(1547754037.030622) can0 0CFE4447#0000FFFF3FFFFFFF
(1547754037.031219) can0 0CFFFE06#5C271D271DFFFFFF
(1547754037.032879) can0 0CF00400#F0FF7D0000FFFFFF
(1547754037.042855) can0 0CF00300#FF0000FF06FFFFFF
(1547754037.043473) can0 0CEFFF00#6406007DFFFFFFFF
(1547754037.043996) can0 18FEF200#0000FFFFFFFFFFFF
(1547754037.047556) can0 18EAFF06#E5FE00
(1547754037.048398) can0 0DEF0603#0101FFFFFFFFFFF5
(1547754037.048919) can0 04EF0006#64151EF00000930E
(1547754037.052926) can0 0CF00400#F0FF7D0000FFFFFF
(1547754037.062874) can0 0CF00300#FF0000FF07FFFFFF
(1547754037.063447) can0 0CEFFF00#6406007DFFFFFFFF
(1547754037.064021) can0 18EF0600#640E5700FFFFFFFF
(1547754037.068302) can0 0DEF0603#0101FFFFFFFFFFF5
(1547754037.068846) can0 04EF0006#64151FF00000A90E
(1547754037.069423) can0 0CFFFE06#5C531D531DFFFFFF
(1547754037.069997) can0 18FEF147#FF0000FFFFFFFFFF
(1547754037.070597) can0 18FEE706#CC0A0000FFFFFFFF
(1547754037.071131) can0 18F00503#7DFFFFFFFFFFFFFF
(1547754037.072880) can0 0CF00400#F0FF7D0000FFFFFF
(1547754037.082833) can0 0CF00300#FF0000FF06FFFFFF
(1547754037.083447) can0 0CEFFF00#6406007DFFFFFFFF
(1547754037.083980) can0 18EFFF00#64100B0B2003007D
(1547754037.084556) can0 18FED500#FFFFFCFFFFFFFFFF
(1547754037.085135) can0 18FEE500#CC0A0000FFFFFFFF
(1547754037.088271) can0 0DEF0603#0101FFFFFFFFFFF5
(1547754037.088804) can0 04EF0006#641510F00000930E
(1547754037.092926) can0 0CF00400#F0FF7D0000FFFFFF
(1547754037.102878) can0 0CF00300#FF0000FF07FFFFFF
(1547754037.103453) can0 0CEFFF00#6406007DFFFFFFFF
(1547754037.108053) can0 0DEF0647#0104FFFFFFFFFFF1
(1547754037.108652) can0 0DEF0603#0101FFFFFFFFFFF5
(1547754037.109212) can0 04EF0006#641511F00000A90E
(1547754037.109774) can0 0CFFFE06#5C531D531DFFFFFF
(1547754037.112924) can0 0CF00400#F0FF7D0000FFFFFF
(1547754037.122878) can0 0CF00300#FF0000FF07FFFFFF
(1547754037.123450) can0 0CEFFF00#6406007DFFFFFFFF
(1547754037.124050) can0 18FDB300#FFFF4029FFFFFFFF
(1547754037.128300) can0 0DEF0603#0101FFFFFFFFFFF5
(1547754037.128850) can0 04EF0006#641512F00000A90E
(1547754037.132932) can0 0CF00400#F0FF7D0000FFFFFF
(1547754037.142903) can0 0CF00300#FF0000FF06FFFFFF
(1547754037.143502) can0 0CEFFF00#6406007DFFFFFFFF
(1547754037.144083) can0 18FEF200#0000FFFFFFFFFFFF
(1547754037.148303) can0 0DEF0603#0101FFFFFFFFFFF5
(1547754037.148875) can0 04EF0006#641513F00000930E
(1547754037.149452) can0 0CFE4947#FFFFFFFFFFFFFFFF
(1547754037.150051) can0 0CFFFF47#5DFFFFF3FFFFFFFF
(1547754037.150629) can0 0CFE4347#0000FFFF3FFFFFFF
(1547754037.151207) can0 0CFE4447#0000FFFF3FFFFFFF
(1547754037.151785) can0 0CFFFE06#5C271D271DFFFFFF
(1547754037.152908) can0 0CF00400#F0FF7D0000FFFFFF
(1547754037.162877) can0 0CF00300#FF0000FF06FFFFFF
(1547754037.163450) can0 0CEFFF00#6406007DFFFFFFFF
(1547754037.163975) can0 18EF0600#640E6100FFFFFFFF
(1547754037.168304) can0 0DEF0603#0101FFFFFFFFFFF5
(1547754037.168852) can0 04EF0006#641514F00000930E
(1547754037.172926) can0 0CF00400#F0FF7D0000FFFFFF
(1547754037.182879) can0 0CF00300#FF0000FF06FFFFFF
(1547754037.183477) can0 0CEFFF00#6406007DFFFFFFFF
(1547754037.184025) can0 18EFFF00#64100B0B2003007D
(1547754037.184603) can0 18FEDF00#7D261DFFFFFFFFFF
(1547754037.188307) can0 0DEF0603#0101FFFFFFFFFFF5
(1547754037.188854) can0 04EF0006#641515F00000930E
(1547754037.189428) can0 18FEF147#FF0000FFFFFFFFFF
(1547754037.190054) can0 18FFFB06#001BFFFFFFFFFFFF
(1547754037.190611) can0 18F00503#7DFFFFFFFFFFFFFF
(1547754037.192886) can0 0CF00400#F0FF7D0000FFFFFF
(1547754037.202836) can0 0CF00300#FF0000FF06FFFFFF
(1547754037.203454) can0 0CEFFF00#6406007DFFFFFFFF
(1547754037.204027) can0 18FEEF00#FFFFFF00FFFFFFFA
(1547754037.208016) can0 0DEF0647#0104FFFFFFFFFFF1
(1547754037.208655) can0 0DEF0603#0101FFFFFFFFFFF5
(1547754037.209202) can0 04EF0006#641516F00000930E
(1547754037.212930) can0 0CF00400#F0FF7D0000FFFFFF
(1547754037.222880) can0 0CF00300#FF0000FF06FFFFFF
(1547754037.223454) can0 0CEFFF00#6406007DFFFFFFFF
(1547754037.228307) can0 0DEF0603#0101FFFFFFFFFFF5
(1547754037.228854) can0 04EF0006#641517F00000930E
(1547754037.229456) can0 0CFE4947#FFFFFFFFFFFFFFFF
(1547754037.230033) can0 18FE6847#3DFFFFFFFFFFFFFF
(1547754037.230603) can0 0CFE4347#0000FFFF3FFFFFFF
(1547754037.231203) can0 18FFFF06#73FFFFFFFFFFFFFF
(1547754037.231738) can0 0CFE4447#0000FFFF3FFFFFFF
(1547754037.232887) can0 0CF00400#F0FF7D0000FFFFFF
(1547754037.242889) can0 0CF00300#FF0000FF06FFFFFF
(1547754037.243462) can0 0CEFFF00#6406007DFFFFFFFF
(1547754037.244087) can0 18FEF200#0000FFFFFFFFFFFF
(1547754037.248308) can0 0DEF0603#0101FFFFFFFFFFF5
(1547754037.248857) can0 04EF0006#641518F00000930E
(1547754037.252931) can0 0CF00400#F0FF7D0000FFFFFF
(1547754037.262885) can0 0CF00300#FF0000FF06FFFFFF
(1547754037.263457) can0 0CEFFF00#6406007DFFFFFFFF
(1547754037.264032) can0 18EF0600#640E6B00FFFFFFFF
(1547754037.268310) can0 0DEF0603#0101FFFFFFFFFFF5
(1547754037.268881) can0 04EF0006#641519F00000930E
(1547754037.269457) can0 0CFFFF47#5EFFFFFFFFFFFFFF
(1547754037.270032) can0 18FEF147#FF0000FFFFFFFFFF
(1547754037.270582) can0 0CFFFE06#5C271D271DFFFFFF
(1547754037.271115) can0 18FEFC47#FFFFFFFFFFFFFFFF
(1547754037.271714) can0 18EF0047#F220610FFFFFFFFF
(1547754037.272362) can0 18F00647#FFCFFFFFFFFFFFFF
(1547754037.272957) can0 1CFDDF47#FCFFFFFFFFFFFFFF
(1547754037.273489) can0 0CF00400#F0FF7D0000FFFFFF
(1547754037.274070) can0 18F00503#7DFFFFFFFFFFFFFF
(1547754037.282886) can0 0CF00300#FF0000FF07FFFFFF
(1547754037.283481) can0 0CEFFF00#6406007DFFFFFFFF
(1547754037.284030) can0 18EFFF00#64100B0B2003007D
(1547754037.284609) can0 18FEF600#FF003FFF00FFFFFF
(1547754037.288310) can0 0DEF0603#0101FFFFFFFFFFF5
(1547754037.288855) can0 04EF0006#64151AF00000A90E
(1547754037.292933) can0 0CF00400#F0FF7D0000FFFFFF
(1547754037.302882) can0 0CF00300#FF0000FF06FFFFFF
(1547754037.303458) can0 0CEFFF00#6406007DFFFFFFFF
(1547754037.308061) can0 0DEF0647#0104FFFFFFFFFFF1
(1547754037.308658) can0 0DEF0603#0101FFFFFFFFFFF5
(1547754037.309231) can0 04EF0006#64151BF00000930E
(1547754037.309783) can0 0CFFFE06#5C271D271DFFFFFF
(1547754037.312933) can0 0CF00400#F0FF7D0000FFFFFF
(1547754037.322883) can0 0CF00300#FF0000FF06FFFFFF
(1547754037.323458) can0 0CEFFF00#6406007DFFFFFFFF
(1547754037.328312) can0 0DEF0603#0101FFFFFFFFFFF5
(1547754037.328882) can0 04EF0006#64151CF00000930E
(1547754037.332933) can0 0CF00400#F0FF7D0000FFFFFF
(1547754037.333508) can0 18FFFA00#022C0000180C00A5
(1547754037.342933) can0 0CF00300#FF0000FF06FFFFFF
(1547754037.343509) can0 0CEFFF00#6406007DFFFFFFFF
(1547754037.344084) can0 18FEF200#0000FFFFFFFFFFFF
(1547754037.348316) can0 0DEF0603#0101FFFFFFFFFFF5
(1547754037.348883) can0 04EF0006#64151DF00000930E
(1547754037.349461) can0 0CFE4947#FFFFFFFFFFFFFFFF
(1547754037.350039) can0 0CFE4347#0000FFFF3FFFFFFF
(1547754037.350591) can0 0CFE4447#0000FFFF3FFFFFFF
(1547754037.352882) can0 0CF00400#F0FF7D0000FFFFFF
(1547754037.362846) can0 0CF00300#FF0000FF06FFFFFF
(1547754037.363461) can0 0CEFFF00#6406007DFFFFFFFF
(1547754037.364060) can0 18EF0600#640E7500FFFFFFFF
(1547754037.364592) can0 18FEF500#C8FFFFFFFF39FFFF
(1547754037.368264) can0 0DEF0603#0101FFFFFFFFFFF5
(1547754037.368861) can0 04EF0006#64151EF00000930E
(1547754037.372939) can0 0CF00400#F0FF7D0000FFFFFF
(1547754037.382888) can0 0CF00300#FF0000FF06FFFFFF
(1547754037.383463) can0 0CEFFF00#6406007DFFFFFFFF
(1547754037.384035) can0 18EFFF00#64100B0B2003007D
(1547754037.388317) can0 0DEF0603#0101FFFFFFFFFFF5
(1547754037.388885) can0 04EF0006#64151FF00000930E
(1547754037.389462) can0 18FEF147#FF0000FFFFFFFFFF
(1547754037.390062) can0 18F00503#7DFFFFFFFFFFFFFF
(1547754037.392938) can0 0CF00400#F0FF7D0000FFFFFF
(1547754037.402890) can0 0CF00300#FF0000FF06FFFFFF
(1547754037.403483) can0 0CEFFF00#6406007DFFFFFFFF
(1547754037.404036) can0 18FE6900#08258427FFFF60FE
(1547754037.404613) can0 1CFFFF17#22FFFF3CFFFFFFFF
(1547754037.408024) can0 0DEF0647#0104FFFFFFFFFFF1
(1547754037.408662) can0 0DEF0603#0101FFFFFFFFFFF5
(1547754037.409235) can0 04EF0006#641510F00000930E
(1547754037.412940) can0 0CF00400#F0FF7D0000FFFFFF
(1547754037.422887) can0 0CF00300#FF0000FF07FFFFFF
(1547754037.423488) can0 0CEFFF00#6406007DFFFFFFFF
(1547754037.428315) can0 0DEF0603#0101FFFFFFFFFFF5
(1547754037.428887) can0 04EF0006#641511F00000A90E
(1547754037.429464) can0 0CFE4947#FFFFFFFFFFFFFFFF
(1547754037.429992) can0 0CFE4347#0000FFFF3FFFFFFF
(1547754037.430594) can0 0CFE4447#0000FFFF3FFFFFFF
(1547754037.431240) can0 0CFFFE06#5C531D531DFFFFFF
(1547754037.432921) can0 0CF00400#F0FF7D0000FFFFFF
(1547754037.433495) can0 18FEDF00#7D261DFFFFFFFFFF
(1547754037.442930) can0 0CF00300#FF0000FF07FFFFFF
(1547754037.443508) can0 0CEFFF00#6406007DFFFFFFFF
(1547754037.444093) can0 18FEF200#0000FFFFFFFFFFFF
(1547754037.448308) can0 0DEF0603#0101FFFFFFFFFFF5
(1547754037.448857) can0 04EF0006#641512F00000A90E
(1547754037.452936) can0 0CF00400#F0FF7D0000FFFFFF
(1547754037.462883) can0 0CF00300#FF0000FF06FFFFFF
(1547754037.463459) can0 0CEFFF00#6406007DFFFFFFFF
(1547754037.464056) can0 18EF0600#640E7F00FFFFFFFF
(1547754037.468314) can0 0DEF0603#0101FFFFFFFFFFF5
(1547754037.468880) can0 04EF0006#641513F00000930E
(1547754037.469459) can0 0CFFFE06#5C271D271DFFFFFF
(1547754037.470007) can0 18FEF147#FF0000FFFFFFFFFF
(1547754037.470607) can0 18F00503#7DFFFFFFFFFFFFFF
(1547754037.472923) can0 0CF00400#F0FF7D0000FFFFFF
(1547754037.482851) can0 0CF00300#FF0000FF07FFFFFF
(1547754037.483482) can0 0CEFFF00#6406007DFFFFFFFF
(1547754037.484031) can0 18EFFF00#64100B0B2003007D
(1547754037.488268) can0 0DEF0603#0101FFFFFFFFFFF5
(1547754037.488884) can0 04EF0006#641514F00000A90E
(1547754037.492935) can0 0CF00400#F0FF7D0000FFFFFF
(1547754037.502887) can0 0CF00300#FF0000FF06FFFFFF
(1547754037.503485) can0 0CEFFF00#6406007DFFFFFFFF
(1547754037.508059) can0 0DEF0647#0104FFFFFFFFFFF1
(1547754037.508660) can0 0DEF0603#0101FFFFFFFFFFF5
(1547754037.509231) can0 04EF0006#641515F00000930E
(1547754037.509783) can0 0CFFFE06#5C271D271DFFFFFF
(1547754037.512959) can0 0CF00400#F0FF7D0000FFFFFF
(1547754037.522886) can0 0CF00300#FF0000FF06FFFFFF
(1547754037.523485) can0 0CEFFF00#6406007DFFFFFFFF
(1547754037.524033) can0 18FD7C00#F880F1F000CF03FC
(1547754037.528337) can0 0DEF0603#0101FFFFFFFFFFF5
(1547754037.528883) can0 04EF0006#641516F00000930E
(1547754037.529463) can0 0C000006#30FFFFFFF8FFFFFF
(1547754037.532929) can0 0CF00400#F0FF7D0000FFFFFF
(1547754037.542906) can0 0CF00300#FF0000FF06FFFFFF
(1547754037.543480) can0 0CEFFF00#6406007DFFFFFFFF
(1547754037.544078) can0 18FEF200#0000FFFFFFFFFFFF
(1547754037.548306) can0 0DEF0603#0101FFFFFFFFFFF5
(1547754037.548879) can0 04EF0006#641517F00000930E
(1547754037.549455) can0 0CFE4947#FFFFFFFFFFFFFFFF
(1547754037.550032) can0 18FFFB06#00057DF8FFFFFFFF
(1547754037.550606) can0 0CFE4347#0000FFFF3FFFFFFF
(1547754037.551172) can0 0CFE4447#0000FFFF3FFFFFFF
(1547754037.552892) can0 0CF00400#F0FF7D0000FFFFFF
(1547754037.562850) can0 0CF00300#FF0000FF06FFFFFF
(1547754037.563482) can0 0CEFFF00#6406007DFFFFFFFF
(1547754037.564012) can0 18EF0600#640E8900FFFFFFFF
(1547754037.568277) can0 0DEF0603#0101FFFFFFFFFFF5
(1547754037.568856) can0 04EF0006#641518F00000930E
(1547754037.572935) can0 0CF00400#F0FF7D0000FFFFFF
(1547754037.582908) can0 0CF00300#FF0000FF06FFFFFF
(1547754037.583480) can0 0CEFFF00#6406007DFFFFFFFF
(1547754037.584056) can0 18EFFF00#64100B0B2003007D
(1547754037.588307) can0 0DEF0603#0101FFFFFFFFFFF5
(1547754037.588881) can0 04EF0006#641519F00000930E
(1547754037.589456) can0 18FEF147#FF0000FFFFFFFFFF
(1547754037.590058) can0 18F00503#7DFFFFFFFFFFFFFF
(1547754037.592934) can0 0CF00400#F0FF7D0000FFFFFF
(1547754037.602883) can0 0CF00300#FF0000FF06FFFFFF
(1547754037.603481) can0 0CEFFF00#6406007DFFFFFFFF
(1547754037.608082) can0 0DEF0647#0104FFFFFFFFFFF1
(1547754037.608682) can0 0DEF0603#0101FFFFFFFFFFF5
(1547754037.609230) can0 04EF0006#64151AF00000930E
(1547754037.612962) can0 0CF00400#F0FF7D0000FFFFFF
(1547754037.622912) can0 0CF00300#FF0000FF06FFFFFF
(1547754037.623482) can0 0CEFFF00#6406007DFFFFFFFF
(1547754037.624056) can0 18FDB300#FFFF4029FFFFFFFF
(1547754037.624662) can0 1CEFFF00#64070000FFFFFFFF
(1547754037.628311) can0 0DEF0603#0101FFFFFFFFFFF5
(1547754037.628882) can0 04EF0006#64151BF00000930E
(1547754037.629458) can0 0CFE4947#FFFFFFFFFFFFFFFF
(1547754037.630060) can0 0CFFFF47#5DFFFFF3FFFFFFFF
(1547754037.630626) can0 0CFE4347#0000FFFF3FFFFFFF
(1547754037.631231) can0 0CFE4447#0000FFFF3FFFFFFF
(1547754037.631802) can0 0CFFFE06#5C271D271DFFFFFF
(1547754037.632983) can0 0CF00400#F0FF7D0000FFFFFF
(1547754037.642938) can0 0CF00300#FF0000FF07FFFFFF
(1547754037.643533) can0 0CEFFF00#6406007DFFFFFFFF
(1547754037.644107) can0 18FEF200#0000FFFFFFFFFFFF
(1547754037.648310) can0 0DEF0603#0101FFFFFFFFFFF5
(1547754037.648883) can0 04EF0006#64151CF00000A90E
(1547754037.652938) can0 0CF00400#F0FF7D0000FFFFFF
(1547754037.662888) can0 0CF00300#FF0000FF07FFFFFF
(1547754037.663484) can0 0CEFFF00#6406007DFFFFFFFF
(1547754037.664060) can0 18EF0600#640E9300FFFFFFFF
(1547754037.668292) can0 0DEF0603#0101FFFFFFFFFFF5
(1547754037.668860) can0 04EF0006#64151DF00000A90E
(1547754037.669411) can0 0CFFFE06#5C531D531DFFFFFF
(1547754037.669962) can0 18FEF147#FF0000FFFFFFFFFF
(1547754037.670587) can0 18F00503#7DFFFFFFFFFFFFFF
(1547754037.672897) can0 0CF00400#F0FF7D0000FFFFFF
(1547754037.673472) can0 18FECA03#01FFF4FEFF00FFFF
(1547754037.682888) can0 0CF00300#FF0000FF06FFFFFF
(1547754037.683462) can0 0CEFFF00#6406007DFFFFFFFF
(1547754037.684020) can0 18EFFF00#64100B0B2003007D
(1547754037.684597) can0 18FEDF00#7D521DFFFFFFFFFF
(1547754037.688312) can0 0DEF0603#0101FFFFFFFFFFF5
(1547754037.688862) can0 04EF0006#64151EF00000930E
(1547754037.692938) can0 0CF00400#F0FF7D0000FFFFFF
(1547754037.702889) can0 0CF00300#FF0000FF07FFFFFF
(1547754037.703462) can0 0CEFFF00#6406007DFFFFFFFF
(1547754037.704036) can0 18FEEF00#FFFFFF00FFFFFFFA
(1547754037.708037) can0 0DEF0647#0104FFFFFFFFFFF1
(1547754037.708662) can0 0DEF0603#0101FFFFFFFFFFF5
(1547754037.709210) can0 04EF0006#64151FF00000A90E
(1547754037.709763) can0 0CFFFE06#5C531D531DFFFFFF
(1547754037.710389) can0 18FFFF06#73FFFFFFFFFFFFFF
(1547754037.712898) can0 0CF00400#F0FF7D0000FFFFFF
(1547754037.722877) can0 0CF00300#FF0000FF07FFFFFF
(1547754037.723464) can0 0CEFFF00#6406007DFFFFFFFF
(1547754037.728289) can0 0DEF0603#0101FFFFFFFFFFF5
(1547754037.728863) can0 04EF0006#641510F00000A90E
(1547754037.732939) can0 0CF00400#F0FF7D0000FFFFFF
(1547754037.742917) can0 0CF00300#FF0000FF06FFFFFF
(1547754037.743489) can0 0CEFFF00#6406007DFFFFFFFF
(1547754037.744088) can0 18FEF200#0000FFFFFFFFFFFF
(1547754037.748290) can0 0DEF0603#0101FFFFFFFFFFF5
(1547754037.748864) can0 04EF0006#641511F00000930E
(1547754037.749440) can0 0CFE4947#FFFFFFFFFFFFFFFF
(1547754037.750016) can0 1CFDDF47#FCFFFFFFFFFFFFFF
(1547754037.750615) can0 0CFE4347#0000FFFF3FFFFFFF
(1547754037.751173) can0 0CFE4447#0000FFFF3FFFFFFF
(1547754037.751775) can0 0CFFFE06#5C271D271DFFFFFF
(1547754037.752964) can0 0CF00400#F0FF7D0000FFFFFF
(1547754037.762867) can0 0CF00300#FF0000FF06FFFFFF
(1547754037.763465) can0 0CEFFF00#6406007DFFFFFFFF
(1547754037.764037) can0 18EF0600#640E9D00FFFFFFFF
(1547754037.768291) can0 0DEF0603#0101FFFFFFFFFFF5
(1547754037.768840) can0 04EF0006#641512F00000930E
(1547754037.772941) can0 0CF00400#F0FF7D0000FFFFFF
(1547754037.782893) can0 0CF00300#FF0000FF06FFFFFF
(1547754037.783466) can0 0CEFFF00#6406007DFFFFFFFF
(1547754037.784014) can0 18EFFF00#64100B0B2003007D
(1547754037.784616) can0 18FEF600#FF003FFF00FFFFFF
(1547754037.788291) can0 0DEF0603#0101FFFFFFFFFFF5
(1547754037.788866) can0 04EF0006#641513F00000930E
(1547754037.789441) can0 18FEF147#FF0000FFFFFFFFFF
(1547754037.790066) can0 18F00647#FFCFFFFFFFFFFFFF
(1547754037.790627) can0 18F00503#7DFFFFFFFFFFFFFF
(1547754037.792902) can0 0CF00400#F0FF7D0000FFFFFF
(1547754037.802854) can0 18EFFA00#6401FF0000FFFFFF
(1547754037.803442) can0 0CEFFF00#6406007DFFFFFFFF
(1547754037.804040) can0 0CF00300#FF0000FF06FFFFFF
(1547754037.808029) can0 0DEF0647#0104FFFFFFFFFFF1
(1547754037.808666) can0 0DEF0603#0101FFFFFFFFFFF5
(1547754037.809215) can0 04EF0006#641514F00000930E
(1547754037.812944) can0 0CF00400#F0FF7D0000FFFFFF
(1547754037.822893) can0 0CF00300#FF0000FF07FFFFFF
(1547754037.823467) can0 0CEFFF00#6406007DFFFFFFFF
(1547754037.828295) can0 0DEF0603#0101FFFFFFFFFFF5
(1547754037.828867) can0 04EF0006#641515F00000A90E
(1547754037.829444) can0 0CFE4947#FFFFFFFFFFFFFFFF
(1547754037.830042) can0 0CFE4347#0000FFFF3FFFFFFF
(1547754037.830644) can0 0CFE4447#0000FFFF3FFFFFFF
(1547754037.831241) can0 0CFFFE06#5C531D531DFFFFFF
(1547754037.832929) can0 0CF00400#F0FF7D0000FFFFFF
(1547754037.842931) can0 0CF00300#FF0000FF07FFFFFF
(1547754037.843518) can0 0CEFFF00#6406007DFFFFFFFF
(1547754037.844102) can0 18FEF200#0000FFFFFFFFFFFF
(1547754037.848306) can0 0DEF0603#0101FFFFFFFFFFF5
(1547754037.848868) can0 04EF0006#641516F00000A90E
(1547754037.852944) can0 0CF00400#F0FF7D0000FFFFFF
(1547754037.862895) can0 0CF00300#FF0000FF06FFFFFF
(1547754037.863469) can0 0CEFFF00#6406007DFFFFFFFF
(1547754037.864043) can0 18EF0600#640EA700FFFFFFFF
(1547754037.868321) can0 0DEF0603#0101FFFFFFFFFFF5
(1547754037.868869) can0 04EF0006#641517F00000930E
(1547754037.869445) can0 0CFFFE06#5C271D271DFFFFFF
(1547754037.870018) can0 18FEF147#FF0000FFFFFFFFFF
(1547754037.870621) can0 18F00503#7DFFFFFFFFFFFFFF
(1547754037.872931) can0 0CF00400#F0FF7D0000FFFFFF
(1547754037.882883) can0 0CF00300#FF0000FF06FFFFFF
(1547754037.883471) can0 0CEFFF00#6406007DFFFFFFFF
(1547754037.884043) can0 18EFFF00#64100B0B2003007D
(1547754037.888283) can0 0DEF0603#0101FFFFFFFFFFF5
(1547754037.888854) can0 04EF0006#641518F00000930E
(1547754037.892949) can0 0CF00400#F0FF7D0000FFFFFF
(1547754037.902901) can0 0CF00300#FF0000FF07FFFFFF
(1547754037.903473) can0 0CEFFF00#6406007DFFFFFFFF
(1547754037.904071) can0 18FEEE00#5341FFFFFFFFFFFF
(1547754037.908075) can0 0DEF0647#0104FFFFFFFFFFF1
(1547754037.908656) can0 0DEF0603#0101FFFFFFFFFFF5
(1547754037.909220) can0 04EF0006#641519F00000A90E
(1547754037.909797) can0 0CFFFE06#5C531D531DFFFFFF
(1547754037.912950) can0 0CF00400#F0FF7D0000FFFFFF
(1547754037.922890) can0 0CF00300#FF0000FF06FFFFFF
(1547754037.923463) can0 0CEFFF00#6406007DFFFFFFFF
(1547754037.928317) can0 0DEF0603#0101FFFFFFFFFFF5
(1547754037.928863) can0 04EF0006#64151AF00000930E
(1547754037.932953) can0 0CF00400#F0FF7D0000FFFFFF
(1547754037.933526) can0 18FEDF00#7D521DFFFFFFFFFF
(1547754037.942954) can0 0CF00300#FF0000FF06FFFFFF
(1547754037.943527) can0 0CEFFF00#6406007DFFFFFFFF
(1547754037.944125) can0 18FEF200#0000FFFFFFFFFFFF
(1547754037.948305) can0 0DEF0603#0101FFFFFFFFFFF5
(1547754037.948877) can0 04EF0006#64151BF00000930E
(1547754037.949453) can0 0CFE4947#FFFFFFFFFFFFFFFF
(1547754037.950052) can0 0CFE4347#0000FFFF3FFFFFFF
(1547754037.950635) can0 0CFE4447#0000FFFF3FFFFFFF
(1547754037.951208) can0 0CFFFE06#5C271D271DFFFFFF
(1547754037.952936) can0 0CF00400#F0FF7D0000FFFFFF
(1547754037.962905) can0 0CF00300#FF0000FF06FFFFFF
(1547754037.963479) can0 0CEFFF00#6406007DFFFFFFFF
(1547754037.964051) can0 18EF0600#640EB100FFFFFFFF
(1547754037.968312) can0 0DEF0603#0101FFFFFFFFFFF5
(1547754037.968877) can0 04EF0006#64151CF00000930E
(1547754037.972953) can0 0CF00400#F0FF7D0000FFFFFF
(1547754037.982927) can0 0CF00300#FF0000FF06FFFFFF
(1547754037.983476) can0 0CEFFF00#6406007DFFFFFFFF
(1547754037.984049) can0 18EFFF00#64100B0B2003007D
(1547754037.984626) can0 18FEF700#FFFFFFFFFFFFF800
(1547754037.988304) can0 0DEF0603#0101FFFFFFFFFFF5
(1547754037.988875) can0 04EF0006#64151DF00000930E
(1547754037.989434) can0 18FEF147#FF0000FFFFFFFFFF
(1547754037.990050) can0 18F00503#7DFFFFFFFFFFFFFF
(1547754037.992935) can0 0CF00400#F0FF7D0000FFFFFF
(1547754038.002887) can0 0CF00300#FF0000FF07FFFFFF
(1547754038.003478) can0 0CEFFF00#6406007DFFFFFFFF
(1547754038.008103) can0 0DEF0647#0104FFFFFFFFFFF1
(1547754038.008703) can0 0DEF0603#0101FFFFFFFFFFF5
(1547754038.009250) can0 04EF0006#64151EF00000A90E
(1547754038.012920) can0 0CF00400#F0FF7D0000FFFFFF
(1547754038.022905) can0 0CF00300#FF0000FF06FFFFFF
(1547754038.023478) can0 0CEFFF00#6406007DFFFFFFFF
(1547754038.028332) can0 0DEF0603#0101FFFFFFFFFFF5
(1547754038.028878) can0 04EF0006#64151FF00000930E
(1547754038.029454) can0 0CFE4947#FFFFFFFFFFFFFFFF
(1547754038.029834) can0 18EA0006#E3FE00
(1547754038.030429) can0 0CFE4347#0000FFFF3FFFFFFF
(1547754038.031026) can0 0CFE4447#0000FFFF3FFFFFFF
(1547754038.031603) can0 0CFFFE06#5C271D271DFFFFFF
(1547754038.032954) can0 0CF00400#F0FF7D0000FFFFFF
(1547754038.036530) can0 1CEC0600#1022000505E3FE00
(1547754038.041804) can0 1CEC0006#110501FFFFE3FE00
(1547754038.042954) can0 0CF00300#FF0000FF06FFFFFF
(1547754038.043529) can0 0CEFFF00#6406007DFFFFFFFF
(1547754038.044127) can0 18FEF200#0000FFFFFFFFFFFF
(1547754038.048331) can0 0DEF0603#0101FFFFFFFFFFF5
(1547754038.048879) can0 04EF0006#641510F00000930E
(1547754038.052956) can0 0CF00400#F0FF7D0000FFFFFF
(1547754038.062931) can0 0CF00300#FF0000FF07FFFFFF
(1547754038.063480) can0 0CEFFF00#6406007DFFFFFFFF
(1547754038.064078) can0 18EF0600#640EBB00FFFFFFFF
(1547754038.064655) can0 1CFFFF17#22FFFF3CFFFFFFFF
(1547754038.067632) can0 18EAFF06#E5FE00
(1547754038.068405) can0 0DEF0603#0101FFFFFFFFFFF5
(1547754038.068953) can0 04EF0006#641511F00000A90E
(1547754038.069529) can0 0CFFFE06#5C531D531DFFFFFF
(1547754038.070086) can0 18FEF147#FF0000FFFFFFFFFF
(1547754038.070664) can0 18FEE706#CC0A0000FFFFFFFF
(1547754038.071262) can0 18F00503#7DFFFFFFFFFFFFFF
(1547754038.072979) can0 0CF00400#F0FF7D0000FFFFFF
(1547754038.082906) can0 0CF00300#FF0000FF07FFFFFF
(1547754038.083481) can0 0CEFFF00#6406007DFFFFFFFF
(1547754038.084053) can0 18EFFF00#64100B0B2003007D
(1547754038.084631) can0 18FED500#FFFFFCFFFFFFFFFF
(1547754038.085230) can0 18FEE500#CC0A0000FFFFFFFF
(1547754038.088333) can0 0DEF0603#0101FFFFFFFFFFF5
(1547754038.088905) can0 04EF0006#641512F00000A90E
(1547754038.092956) can0 0CF00400#F0FF7D0000FFFFFF
(1547754038.102907) can0 0CF00300#FF0000FF06FFFFFF
(1547754038.103507) can0 0CEFFF00#6406007DFFFFFFFF
(1547754038.108084) can0 0DEF0647#0104FFFFFFFFFFF1
(1547754038.108707) can0 0DEF0603#0101FFFFFFFFFFF5
(1547754038.109279) can0 04EF0006#641513F00000930E
(1547754038.109833) can0 0CFFFE06#5C271D271DFFFFFF
(1547754038.112957) can0 0CF00400#F0FF7D0000FFFFFF
(1547754038.122933) can0 0CF00300#FF0000FF07FFFFFF
(1547754038.123507) can0 0CEFFF00#6406007DFFFFFFFF
(1547754038.124081) can0 18FDB300#FFFF3429FFFFFFFF
(1547754038.128360) can0 0DEF0603#0101FFFFFFFFFFF5
(1547754038.128906) can0 04EF0006#641514F00000A90E
(1547754038.132958) can0 0CF00400#F0FF7D0000FFFFFF
(1547754038.136334) can0 1CEB0600#01201CDD6842DCA0
(1547754038.142959) can0 0CF00300#FF0000FF06FFFFFF
(1547754038.143533) can0 0CEFFF00#6406007DFFFFFFFF
(1547754038.144107) can0 18FEF200#0000FFFFFFFFFFFF
(1547754038.148337) can0 0DEF0603#0101FFFFFFFFFFF5
(1547754038.148907) can0 04EF0006#641515F00000930E
(1547754038.149483) can0 0CFE4947#FFFFFFFFFFFFFFFF
(1547754038.150084) can0 0CFFFF47#5DFFFFF3FFFFFFFF
(1547754038.150641) can0 0CFE4347#0000FFFF3FFFFFFF
(1547754038.151266) can0 0CFE4447#0000FFFF3FFFFFFF
(1547754038.151844) can0 0CFFFE06#5C271D271DFFFFFF
(1547754038.152968) can0 0CF00400#F0FF7D0000FFFFFF
(1547754038.162911) can0 0CF00300#FF0000FF07FFFFFF
(1547754038.163509) can0 0CEFFF00#6406007DFFFFFFFF
(1547754038.164057) can0 18EF0600#640EC500FFFFFFFF
(1547754038.168336) can0 0DEF0603#0101FFFFFFFFFFF5
(1547754038.168909) can0 04EF0006#641516F00000A90E
(1547754038.172961) can0 0CF00400#F0FF7D0000FFFFFF
(1547754038.182901) can0 0CF00300#FF0000FF06FFFFFF
(1547754038.183475) can0 0CEFFF00#6406007DFFFFFFFF
(1547754038.184048) can0 18EFFF00#64100B0B2003007D
(1547754038.184625) can0 18FEDF00#7D521DFFFFFFFFFF
(1547754038.185173) can0 1CEB0600#020FD58D20E37A31
(1547754038.188353) can0 0DEF0603#0101FFFFFFFFFFF5
(1547754038.188899) can0 04EF0006#641517F00000930E
(1547754038.189450) can0 0CFFFE06#5C271D271DFFFFFF
(1547754038.190008) can0 18FEF147#FF0000FFFFFFFFFF
(1547754038.190633) can0 18FFFB06#001BFFFFFFFFFFFF
(1547754038.191232) can0 18F00503#7DFFFFFFFFFFFFFF
(1547754038.192976) can0 0CF00400#F0FF7D0000FFFFFF
(1547754038.202968) can0 0CF00300#FF0000FF06FFFFFF
(1547754038.203545) can0 0CEFFF00#6406007DFFFFFFFF
(1547754038.204118) can0 18FEEF00#FFFFFF00FFFFFFFA
(1547754038.208119) can0 0DEF0647#0104FFFFFFFFFFF1
(1547754038.208713) can0 0DEF0603#0101FFFFFFFFFFF5
(1547754038.209243) can0 04EF0006#641518F00000930E
(1547754038.212996) can0 0CF00400#F0FF7D0000FFFFFF
(1547754038.222948) can0 0CF00300#FF0000FF06FFFFFF
(1547754038.223545) can0 0CEFFF00#6406007DFFFFFFFF
(1547754038.228374) can0 0DEF0603#0101FFFFFFFFFFF5
(1547754038.228946) can0 04EF0006#641519F00000930E
(1547754038.229520) can0 0CFE4947#FFFFFFFFFFFFFFFF
(1547754038.230099) can0 18FE6847#3DFFFFFFFFFFFFFF
(1547754038.230697) can0 0CFE4347#0000FFFF3FFFFFFF
(1547754038.231268) can0 18FFFF06#73FFFFFFFFFFFFFF
(1547754038.231791) can0 0CFE4447#0000FFFF3FFFFFFF
(1547754038.232973) can0 0CF00400#F0FF7D0000FFFFFF
(1547754038.236450) can0 1CEB0600#03F1C044FFFF0401
(1547754038.242948) can0 0CF00300#FF0000FF06FFFFFF
(1547754038.243571) can0 0CEFFF00#6406007DFFFFFFFF
(1547754038.244169) can0 18FEF200#0000FFFFFFFFFFFF
(1547754038.248376) can0 0DEF0603#0101FFFFFFFFFFF5
(1547754038.248918) can0 04EF0006#64151AF00000930E
(1547754038.252996) can0 0CF00400#F0FF7D0000FFFFFF
(1547754038.262896) can0 0CF00300#FF0000FF07FFFFFF
(1547754038.263484) can0 0CEFFF00#6406007DFFFFFFFF
(1547754038.264056) can0 18EF0600#640ECF00FFFFFFFF
(1547754038.268371) can0 0DEF0603#0101FFFFFFFFFFF5
(1547754038.268945) can0 04EF0006#64151BF00000A90E
(1547754038.269523) can0 0CFFFF47#5EFFFFFFFFFFFFFF
(1547754038.270099) can0 18FEF147#FF0000FFFFFFFFFF
(1547754038.270671) can0 0CFFFE06#5C531D531DFFFFFF
(1547754038.271201) can0 18FEFC47#FFFFFFFFFFFFFFFF
(1547754038.271773) can0 18EF0047#F220610FFFFFFFFF
(1547754038.272399) can0 18F00647#FFCFFFFFFFFFFFFF
(1547754038.273025) can0 1CFDDF47#FCFFFFFFFFFFFFFF
(1547754038.273597) can0 0CF00400#F0FF7D0000FFFFFF
(1547754038.274202) can0 18F00503#7DFFFFFFFFFFFFFF
(1547754038.282948) can0 0CF00300#FF0000FF06FFFFFF
(1547754038.283547) can0 0CEFFF00#6406007DFFFFFFFF
(1547754038.284095) can0 18EFFF00#64100B0B2003007D
(1547754038.284697) can0 18FEF600#FF003FFF00FFFFFF
(1547754038.285200) can0 1CEB0600#04204E0001FAC9FA
(1547754038.288353) can0 0DEF0603#0101FFFFFFFFFFF5
(1547754038.288896) can0 04EF0006#64151CF00000930E
(1547754038.292997) can0 0CF00400#F0FF7D0000FFFFFF
(1547754038.302948) can0 0CF00300#FF0000FF06FFFFFF
(1547754038.303550) can0 0CEFFF00#6406007DFFFFFFFF
(1547754038.308153) can0 0DEF0647#0104FFFFFFFFFFF1
(1547754038.308749) can0 0DEF0603#0101FFFFFFFFFFF5
(1547754038.309296) can0 04EF0006#64151DF00000930E
(1547754038.309876) can0 0CFFFE06#5C271D271DFFFFFF
(1547754038.313024) can0 0CF00400#F0FF7D0000FFFFFF
(1547754038.322917) can0 0CF00300#FF0000FF06FFFFFF
(1547754038.323548) can0 0CEFFF00#6406007DFFFFFFFF
(1547754038.328406) can0 0DEF0603#0101FFFFFFFFFFF5
(1547754038.328949) can0 04EF0006#64151EF00000930E
(1547754038.333005) can0 0CF00400#F0FF7D0000FFFFFF
(1547754038.333574) can0 18FFFA00#022C0000180C00A5
(1547754038.336578) can0 1CEB0600#05C05D0000FFFFFF
(1547754038.343005) can0 0CF00300#FF0000FF06FFFFFF
(1547754038.343601) can0 0CEFFF00#6406007DFFFFFFFF
(1547754038.344176) can0 18FEF200#0000FFFFFFFFFFFF
(1547754038.346829) can0 1CEC0006#13220005FFE3FE00
(1547754038.348450) can0 0DEF0603#0101FFFFFFFFFFF5
(1547754038.349021) can0 04EF0006#64151FF00000930E
(1547754038.349602) can0 0CFE4947#FFFFFFFFFFFFFFFF
(1547754038.350204) can0 0CFE4347#0000FFFF3FFFFFFF
(1547754038.350801) can0 0CFE4447#0000FFFF3FFFFFFF
(1547754038.352944) can0 0CF00400#F0FF7D0000FFFFFF
(1547754038.362957) can0 0CF00300#FF0000FF06FFFFFF
(1547754038.363518) can0 0CEFFF00#6406007DFFFFFFFF
(1547754038.364123) can0 18EF0600#640ED900FFFFFFFF
(1547754038.364653) can0 18FEF500#C8FFFFFFFF39FFFF
(1547754038.368331) can0 0DEF0603#0101FFFFFFFFFFF5
(1547754038.368925) can0 04EF0006#641510F00000930E
(1547754038.373007) can0 0CF00400#F0FF7D0000FFFFFF
(1547754038.382983) can0 0CF00300#FF0000FF06FFFFFF
(1547754038.383551) can0 0CEFFF00#6406007DFFFFFFFF
(1547754038.384124) can0 18EFFF00#64100B0B2003007D
(1547754038.388383) can0 0DEF0603#0101FFFFFFFFFFF5
(1547754038.388926) can0 04EF0006#641511F00000930E
(1547754038.389528) can0 18FEF147#FF0000FFFFFFFFFF
(1547754038.390130) can0 18F00503#7DFFFFFFFFFFFFFF
(1547754038.393002) can0 0CF00400#F0FF7D0000FFFFFF
(1547754038.402957) can0 0CF00300#FF0000FF06FFFFFF
(1547754038.403555) can0 0CEFFF00#6406007DFFFFFFFF
(1547754038.404103) can0 18FE6900#0A258427FFFF60FE
(1547754038.408134) can0 0DEF0647#0104FFFFFFFFFFF1
(1547754038.408727) can0 0DEF0603#0101FFFFFFFFFFF5
(1547754038.409302) can0 04EF0006#641512F00000930E
(1547754038.413007) can0 0CF00400#F0FF7D0000FFFFFF
(1547754038.422956) can0 0CF00300#FF0000FF06FFFFFF
(1547754038.423556) can0 0CEFFF00#6406007DFFFFFFFF
(1547754038.428378) can0 0DEF0603#0101FFFFFFFFFFF5
(1547754038.428954) can0 04EF0006#641513F00000930E
(1547754038.429529) can0 0CFE4947#FFFFFFFFFFFFFFFF
(1547754038.430133) can0 0CFE4347#0000FFFF3FFFFFFF
(1547754038.430698) can0 0CFE4447#0000FFFF3FFFFFFF
(1547754038.431330) can0 0CFFFE06#5C271D271DFFFFFF
(1547754038.432981) can0 0CF00400#F0FF7D0000FFFFFF
(1547754038.433582) can0 18FEDF00#7D261DFFFFFFFFFF
(1547754038.443010) can0 0CF00300#FF0000FF06FFFFFF
(1547754038.443581) can0 0CEFFF00#6406007DFFFFFFFF
(1547754038.444177) can0 18FEF200#0000FFFFFFFFFFFF
(1547754038.448460) can0 0DEF0603#0101FFFFFFFFFFF5
(1547754038.449026) can0 04EF0006#641510F00000930E
(1547754038.453010) can0 0CF00400#F0FF7D0000FFFFFF
(1547754038.462961) can0 0CF00300#FF0000FF06FFFFFF
(1547754038.463555) can0 0CEFFF00#6406007DFFFFFFFF
(1547754038.464129) can0 18EF0600#640EE300FFFFFFFF
(1547754038.468411) can0 0DEF0603#0101FFFFFFFFFFF5
(1547754038.468953) can0 04EF0006#641510F00000930E
(1547754038.469531) can0 18FEF147#FF0000FFFFFFFFFF
(1547754038.470131) can0 18F00503#7DFFFFFFFFFFFFFF
(1547754038.473005) can0 0CF00400#F0FF7D0000FFFFFF
(1547754038.482987) can0 0CF00300#FF0000FF06FFFFFF
(1547754038.483556) can0 0CEFFF00#6406007DFFFFFFFF
(1547754038.484105) can0 18EFFF00#64100B0B2003007D
(1547754038.488412) can0 0DEF0603#0101FFFFFFFFFFF5
(1547754038.488958) can0 04EF0006#641510F00000930E
(1547754038.493035) can0 0CF00400#F0FF7D0000FFFFFF
(1547754038.502987) can0 0CF00300#FF0000FF06FFFFFF
(1547754038.503557) can0 0CEFFF00#6406007DFFFFFFFF
(1547754038.508161) can0 0DEF0647#0104FFFFFFFFFFF1
(1547754038.508758) can0 0DEF0603#0101FFFFFFFFFFF5
(1547754038.509305) can0 04EF0006#641510F00000930E
(1547754038.509885) can0 0CFFFE06#5C271D271DFFFFFF
(1547754038.513009) can0 0CF00400#F0FF7D0000FFFFFF
(1547754038.522988) can0 0CF00300#FF0000FF06FFFFFF
(1547754038.523559) can0 0CEFFF00#6406007DFFFFFFFF
(1547754038.524133) can0 18FD7C00#F880F1F000CF03FC
(1547754038.528410) can0 0DEF0603#0101FFFFFFFFFFF5
(1547754038.528925) can0 04EF0006#641510F00000930E
(1547754038.529533) can0 0C000006#30FFFFFFF8FFFFFF
(1547754038.533009) can0 0CF00400#F0FF7D0000FFFFFF
(1547754038.543014) can0 0CF00300#FF0000FF06FFFFFF
(1547754038.543585) can0 0CEFFF00#6406007DFFFFFFFF
(1547754038.544181) can0 18FEF200#0000FFFFFFFFFFFF
(1547754038.548384) can0 0DEF0603#0101FFFFFFFFFFF5
(1547754038.548932) can0 04EF0006#641510F00000930E
(1547754038.549534) can0 0CFE4947#FFFFFFFFFFFFFFFF
(1547754038.550112) can0 18FFFB06#00057DF8FFFFFFFF
(1547754038.550685) can0 0CFE4347#0000FFFF3FFFFFFF
(1547754038.551235) can0 0CFE4447#0000FFFF3FFFFFFF
(1547754038.552986) can0 0CF00400#F0FF7D0000FFFFFF
(1547754038.562940) can0 0CF00300#FF0000FF06FFFFFF
(1547754038.563559) can0 0CEFFF00#6406007DFFFFFFFF
(1547754038.564135) can0 18EF0600#640EED0AFFFFFFFF
(1547754038.572966) can0 0CF00400#F0FF7D0000FFFFFF
(1547754038.582991) can0 0CF00300#FF0000FF07FFFFFF
(1547754038.583560) can0 0CEFFF00#6406007DFFFFFFFF
(1547754038.584111) can0 18EFFF00#64100B0B2003007D
(1547754038.593040) can0 0CF00400#F0FF7D0000FFFFFF
(1547754038.602991) can0 0CF00300#FF0000FF07FFFFFF
(1547754038.603562) can0 0CEFFF00#6406007DFFFFFFFF
(1547754038.613017) can0 0CF00400#F0FF7D0000FFFFFF
(1547754038.622992) can0 0CF00300#FF0000FF06FFFFFF
(1547754038.623562) can0 0CEFFF00#6406007DFFFFFFFF
(1547754038.624138) can0 18FDB300#FFFF3429FFFFFFFF
(1547754038.624713) can0 1CEFFF00#64070000FFFFFFFF
(1547754038.633042) can0 0CF00400#F0FF7D0000FFFFFF
(1547754038.643042) can0 0CF00300#FF0000FF06FFFFFF
(1547754038.643590) can0 0CEFFF00#6406007DFFFFFFFF
(1547754038.644187) can0 18FEF200#0000FFFFFFFFFFFF
(1547754038.653017) can0 0CF00400#F0FF7D0000FFFFFF
(1547754038.662995) can0 0CF00300#FF0000FF06FFFFFF
(1547754038.663564) can0 0CEFFF00#6406007DFFFFFFFF
(1547754038.664139) can0 18EF0600#640EF70AFFFFFFFF
(1547754038.673007) can0 0CF00400#F0FF7D0000FFFFFF
(1547754038.682952) can0 0CF00300#FF0000FF06FFFFFF
(1547754038.683522) can0 0CEFFF00#6406007DFFFFFFFF
(1547754038.684095) can0 18EFFF00#64100B0B2003007D
(1547754038.684672) can0 18FEDF00#7D261DFFFFFFFFFF
(1547754038.692975) can0 0CF00400#F0FF7D0000FFFFFF
(1547754038.702951) can0 0CF00300#FF0000FF07FFFFFF
(1547754038.703523) can0 0CEFFF00#6406007DFFFFFFFF
(1547754038.704096) can0 18FEEF00#FFFFFF00FFFFFFFA
(1547754038.712976) can0 0CF00400#F0FF7D0000FFFFFF
(1547754038.722952) can0 0CF00300#FF0000FF07FFFFFF
(1547754038.723524) can0 0CEFFF00#6406007DFFFFFFFF
(1547754038.732977) can0 0CF00400#F0FF7D0000FFFFFF
(1547754038.742978) can0 0CF00300#FF0000FF07FFFFFF
(1547754038.743575) can0 0CEFFF00#6406007DFFFFFFFF
(1547754038.744148) can0 18FEF200#0000FFFFFFFFFFFF
(1547754038.744725) can0 1CFFFF17#22FFFF3CFFFFFFFF
(1547754038.753003) can0 0CF00400#F0FF7D0000FFFFFF
(1547754038.762955) can0 0CF00300#FF0000FF07FFFFFF
(1547754038.763526) can0 0CEFFF00#6406007DFFFFFFFF
(1547754038.764099) can0 18EF0600#640E010EFFFFFFFF
(1547754038.773004) can0 0CF00400#F0FF7D0000FFFFFF
(1547754038.782956) can0 0CF00300#FF0000FF06FFFFFF
(1547754038.783526) can0 0CEFFF00#6406007DFFFFFFFF
(1547754038.784074) can0 18EFFF00#64100B0B2003007D
(1547754038.784662) can0 18FEF600#FF003FFF00FFFFFF
(1547754038.785249) can0 1CECFF00#20220005FFE3FE00
(1547754038.792988) can0 0CF00400#F0FF7D0000FFFFFF
(1547754038.802930) can0 18EFFA00#6401FF0000FFFFFF
(1547754038.803502) can0 0CEFFF00#6406007DFFFFFFFF
(1547754038.804100) can0 0CF00300#FF0000FF06FFFFFF
(1547754038.812989) can0 0CF00400#F0FF7D0000FFFFFF
(1547754038.822956) can0 0CF00300#FF0000FF06FFFFFF
(1547754038.823529) can0 0CEFFF00#6406007DFFFFFFFF
(1547754038.833006) can0 0CF00400#F0FF7D0000FFFFFF
(1547754038.836255) can0 1CEBFF00#01201CDD6842DCA0
(1547754038.842982) can0 0CF00300#FF0000FF06FFFFFF
(1547754038.843579) can0 0CEFFF00#6406007DFFFFFFFF
(1547754038.844153) can0 18FEF200#0000FFFFFFFFFFFF
(1547754038.853004) can0 0CF00400#F0FF7D0000FFFFFF
(1547754038.862968) can0 0CF00300#FF0000FF06FFFFFF
(1547754038.863542) can0 0CEFFF00#6406007DFFFFFFFF
(1547754038.864115) can0 18EF0600#640E0B0EFFFFFFFF
(1547754038.873020) can0 0CF00400#F0FF7D0000FFFFFF
(1547754038.882968) can0 0CF00300#FF0000FF06FFFFFF
(1547754038.883543) can0 0CEFFF00#6406007DFFFFFFFF
(1547754038.884115) can0 18EFFF00#64100B0B2003007D
(1547754038.885143) can0 1CEBFF00#020FD58D20E37A31
(1547754038.893020) can0 0CF00400#F0FF7D0000FFFFFF
(1547754038.902972) can0 0CF00300#FF0000FF06FFFFFF
(1547754038.903544) can0 0CEFFF00#6406007DFFFFFFFF
(1547754038.904118) can0 18FEEE00#5341FFFFFFFFFFFF
(1547754038.913020) can0 0CF00400#F0FF7D0000FFFFFF
(1547754038.923008) can0 0CF00300#FF0000FF06FFFFFF
(1547754038.923584) can0 0CEFFF00#6406007DFFFFFFFF
(1547754038.933056) can0 0CF00400#F0FF7D0000FFFFFF
(1547754038.933629) can0 18FEDF00#7D021DFFFFFFFFFF
(1547754038.936479) can0 1CEBFF00#03F1C044FFFF0401
(1547754038.943057) can0 0CF00300#FF0000FF06FFFFFF
(1547754038.943629) can0 0CEFFF00#6406007DFFFFFFFF
(1547754038.944203) can0 18FEF200#0000FFFFFFFFFFFF
(1547754038.953056) can0 0CF00400#F0FF7D0000FFFFFF
(1547754038.963006) can0 0CF00300#FF0000FF06FFFFFF
(1547754038.963582) can0 0CEFFF00#6406007DFFFFFFFF
(1547754038.964094) can0 18EF0600#640E150EFFFFFFFF
(1547754038.973057) can0 0CF00400#F0FF7D0000FFFFFF
(1547754038.983010) can0 0CF00300#FF0000FF06FFFFFF
(1547754038.983582) can0 0CEFFF00#6406007DFFFFFFFF
(1547754038.984156) can0 18EFFF00#64100B0B2003007D
(1547754038.984732) can0 18FEF700#FFFFFFFFFFFFF800
(1547754038.985306) can0 1CEBFF00#04204E0001FAC9FA
(1547754038.993015) can0 0CF00400#F0FF7D0000FFFFFF
(1547754039.003010) can0 0CF00300#FF0000FF06FFFFFF
(1547754039.003583) can0 0CEFFF00#6406007DFFFFFFFF
(1547754039.013063) can0 0CF00400#F0FF7D0000FFFFFF
(1547754039.023012) can0 0CF00300#FF0000FF06FFFFFF
(1547754039.023579) can0 0CEFFF00#6406007DFFFFFFFF
(1547754039.033056) can0 0CF00400#F0FF7D0000FFFFFF
(1547754039.036434) can0 1CEBFF00#05C05D0000FFFFFF
(1547754039.043059) can0 0CF00300#FF0000FF06FFFFFF
(1547754039.043630) can0 0CEFFF00#6406007DFFFFFFFF
(1547754039.044205) can0 18FEF200#0000FFFFFFFFFFFF
(1547754039.053043) can0 0CF00400#F0FF7D0000FFFFFF
(1547754039.063016) can0 0CF00300#FF0000FF07FFFFFF
(1547754039.063617) can0 0CEFFF00#6406007DFFFFFFFF
(1547754039.064188) can0 18EF0600#640E1F0EFFFFFFFF
(1547754039.073065) can0 0CF00400#F0FF7D0000FFFFFF
(1547754039.083017) can0 0CF00300#FF0000FF07FFFFFF
(1547754039.083592) can0 0CEFFF00#6406007DFFFFFFFF
(1547754039.084166) can0 18EFFF00#64100B0B2003007D
(1547754039.084744) can0 18FED500#FFFFFCFFFFFFFFFF
(1547754039.093061) can0 0CF00400#F0FF7D0000FFFFFF
(1547754039.103049) can0 0CF00300#FF0000FF06FFFFFF
(1547754039.103616) can0 0CEFFF00#6406007DFFFFFFFF
(1547754039.113067) can0 0CF00400#F0FF7D0000FFFFFF
(1547754039.123019) can0 0CF00300#FF0000FF06FFFFFF
(1547754039.123566) can0 0CEFFF00#6406007DFFFFFFFF
(1547754039.124170) can0 18FDB300#FFFF3629FFFFFFFF
(1547754039.127722) can0 18EEFF47#4D74300400340220
(1547754039.128331) can0 18EEFF06#4D743004000E0020
(1547754039.128870) can0 18EEFF03#4D74300400030220
(1547754039.133073) can0 0CF00400#F0FF7D0000FFFFFF
(1547754039.143073) can0 0CF00300#FF0000FF07FFFFFF
(1547754039.143646) can0 0CEFFF00#6406007DFFFFFFFF
(1547754039.144227) can0 18FEF200#0000FFFFFFFFFFFF
(1547754039.153073) can0 0CF00400#F0FF7D0000FFFFFF
(1547754039.163027) can0 0CF00300#FF0000FF06FFFFFF
(1547754039.163596) can0 0CEFFF00#6406007DFFFFFFFF
(1547754039.164159) can0 18EF0600#640E290EFFFFFFFF
(1547754039.173063) can0 0CF00400#F0FF7D0000FFFFFF
(1547754039.183023) can0 0CF00300#FF0000FF06FFFFFF
(1547754039.183623) can0 0CEFFF00#6406007DFFFFFFFF
(1547754039.184168) can0 18EFFF00#64100B0B2003007D
(1547754039.184771) can0 18FEDF00#7D001DFFFFFFFFFF
(1547754039.193075) can0 0CF00400#F0FF7D0000FFFFFF
(1547754039.203025) can0 0CF00300#FF0000FF06FFFFFF
(1547754039.203624) can0 0CEFFF00#6406007DFFFFFFFF
(1547754039.204196) can0 18FEEF00#FFFFFF00FFFFFFFA
(1547754039.213077) can0 0CF00400#F0FF7D0000FFFFFF
(1547754039.223027) can0 0CF00300#FF0000FF07FFFFFF
(1547754039.223625) can0 0CEFFF00#6406007DFFFFFFFF
(1547754039.233079) can0 0CF00400#F0FF7D0000FFFFFF
(1547754039.243079) can0 0CF00300#FF0000FF06FFFFFF
(1547754039.243649) can0 0CEFFF00#6406007DFFFFFFFF
(1547754039.244223) can0 18FEF200#0000FFFFFFFFFFFF
(1547754039.253080) can0 0CF00400#F0FF7D0000FFFFFF
(1547754039.263031) can0 0CF00300#FF0000FF06FFFFFF
(1547754039.263625) can0 0CEFFF00#6406007DFFFFFFFF
(1547754039.264197) can0 18EF0600#640E330EFFFFFFFF
(1547754039.273076) can0 0CF00400#F0FF7D0000FFFFFF
(1547754039.283057) can0 0CF00300#FF0000FF06FFFFFF
(1547754039.283629) can0 0CEFFF00#6406007DFFFFFFFF
(1547754039.284171) can0 18EFFF00#64100B0B2003007D
(1547754039.284751) can0 18FEF600#FF003FFF00FFFFFF
(1547754039.293079) can0 0CF00400#F0FF7D0000FFFFFF
(1547754039.303029) can0 0CF00300#FF0000FF06FFFFFF
(1547754039.303600) can0 0CEFFF00#6406007DFFFFFFFF
(1547754039.313082) can0 0CF00400#F0FF7D0000FFFFFF
(1547754039.323056) can0 0CF00300#FF0000FF06FFFFFF
(1547754039.323628) can0 0CEFFF00#6406007DFFFFFFFF
(1547754039.333084) can0 0CF00400#F0FF7D0000FFFFFF
(1547754039.333652) can0 18FFFA00#022C0000180C00A5
(1547754039.343081) can0 0CF00300#FF0000FF07FFFFFF
(1547754039.343652) can0 0CEFFF00#6406007DFFFFFFFF
(1547754039.344252) can0 18FEF200#0000FFFFFFFFFFFF
(1547754039.353086) can0 0CF00400#F0FF7D0000FFFFFF
(1547754039.363058) can0 0CF00300#FF0000FF07FFFFFF
(1547754039.363629) can0 0CEFFF00#6406007DFFFFFFFF
(1547754039.364204) can0 18EF0600#640E3D0EFFFFFFFF
(1547754039.364759) can0 18FEF500#C8FFFFFFFF39FFFF
(1547754039.373082) can0 0CF00400#F0FF7D0000FFFFFF
(1547754039.383059) can0 0CF00300#FF0000FF06FFFFFF
(1547754039.383631) can0 0CEFFF00#6406007DFFFFFFFF
(1547754039.384179) can0 18EFFF00#64100B0B2003007D
(1547754039.388981) can0 0DEF0603#0101FFFFFFFFFFF5
(1547754039.393110) can0 0CF00400#F0FF7D0000FFFFFF
(1547754039.403034) can0 0CF00300#FF0000FF06FFFFFF
(1547754039.403607) can0 0CEFFF00#6406007DFFFFFFFF
(1547754039.404179) can0 18FE6900#0C258627FFFF60FE
(1547754039.404756) can0 1CFFFF17#22FFFF3CFFFFFFFF
(1547754039.408907) can0 0DEF0647#0104FFFFFFFFFFF1
(1547754039.409504) can0 0DEF0603#0101FFFFFFFFFFF5
(1547754039.409880) can0 18EAFF47#00EE00
(1547754039.410506) can0 0CFFFE06#5CFFFFFFFFFFFFFF
(1547754039.412956) can0 18EEFF17#0C6E240400130220
(1547754039.413531) can0 0CF00400#F0FF7D0000FFFFFF
(1547754039.423056) can0 0CF00300#FF0000FF07FFFFFF
(1547754039.423630) can0 0CEFFF00#6406007DFFFFFFFF
(1547754039.429009) can0 0DEF0603#0101FFFFFFFFFFF5
(1547754039.433108) can0 0CF00400#F0FF7D0000FFFFFF
(1547754039.433682) can0 18FEDF00#7D041DFFFFFFFFFF
(1547754039.436457) can0 18EEFF00#56F5290400000220
(1547754039.443089) can0 0CF00300#FF0000FF06FFFFFF
(1547754039.443657) can0 0CEFFF00#6406007DFFFFFFFF
(1547754039.444257) can0 18FEF200#0000FFFFFFFFFFFF
(1547754039.448989) can0 0DEF0603#0101FFFFFFFFFFF5
(1547754039.449608) can0 0CFE4947#FFFFFFFFFFFFFFFF
(1547754039.450210) can0 0CFE4347#FFFFFFFFFFFFFFFF
(1547754039.450809) can0 0CFE4447#0000FFFF3FFFFFFF
(1547754039.453083) can0 0CF00400#F0FF7D0000FFFFFF
(1547754039.463066) can0 0CF00300#FF0000FF06FFFFFF
(1547754039.463633) can0 0CEFFF00#6406007DFFFFFFFF
(1547754039.464207) can0 18EF0600#640E470EFFFFFFFF
(1547754039.468990) can0 0DEF0603#0101FFFFFFFFFFF5
(1547754039.473088) can0 0CF00400#F0FF7D0000FFFFFF
(1547754039.483068) can0 0CF00300#FF0000FF06FFFFFF
(1547754039.483633) can0 0CEFFF00#6406007DFFFFFFFF
(1547754039.484183) can0 18EFFF00#64100B0B2003007D
(1547754039.489016) can0 0DEF0603#0101FFFFFFFFFFF5
(1547754039.489540) can0 18FEF147#FF0000FFFFFFFFFF
(1547754039.490186) can0 18F00503#FFFFFFFFFFFFFFFF
(1547754039.493112) can0 0CF00400#F0FF7D0000FFFFFF
(1547754039.503064) can0 0CF00300#FF0000FF06FFFFFF
(1547754039.503634) can0 0CEFFF00#6406007DFFFFFFFF
(1547754039.508915) can0 0DEF0647#0104FFFFFFFFFFF1
(1547754039.509510) can0 0DEF0603#0101FFFFFFFFFFF5
(1547754039.513114) can0 0CF00400#F0FF7D0000FFFFFF
(1547754039.523061) can0 0CF00300#FF0000FF07FFFFFF
(1547754039.523636) can0 0CEFFF00#6406007DFFFFFFFF
(1547754039.524208) can0 18FD7C00#F880F1F000CF03FC
(1547754039.529012) can0 0DEF0603#0101FFFFFFFFFFF5
(1547754039.529614) can0 0CFE4947#FFFFFFFFFFFFFFFF
(1547754039.530180) can0 0CFE4347#FFFFFFFFFFFFFFFF
(1547754039.530814) can0 0CFE4447#0000FFFF3FFFFFFF
(1547754039.531434) can0 0CFFFE06#5CFFFFFFFFFFFFFF
(1547754039.533136) can0 0CF00400#F0FF7D0000FFFFFF
(1547754039.543089) can0 0CF00300#FF0000FF06FFFFFF
(1547754039.543688) can0 0CEFFF00#6406007DFFFFFFFF
(1547754039.544261) can0 18FEF200#0000FFFFFFFFFFFF
(1547754039.549018) can0 0DEF0603#0101FFFFFFFFFFF5
(1547754039.553114) can0 0CF00400#F0FF7D0000FFFFFF
(1547754039.563066) can0 0CF00300#FF0000FF06FFFFFF
(1547754039.563639) can0 0CEFFF00#6406007DFFFFFFFF
(1547754039.564212) can0 18EF0600#640E510EFFFFFFFF
(1547754039.569016) can0 0DEF0603#0101FFFFFFFFFFF5
