(1547755124.669433) can0 18EEFF47#4D74300400340220
(1547755124.669999) can0 18EEFF06#4D743004000E0020
(1547755124.670574) can0 18EEFF03#4D74300400030220
(1547755124.694993) can0 18EEFF00#56F5290400000220
(1547755124.697187) can0 0CF00400#F0FF000000FFFFFF
(1547755124.697590) can0 18EAFF00#00EE00
(1547755124.707089) can0 0CF00300#FF0000FF00FFFFFF
(1547755124.707658) can0 0CEFFF00#6406007DFFFFFFFF
(1547755124.708231) can0 18FEF200#0000FFFFFFFFFFFF
(1547755124.717307) can0 0CF00400#F0FF7D0000FFFFFF
(1547755124.727203) can0 0CF00300#FF0000FF06FFFFFF
(1547755124.727774) can0 0CEFFF00#6406007DFFFFFFFF
(1547755124.728349) can0 18EF0600#640E0302FFFFFFFF
(1547755124.737218) can0 0CF00400#F0FF7D0000FFFFFF
(1547755124.747219) can0 0CF00300#FF0000FF06FFFFFF
(1547755124.747789) can0 0CEFFF00#6406007DFFFFFFFF
(1547755124.748361) can0 18EFFF00#64100B0B0000007D
(1547755124.748950) can0 18FEDF00#7DFE1CFFFFFFFFFF
(1547755124.749517) can0 1CECFF00#20220005FFE3FE00
(1547755124.757211) can0 0CF00400#F0FF7D0000FFFFFF
(1547755124.767184) can0 0CF00300#FF0000FF06FFFFFF
(1547755124.767754) can0 0CEFFF00#6406007DFFFFFFFF
(1547755124.768328) can0 18FEEF00#FFFFFFFEFFFFFFFA
(1547755124.777203) can0 0CF00400#F0FF7D0000FFFFFF
(1547755124.787173) can0 0CF00300#FF0000FF06FFFFFF
(1547755124.787742) can0 0CEFFF00#6406007DFFFFFFFF
(1547755124.797239) can0 0CF00400#F0FF7D0000FFFFFF
(1547755124.800335) can0 1CEBFF00#01201CDD6842DCA0
(1547755124.807238) can0 0CF00300#FF0000FF06FFFFFF
(1547755124.807782) can0 0CEFFF00#6406007DFFFFFFFF
(1547755124.808358) can0 18FEF200#0000FFFFFFFFFFFF
(1547755124.817233) can0 0CF00400#F0FF7D0000FFFFFF
(1547755124.827160) can0 0CF00300#FF0000FF06FFFFFF
(1547755124.827756) can0 0CEFFF00#6406007DFFFFFFFF
(1547755124.828308) can0 18EF0600#640E0D02FFFFFFFF
(1547755124.837225) can0 0CF00400#F0FF7D0000FFFFFF
(1547755124.847148) can0 0CF00300#FF0000FF06FFFFFF
(1547755124.847723) can0 0CEFFF00#6406007DFFFFFFFF
(1547755124.848293) can0 18EFFF00#64100B0B0000007D
(1547755124.848865) can0 18FEF600#FF0044FF00FFFFFF
(1547755124.849422) can0 1CEBFF00#020FD58D20E37A31
(1547755124.857170) can0 0CF00400#F0FF7D0000FFFFFF
(1547755124.867135) can0 18EFFA00#6401FF0000FFFFFF
(1547755124.867709) can0 0CEFFF00#6406007DFFFFFFFF
(1547755124.868285) can0 0CF00300#FF0000FF06FFFFFF
(1547755124.877163) can0 0CF00400#F0FF7D0000FFFFFF
(1547755124.887125) can0 0CF00300#FF0000FF06FFFFFF
(1547755124.887723) can0 0CEFFF00#6406007DFFFFFFFF
(1547755124.897196) can0 0CF00400#F0FF7D0000FFFFFF
(1547755124.900371) can0 1CEBFF00#03F1C044FFFF0401
(1547755124.907142) can0 0CF00300#FF0000FF06FFFFFF
(1547755124.907739) can0 0CEFFF00#6406007DFFFFFFFF
(1547755124.908313) can0 18FEF200#0000FFFFFFFFFFFF
(1547755124.917184) can0 0CF00400#F0FF7D0000FFFFFF
(1547755124.927104) can0 0CF00300#FF0000FF06FFFFFF
(1547755124.927679) can0 0CEFFF00#6406007DFFFFFFFF
(1547755124.928254) can0 18EF0600#640E1706FFFFFFFF
(1547755124.930706) can0 0DEF0603#0101FFFFFFFFFFF5
(1547755124.931251) can0 04EF0006#641510F00000930E
(1547755124.931825) can0 0C000006#30FFFFFFF8FFFFFF
(1547755124.937174) can0 0CF00400#F0FF7D0000FFFFFF
(1547755124.947094) can0 0CF00300#FF0000FF06FFFFFF
(1547755124.947693) can0 0CEFFF00#6406007DFFFFFFFF
(1547755124.948244) can0 18EEFF00#56F5290400000220
(1547755124.948817) can0 18EFFF00#64100B0B0000007D
(1547755124.949396) can0 1CEBFF00#04204E0001FAC9FA
(1547755124.950573) can0 0DEF0647#0104FFFFFFFFFFF1
(1547755124.951217) can0 0DEF0603#0101FFFFFFFFFFF5
(1547755124.951791) can0 04EF0006#641510F00000930E
(1547755124.952299) can0 0CFFFE06#5C271D271DFFFFFF
(1547755124.952878) can0 18FFFB06#00057DF8FFFFFFFF
(1547755124.953300) can0 18EAFF47#00EE00
(1547755124.957120) can0 0CF00400#F0FF7D0000FFFFFF
(1547755124.967087) can0 0CF00300#FF0000FF06FFFFFF
(1547755124.967684) can0 0CEFFF00#6406007DFFFFFFFF
(1547755124.968259) can0 18FEEE00#5642FFFFFFFFFFFF
(1547755124.970687) can0 0DEF0603#0101FFFFFFFFFFF5
(1547755124.971232) can0 04EF0006#641510F00000930E
(1547755124.977155) can0 0CF00400#F0FF7D0000FFFFFF
(1547755124.987075) can0 0CF00300#FF0000FF07FFFFFF
(1547755124.987649) can0 0CEFFF00#6406007DFFFFFFFF
(1547755124.990677) can0 0DEF0603#0101FFFFFFFFFFF5
(1547755124.991222) can0 04EF0006#641510F00000A90E
(1547755124.991796) can0 0CFE4947#FFFFFFFFFFFFFFFF
(1547755124.992396) can0 0CFE4347#FFFFFFFFFFFFFFFF
(1547755124.992997) can0 0CFE4447#0000FFFF3FFFFFFF
(1547755124.993576) can0 0CFFFE06#5C531D531DFFFFFF
(1547755124.997101) can0 0CF00400#F0FF7D0000FFFFFF
(1547755124.997655) can0 18FEDF00#7D261DFFFFFFFFFF
(1547755125.000593) can0 18EEFF00#56F5290400000220
(1547755125.001168) can0 1CEBFF00#05C05D0000FFFFFF
(1547755125.007141) can0 0CF00300#FF0000FF06FFFFFF
(1547755125.007687) can0 0CEFFF00#6406007DFFFFFFFF
(1547755125.008264) can0 18FEF200#0000FFFFFFFFFFFF
(1547755125.010667) can0 0DEF0603#0101FFFFFFFFFFF5
(1547755125.011213) can0 04EF0006#641510F00000930E
(1547755125.017135) can0 0CF00400#F0FF7D0000FFFFFF
(1547755125.027057) can0 0CF00300#FF0000FF06FFFFFF
(1547755125.027655) can0 0CEFFF00#6406007DFFFFFFFF
(1547755125.028229) can0 18EF0600#640E2100FFFFFFFF
(1547755125.030657) can0 0DEF0603#0101FFFFFFFFFFF5
(1547755125.031203) can0 04EF0006#641510F00000930E
(1547755125.031751) can0 0CFFFE06#5C271D271DFFFFFF
(1547755125.032328) can0 18FEF147#FF0000FFFFFFFFFF
(1547755125.032927) can0 18F00503#FFFFFFFFFFFFFFFF
(1547755125.037080) can0 0CF00400#F0FF7D0000FFFFFF
(1547755125.047002) can0 0CF00300#FF0000FF06FFFFFF
(1547755125.047645) can0 0CEFFF00#6406007DFFFFFFFF
(1547755125.048220) can0 18EFFF00#64100B0B0000007D
(1547755125.048817) can0 18FEF700#FFFFFFFFFFFFA600
(1547755125.050505) can0 0DEF0647#0104FFFFFFFFFFF1
(1547755125.051168) can0 0DEF0603#0101FFFFFFFFFFF5
(1547755125.051715) can0 04EF0006#641510F00000930E
(1547755125.057118) can0 0CF00400#F0FF7D0000FFFFFF
(1547755125.067060) can0 0CF00300#FF0000FF07FFFFFF
(1547755125.067633) can0 0CEFFF00#6406007DFFFFFFFF
(1547755125.070637) can0 0DEF0603#0101FFFFFFFFFFF5
(1547755125.071207) can0 04EF0006#641510F00000A90E
(1547755125.071778) can0 0CFE4947#FFFFFFFFFFFFFFFF
(1547755125.072359) can0 0CFE4347#FFFFFFFFFFFFFFFF
(1547755125.072955) can0 0CFE4447#0000FFFF3FFFFFFF
(1547755125.073534) can0 0CFFFE06#5C531D531DFFFFFF
(1547755125.077060) can0 0CF00400#F0FF7D0000FFFFFF
(1547755125.087065) can0 0CF00300#FF0000FF06FFFFFF
(1547755125.087646) can0 0CEFFF00#6406007DFFFFFFFF
(1547755125.090581) can0 0DEF0603#0101FFFFFFFFFFF5
(1547755125.091175) can0 04EF0006#641510F00000930E
(1547755125.097097) can0 0CF00400#F0FF7D0000FFFFFF
(1547755125.099224) can0 18EEFF47#4D74300400340220
(1547755125.099815) can0 18EEFF06#4D743004000E0020
(1547755125.100368) can0 18EEFF03#4D74300400030220
(1547755125.107044) can0 0CF00300#FF0000FF06FFFFFF
(1547755125.107640) can0 0CEFFF00#6406007DFFFFFFFF
(1547755125.108218) can0 18FEF200#0000FFFFFFFFFFFF
(1547755125.110614) can0 0DEF0603#0101FFFFFFFFFFF5
(1547755125.111163) can0 04EF0006#641510F00000930E
(1547755125.111734) can0 0CFFFE06#5C271D271DFFFFFF
(1547755125.112268) can0 18FEF147#FF0000FFFFFFFFFF
(1547755125.112872) can0 18F00503#FFFFFFFFFFFFFFFF
(1547755125.117087) can0 0CF00400#F0FF7D0000FFFFFF
(1547755125.127079) can0 0CF00300#FF0000FF06FFFFFF
(1547755125.127582) can0 0CEFFF00#6406007DFFFFFFFF
(1547755125.128203) can0 18EF0600#640E2B00FFFFFFFF
(1547755125.130603) can0 0DEF0603#0101FFFFFFFFFFF5
(1547755125.131153) can0 04EF0006#641510F00000930E
(1547755125.137074) can0 0CF00400#F0FF7D0000FFFFFF
(1547755125.147073) can0 0CF00300#FF0000FF06FFFFFF
(1547755125.147616) can0 0CEFFF00#6406007DFFFFFFFF
(1547755125.148192) can0 18EFFF00#64100B0B0000007D
(1547755125.148766) can0 18FED500#FFFFFCFFFFFFFFFF
(1547755125.150522) can0 0DEF0647#0104FFFFFFFFFFF1
(1547755125.151117) can0 0DEF0603#0101FFFFFFFFFFF5
(1547755125.151666) can0 04EF0006#641510F00000930E
(1547755125.157092) can0 0CF00400#F0FF7DA203FFFFFF
(1547755125.167089) can0 0CF00300#FF0000FF06FFFFFF
(1547755125.167657) can0 0CEFFF00#6406FA7CFFFFFFFF
(1547755125.170988) can0 0DEF0603#0101FFFFFFFFFFF5
(1547755125.172207) can0 04EF0006#641510F00000930E
(1547755125.177104) can0 0CF00400#F0FF7DB805FFFFFF
(1547755125.187077) can0 0CF00300#FF0000FF06FFFFFF
(1547755125.187648) can0 0CEFFF00#6406F77CFFFFFFFF
(1547755125.188224) can0 18FDB300#FFFF042AFFFFFFFF
(1547755125.190977) can0 0DEF0603#0101FFFFFFFFFFF5
(1547755125.192196) can0 04EF0006#641510F00000930E
(1547755125.192771) can0 0CFE4947#FFFFFFFFFFFFFFFF
(1547755125.193378) can0 0CFE4347#FFFFFFFFFFFFFFFF
(1547755125.193944) can0 0CFE4447#0000FFFF3FFFFFFF
(1547755125.197119) can0 0CF00400#F0FF7DC205FFFFFF
(1547755125.207069) can0 0CF00300#FF0000FF07FFFFFF
(1547755125.207639) can0 0CEFFF00#6406F77CFFFFFFFF
(1547755125.208238) can0 18FEF200#0000FFFFFFFFFFFF
(1547755125.210967) can0 0DEF0603#0101FFFFFFFFFFF5
(1547755125.212186) can0 04EF0006#641510F00000A90E
(1547755125.217088) can0 0CF00400#F0FF7DC205FFFFFF
(1547755125.227033) can0 0CF00300#FF0000FF06FFFFFF
(1547755125.227603) can0 0CEFFF00#6406F77CFFFFFFFF
(1547755125.228179) can0 18EF0600#640E3500FFFFFFFF
(1547755125.230955) can0 0DEF0603#0101FFFFFFFFFFF5
(1547755125.232178) can0 04EF0006#641510F00000930E
(1547755125.232724) can0 0CFFFE06#5C271D271DFFFFFF
(1547755125.233301) can0 18FEF147#FF0000FFFFFFFFFF
(1547755125.233925) can0 18F00503#FFFFFFFFFFFFFFFF
(1547755125.237073) can0 0CF00400#F0FF7DC205FFFFFF
(1547755125.247049) can0 0CF00300#FF0000FF06FFFFFF
(1547755125.247618) can0 0CEFFF00#6406F77CFFFFFFFF
(1547755125.248219) can0 18EFFF00#641000000000007D
(1547755125.248793) can0 18FEDF00#80261DFFFFFFFFFF
(1547755125.250825) can0 0DEF0647#0104FFFFFFFFFFF1
(1547755125.251469) can0 0DEF0603#0101FFFFFFFFFFF5
(1547755125.252716) can0 04EF0006#641510F00000930E
(1547755125.257069) can0 0CF00400#F0FF7DC205FFFFFF
(1547755125.267039) can0 0CF00300#FF0000FF06FFFFFF
(1547755125.267608) can0 0CEFFF00#6406F77CFFFFFFFF
(1547755125.268184) can0 18FEEF00#FFFFFF15FFFFFFFA
(1547755125.271208) can0 0DEF0603#0101FFFFFFFFFFF5
(1547755125.272430) can0 04EF0006#641510F00000930E
(1547755125.273007) can0 0CFE4947#FFFFFFFFFFFFFFFF
(1547755125.273610) can0 0CFFFF47#5DFFFFF3FFFFFFFF
(1547755125.277037) can0 0CF00400#F0FF7D7205FFFFFF
(1547755125.287000) can0 0CF00300#FF0000FF06FFFFFF
(1547755125.287575) can0 0CEFFF00#6406F77CFFFFFFFF
(1547755125.297047) can0 0CF00400#F0FF7D4405FFFFFF
(1547755125.307042) can0 0CF00300#FF0000FF06FFFFFF
(1547755125.307640) can0 0CEFFF00#6406F87CFFFFFFFF
(1547755125.308215) can0 18FEF200#0000FFFFFFFFFFFF
(1547755125.317063) can0 0CF00400#F0FF7D4405FFFFFF
(1547755125.326984) can0 0CF00300#FF0000FF06FFFFFF
(1547755125.327575) can0 0CEFFF00#6406F87CFFFFFFFF
(1547755125.328155) can0 18EF0600#640E3F00FFFFFFFF
(1547755125.337029) can0 0CF00400#F0FF7D4405FFFFFF
(1547755125.346973) can0 0CF00300#FF0000FF06FFFFFF
(1547755125.347568) can0 0CEFFF00#6406F87CFFFFFFFF
(1547755125.348143) can0 18EFFF00#641000000000007D
(1547755125.348718) can0 18FEF600#FF0040FF00FFFFFF
(1547755125.357017) can0 0CF00400#F0FF7D4405FFFFFF
(1547755125.366964) can0 0CF00300#FF0000FF06FFFFFF
(1547755125.367557) can0 0CEFFF00#6406F87CFFFFFFFF
(1547755125.377005) can0 0CF00400#F0FF7DC406FFFFFF
(1547755125.387003) can0 0CF00300#FF0000FF06FFFFFF
(1547755125.387574) can0 0CEFFF00#6406F57CFFFFFFFF
(1547755125.396999) can0 0CF00400#F0FF7DD806FFFFFF
(1547755125.397594) can0 18FFFA00#022C0000180C0000
(1547755125.406993) can0 0CF00300#FF0000FF06FFFFFF
(1547755125.407563) can0 0CEFFF00#6406F57CFFFFFFFF
(1547755125.408163) can0 18FEF200#0000FFFFFFFFFFFF
(1547755125.416989) can0 0CF00400#F0FF7DD806FFFFFF
(1547755125.426929) can0 0CF00300#FF0000FF06FFFFFF
(1547755125.427503) can0 0CEFFF00#6406F57CFFFFFFFF
(1547755125.428080) can0 18EF0600#640E4900FFFFFFFF
(1547755125.428652) can0 18FEF500#C8FFFFFFFF3BFFFF
(1547755125.437002) can0 0CF00400#F0FF7DD806FFFFFF
(1547755125.446948) can0 0CF00300#FF0000FF06FFFFFF
(1547755125.447518) can0 0CEFFF00#6406F57CFFFFFFFF
(1547755125.448119) can0 18EFFF00#641000000000007D
(1547755125.456969) can0 0CF00400#F0FF7DD806FFFFFF
(1547755125.466935) can0 0CF00300#FF0000FF06FFFFFF
(1547755125.467507) can0 0CEFFF00#6406F57CFFFFFFFF
(1547755125.468059) can0 18FE6900#1A25EA27FFFF60FE
(1547755125.476958) can0 0CF00400#F0FF7DCC04FFFFFF
(1547755125.486901) can0 0CF00300#FF0000FF06FFFFFF
(1547755125.487499) can0 0CEFFF00#6406F97CFFFFFFFF
(1547755125.496945) can0 0CF00400#F0FF7D7C04FFFFFF
(1547755125.497547) can0 18FEDF00#81041DFFFFFFFFFF
(1547755125.506942) can0 0CF00300#FF0000FF06FFFFFF
(1547755125.507539) can0 0CEFFF00#6406F97CFFFFFFFF
(1547755125.508114) can0 18FEF200#0000FFFFFFFFFFFF
(1547755125.516959) can0 0CF00400#F0FF7D7A04FFFFFF
(1547755125.526909) can0 0CF00300#FF0000FF06FFFFFF
(1547755125.527477) can0 0CEFFF00#6406F97CFFFFFFFF
(1547755125.528056) can0 18EF0600#640E5306FFFFFFFF
(1547755125.536949) can0 0CF00400#F0FF7DFC07FFFFFF
(1547755125.546898) can0 0CF00300#FF0000FF07FFFFFF
(1547755125.547481) can0 0CEFFF00#6406F37CFFFFFFFF
(1547755125.548073) can0 18EFFF00#641000000000007D
(1547755125.556965) can0 0CF00400#FEFF7D2E08FFFFFF
(1547755125.566914) can0 0CF00300#FF0064FF06FFFFFF
(1547755125.567483) can0 0CEFFF00#64068C7DFFFFFFFF
(1547755125.576885) can0 0CF00400#FEFFB8D606FFFFFF
(1547755125.586901) can0 0CF00300#FF0064FF06FFFFFF
(1547755125.587474) can0 0CEFFF00#64068C7DFFFFFFFF
(1547755125.588025) can0 18FD7C00#F880F0F000CF03FC
(1547755125.596944) can0 0CF00400#FEFFB71E06FFFFFF
(1547755125.606917) can0 0CF00300#FF0064FF06FFFFFF
(1547755125.607487) can0 0CEFFF00#64068C7DFFFFFFFF
(1547755125.608065) can0 18FEF200#1700FFFFFFFFFFFF
(1547755125.616910) can0 0CF00400#FEFFB75805FFFFFF
(1547755125.626879) can0 0CF00300#FF0064FF06FFFFFF
(1547755125.627453) can0 0CEFFF00#64068C7DFFFFFFFF
(1547755125.628030) can0 18EF0600#640E5D06FFFFFFFF
(1547755125.636941) can0 0CF00400#FEFFB69005FFFFFF
(1547755125.646861) can0 0CF00300#FF0064FF06FFFFFF
(1547755125.647436) can0 0CEFFF00#64068C7DFFFFFFFF
(1547755125.648009) can0 18EFFF00#641000000000007D
(1547755125.656906) can0 0CF00400#FEFFB61007FFFFFF
(1547755125.666852) can0 0CF00300#FF0064FF06FFFFFF
(1547755125.667427) can0 0CEFFF00#64068C7DFFFFFFFF
(1547755125.676871) can0 0CF00400#FEFFB7A807FFFFFF
(1547755125.686841) can0 0CF00300#FF0064FF06FFFFFF
(1547755125.687417) can0 0CEFFF00#64068C7DFFFFFFFF
(1547755125.688017) can0 18FDB300#FFFFF829FFFFFFFF
(1547755125.688589) can0 1CEFFF00#64070000FFFFFFFF
(1547755125.696888) can0 0CF00400#FEFFB7B207FFFFFF
(1547755125.706856) can0 0CF00300#FF0064FF06FFFFFF
(1547755125.707430) can0 0CEFFF00#64068C7DFFFFFFFF
(1547755125.708007) can0 18FEF200#1F00FFFFFFFFFFFF
(1547755125.716847) can0 0CF00400#FEFFB78007FFFFFF
(1547755125.726854) can0 0CF00300#FF0064FF07FFFFFF
(1547755125.727421) can0 0CEFFF00#64068C7DFFFFFFFF
(1547755125.727996) can0 18EF0600#640E6706FFFFFFFF
(1547755125.736896) can0 0CF00400#FEFFB72607FFFFFF
(1547755125.746814) can0 0CF00300#FF0064FF06FFFFFF
(1547755125.747387) can0 0CEFFF00#64068C7DFFFFFFFF
(1547755125.747987) can0 18EFFF00#641000000000007D
(1547755125.748560) can0 18FEDF00#81201CFFFFFFFFFF
(1547755125.756835) can0 0CF00400#FEFFB7F406FFFFFF
(1547755125.766829) can0 0CF00300#FF0064FF06FFFFFF
(1547755125.767391) can0 0CEFFF00#64068C7DFFFFFFFF
(1547755125.767977) can0 18FEEF00#FFFFFF44FFFFFFFA
(1547755125.776850) can0 0CF00400#FEFFB75606FFFFFF
(1547755125.786819) can0 0CF00300#FF0064FF07FFFFFF
(1547755125.787391) can0 0CEFFF00#64068C7DFFFFFFFF
(1547755125.796866) can0 0CF00400#FEFFB78805FFFFFF
(1547755125.806861) can0 0CF00300#FF0064FF06FFFFFF
(1547755125.807430) can0 0CEFFF00#64068C7DFFFFFFFF
(1547755125.807979) can0 18FEF200#1600FFFFFFFFFFFF
(1547755125.816881) can0 0CF00400#FEFFB60A06FFFFFF
(1547755125.826775) can0 0CF00300#FF0064FF06FFFFFF
(1547755125.827346) can0 0CEFFF00#64068C7DFFFFFFFF
(1547755125.827923) can0 18EF0600#640E7106FFFFFFFF
(1547755125.836820) can0 0CF00400#FEFFB6A80AFFFFFF
(1547755125.846789) can0 0CF00300#FF0064FF06FFFFFF
(1547755125.847360) can0 0CEFFF00#64068C7DFFFFFFFF
(1547755125.847961) can0 18EFFF00#641000000000007D
(1547755125.848541) can0 18FEF600#FF003FFF00FFFFFF
(1547755125.856810) can0 0CF00400#FEFFB9A20CFFFFFF
(1547755125.866776) can0 18EFFA00#6401FF0000FFFFFF
(1547755125.867350) can0 0CEFFF00#64068C7DFFFFFFFF
(1547755125.867926) can0 0CF00300#FF0064FF06FFFFFF
(1547755125.876829) can0 0CF00400#FEFFBBC80CFFFFFF
(1547755125.886758) can0 0CF00300#FF0064FF06FFFFFF
(1547755125.887330) can0 0CEFFF00#64068C7DFFFFFFFF
(1547755125.896779) can0 0CF00400#FEFFBBF00BFFFFFF
(1547755125.906976) can0 0CF00300#FF0064FF07FFFFFF
(1547755125.907546) can0 0CEFFF00#64068C7DFFFFFFFF
(1547755125.908123) can0 18FEF200#3300FFFFFFFFFFFF
(1547755125.916820) can0 0CF00400#FEFFBA080AFFFFFF
(1547755125.926737) can0 0CF00300#FF0064FF06FFFFFF
(1547755125.927310) can0 0CEFFF00#64068C7DFFFFFFFF
(1547755125.927889) can0 18EF0600#640E7B06FFFFFFFF
(1547755125.936787) can0 0CF00400#FEFFB9920DFFFFFF
(1547755125.946755) can0 0CF00300#FF0064FF07FFFFFF
(1547755125.947351) can0 0CEFFF00#64068C7DFFFFFFFF
(1547755125.947926) can0 18EFFF00#641000000000007D
(1547755125.956775) can0 0CF00400#FEFFBBD20DFFFFFF
(1547755125.966697) can0 0CF00300#FF0064FF06FFFFFF
(1547755125.967291) can0 0CEFFF00#64068C7DFFFFFFFF
(1547755125.967867) can0 18FEEE00#5642FFFFFFFFFFFF
(1547755125.976740) can0 0CF00400#FEFFBBFA0DFFFFFF
(1547755125.986712) can0 0CF00300#FF0064FF06FFFFFF
(1547755125.987281) can0 0CEFFF00#64068C7DFFFFFFFF
(1547755125.996905) can0 0CF00400#FEFFBC600EFFFFFF
(1547755125.997479) can0 18FEDF00#86201CFFFFFFFFFF
(1547755126.006726) can0 0CF00300#FF0064FF07FFFFFF
(1547755126.007296) can0 0CEFFF00#64068C7DFFFFFFFF
(1547755126.007897) can0 18FEF200#3F00FFFFFFFFFFFF
(1547755126.016745) can0 0CF00400#FEFFBC440FFFFFFF
(1547755126.026717) can0 0CF00300#FF0064FF06FFFFFF
(1547755126.027286) can0 0CEFFF00#64068C7DFFFFFFFF
(1547755126.027867) can0 18EF0600#640E8506FFFFFFFF
(1547755126.036712) can0 0CF00400#FEFFBC1810FFFFFF
(1547755126.046682) can0 0CF00300#FF0064FF06FFFFFF
(1547755126.047253) can0 0CEFFF00#64068C7DFFFFFFFF
(1547755126.047828) can0 18EFFF00#641000000000007D
(1547755126.048425) can0 18FEF700#FFFFFFFFFFFFCB00
(1547755126.056802) can0 0CF00400#FEFFBDD810FFFFFF
(1547755126.066819) can0 0CF00300#FF0064FF07FFFFFF
(1547755126.067392) can0 0CEFFF00#64068C7DFFFFFFFF
(1547755126.076716) can0 0CF00400#FEFFBDBC11FFFFFF
(1547755126.086687) can0 0CF00300#FF0064FF06FFFFFF
(1547755126.087256) can0 0CEFFF00#64068C7DFFFFFFFF
(1547755126.096730) can0 0CF00400#FEFFBEC812FFFFFF
(1547755126.106702) can0 0CF00300#FF0064FF06FFFFFF
(1547755126.107273) can0 0CEFFF00#64068C7DFFFFFFFF
(1547755126.107847) can0 18FEF200#5500FFFFFFFFFFFF
(1547755126.116720) can0 0CF00400#FEFFBF9013FFFFFF
(1547755126.126814) can0 0CF00300#FF0064FF06FFFFFF
(1547755126.127388) can0 0CEFFF00#64068C7DFFFFFFFF
(1547755126.127962) can0 18EF0600#640E8F06FFFFFFFF
(1547755126.136712) can0 0CF00400#FEFFBF8414FFFFFF
(1547755126.146656) can0 0CF00300#FF0064FF07FFFFFF
(1547755126.147226) can0 0CEFFF00#64068C7DFFFFFFFF
(1547755126.147828) can0 18EFFF00#641000000000007D
(1547755126.148401) can0 18FED500#FFFFFCFFFFFFFFFF
(1547755126.156675) can0 0CF00400#FEFFBF8215FFFFFF
(1547755126.166647) can0 0CF00300#FF0064FF06FFFFFF
(1547755126.167216) can0 0CEFFF00#64068C7DFFFFFFFF
(1547755126.176741) can0 0CF00400#FEFFBF7616FFFFFF
(1547755126.186684) can0 0CF00300#FF0064FF07FFFFFF
(1547755126.187257) can0 0CEFFF00#64068C7DFFFFFFFF
(1547755126.187859) can0 18FDB300#FFFF042AFFFFFFFF
(1547755126.196680) can0 0CF00400#FEFFC08A17FFFFFF
(1547755126.206676) can0 0CF00300#FF0064FF06FFFFFF
(1547755126.207245) can0 0CEFFF00#64068F7DFFFFFFFF
(1547755126.207823) can0 18FEF200#6C00FFFFFFFFFFFF
(1547755126.216669) can0 0CF00400#FEFFC15418FFFFFF
(1547755126.226614) can0 0CF00300#FF0064FF07FFFFFF
(1547755126.227188) can0 0CEFFF00#6406927DFFFFFFFF
(1547755126.227762) can0 18EF0600#640E9906FFFFFFFF
(1547755126.236658) can0 0CF00400#FEFFC24619FFFFFF
(1547755126.246629) can0 0CF00300#FF0064FF07FFFFFF
(1547755126.247201) can0 0CEFFF00#6406957DFFFFFFFF
(1547755126.247803) can0 18EFFF00#641000000000007D
(1547755126.248375) can0 18FEDF00#8A201CFFFFFFFFFF
(1547755126.256649) can0 0CF00400#FEFFC4361AFFFFFF
(1547755126.266621) can0 0CF00300#FF0064FF06FFFFFF
(1547755126.267191) can0 0CEFFF00#6406987DFFFFFFFF
(1547755126.267768) can0 18FEEF00#FFFFFF5BFFFFFFFA
(1547755126.276837) can0 0CF00400#FEFFC51C1BFFFFFF
(1547755126.286609) can0 0CF00300#FF0064FF07FFFFFF
(1547755126.287181) can0 0CEFFF00#64069B7DFFFFFFFF
(1547755126.296729) can0 0CF00400#F8FFC60C1CFFFFFF
(1547755126.306724) can0 0CF00300#FF0064FF06FFFFFF
(1547755126.307321) can0 0CEFFF00#64069F7DFFFFFFFF
(1547755126.307898) can0 18FEF200#5100FFFFFFFFFFFF
(1547755126.316671) can0 0CF00400#F8FFC8FE1CFFFFFF
(1547755126.326866) can0 0CF00300#FF0064FF06FFFFFF
(1547755126.327464) can0 0CEFFF00#6406A17DFFFFFFFF
(1547755126.328011) can0 18EF0600#640EA306FFFFFFFF
(1547755126.336609) can0 0CF00400#F0FFC9F81DFFFFFF
(1547755126.346628) can0 0CF00300#FF0051FF06FFFFFF
(1547755126.347178) can0 0CEFFF00#6406967DFFFFFFFF
(1547755126.347754) can0 18EFFF00#641001010A03007D
(1547755126.348351) can0 18FEF600#FF003CFF00FFFFFF
(1547755126.356623) can0 0CF00400#F0FFC58A1EFFFFFF
(1547755126.361971) can0 18EEFF47#4D74300400340220
(1547755126.362546) can0 18EEFF06#4D743004000E0020
(1547755126.363119) can0 18EEFF03#4D74300400030220
(1547755126.366596) can0 0CF00300#FF0031FF06FFFFFF
(1547755126.367165) can0 0CEFFF00#6406607DFFFFFFFF
(1547755126.376540) can0 0CF00400#F0FFB11A1FFFFFFF
(1547755126.386513) can0 0CF00300#FF0015FF06FFFFFF
(1547755126.387080) can0 0CEFFF00#64061E7DFFFFFFFF
(1547755126.396555) can0 0CF00400#F0FF97741FFFFFFF
(1547755126.397128) can0 18FFFA00#022C0000180C0081
(1547755126.406526) can0 0CF00300#FF0002FF06FFFFFF
(1547755126.407098) can0 0CEFFF00#6406F07CFFFFFFFF
(1547755126.407672) can0 18FEF200#0700FFFFFFFFFFFF
(1547755126.416519) can0 0CF00400#F1FF86A21FFFFFFF
(1547755126.426462) can0 0CF00300#FF0000FF06FFFFFF
(1547755126.427038) can0 0CEFFF00#6406D97CFFFFFFFF
(1547755126.427614) can0 18EF0600#640EAD06FFFFFFFF
(1547755126.428186) can0 18FEF500#C8FFFFFFFF3AFFFF
(1547755126.432814) can0 18EEFF17#0C6E240400130220
(1547755126.436507) can0 0CF00400#F1FF7D841FFFFFFF
(1547755126.446453) can0 0CF00300#FF0000FF06FFFFFF
(1547755126.447026) can0 0CEFFF00#6406D97CFFFFFFFF
(1547755126.447604) can0 18EFFF00#641001011203057D
(1547755126.456477) can0 0CF00400#F1FF7D421FFFFFFF
(1547755126.466444) can0 0CF00300#FF0000FF07FFFFFF
(1547755126.466972) can0 0CEFFF00#6406D97CFFFFFFFF
(1547755126.467583) can0 18FE6900#A224EE27FFFF60FE
(1547755126.476491) can0 0CF00400#F1FF7DD81EFFFFFF
(1547755126.486437) can0 0CF00300#FF0000FF06FFFFFF
(1547755126.487009) can0 0CEFFF00#6406DA7CFFFFFFFF
(1547755126.496481) can0 0CF00400#F1FF7D7C1EFFFFFF
(1547755126.497051) can0 18FEDF00#8CFA1CFFFFFFFFFF
(1547755126.506475) can0 0CF00300#FF000EFF07FFFFFF
(1547755126.507003) can0 0CEFFF00#6406ED7CFFFFFFFF
(1547755126.507622) can0 18FEF200#0600FFFFFFFFFFFF
(1547755126.516546) can0 0CF00400#F1FF84161EFFFFFF
(1547755126.526466) can0 0CF00300#FF0017FF06FFFFFF
(1547755126.527039) can0 0CEFFF00#6406FA7CFFFFFFFF
(1547755126.527612) can0 18EF0600#640EB706FFFFFFFF
(1547755126.536461) can0 0CF00400#F1FF89AE1DFFFFFF
(1547755126.546432) can0 0CF00300#FF001AFF06FFFFFF
(1547755126.547002) can0 0CEFFF00#6406087DFFFFFFFF
(1547755126.547533) can0 18EFFF00#64100101F102037D
(1547755126.556601) can0 0CF00400#F1FF8E661DFFFFFF
(1547755126.566548) can0 0CF00300#FF001FFF06FFFFFF
(1547755126.567116) can0 0CEFFF00#64060F7DFFFFFFFF
(1547755126.576466) can0 0CF00400#F1FF911A1DFFFFFF
(1547755126.586435) can0 0CF00300#FF004BFF06FFFFFF
(1547755126.586984) can0 0CEFFF00#64061B7DFFFFFFFF
(1547755126.587558) can0 18FD7C00#F880F1F100CF03FD
(1547755126.596482) can0 0CF00400#F0FF96DE1CFFFFFF
(1547755126.606551) can0 0CF00300#FF004FFF06FFFFFF
(1547755126.607122) can0 0CEFFF00#6406747DFFFFFFFF
(1547755126.607724) can0 18FEF200#3E00FFFFFFFFFFFF
(1547755126.616447) can0 0CF00400#F0FFB8BA1CFFFFFF
(1547755126.623091) can0 0DEF0603#0101FFFFFFFFFFF5
(1547755126.626413) can0 0CF00300#FF004EFF06FFFFFF
(1547755126.626987) can0 0CEFFF00#6406797DFFFFFFFF
(1547755126.627587) can0 18EF0600#640EC106FFFFFFFF
(1547755126.636435) can0 0CF00400#F0FFBAEC1CFFFFFF
(1547755126.642983) can0 0DEF0647#0104FFFFFFFFFFF1
(1547755126.643579) can0 0DEF0603#0101FFFFFFFFFFF5
(1547755126.643982) can0 18EAFF47#00EE00
(1547755126.644554) can0 0CFFFE06#5CFFFFFFFFFFFFFF
(1547755126.646479) can0 0CF00300#FF0044FF07FFFFFF
(1547755126.647053) can0 0CEFFF00#64066C7DFFFFFFFF
(1547755126.647627) can0 18EFFF00#64100101F102037D
(1547755126.649200) can0 18EEFF00#56F5290400000220
(1547755126.656501) can0 0CF00400#F0FFB5421DFFFFFF
(1547755126.663076) can0 0DEF0603#0101FFFFFFFFFFF5
(1547755126.666419) can0 0CF00300#FF0034FF07FFFFFF
(1547755126.666993) can0 0CEFFF00#6406527DFFFFFFFF
(1547755126.676441) can0 0CF00400#F0FFABA21DFFFFFF
(1547755126.683062) can0 0DEF0603#0101FFFFFFFFFFF5
(1547755126.683685) can0 0CFE4947#FFFFFFFFFFFFFFFF
(1547755126.684285) can0 0CFE4347#FFFFFFFFFFFFFFFF
(1547755126.684859) can0 0CFE4447#0000FFFF3FFFFFFF
(1547755126.686461) can0 0CF00300#FF0025FF06FFFFFF
(1547755126.687032) can0 0CEFFF00#6406347DFFFFFFFF
(1547755126.687609) can0 18FDB300#FFFF102AFFFFFFFF
(1547755126.688182) can0 1CEFFF00#64070000FFFFFFFF
(1547755126.696552) can0 0CF00400#F0FF9FFE1DFFFFFF
(1547755126.703018) can0 0DEF0603#0101FFFFFFFFFFF5
(1547755126.706400) can0 0CF00300#FF0014FF06FFFFFF
(1547755126.706973) can0 0CEFFF00#6406157DFFFFFFFF
(1547755126.707574) can0 18FEF200#1600FFFFFFFFFFFF
(1547755126.713269) can0 18EAFF17#00EE00
(1547755126.716368) can0 0CF00400#F0FF94361EFFFFFF
(1547755126.723044) can0 0DEF0603#0101FFFFFFFFFFF5
(1547755126.723616) can0 18FEF147#FF0000FFFFFFFFFF
(1547755126.724264) can0 18F00503#FFFFFFFFFFFFFFFF
(1547755126.726366) can0 0CF00300#FF000DFF06FFFFFF
(1547755126.726911) can0 0CEFFF00#6406FA7CFFFFFFFF
(1547755126.727514) can0 18EF0600#640ECB06FFFFFFFF
(1547755126.733336) can0 1CFFFF17#22FFFF3CFFFFFFFF
(1547755126.736408) can0 0CF00400#F1FF893E1EFFFFFF
(1547755126.742958) can0 0DEF0647#0104FFFFFFFFFFF1
(1547755126.743556) can0 0DEF0603#0101FFFFFFFFFFF5
(1547755126.746331) can0 0CF00300#FF0000FF06FFFFFF
(1547755126.746904) can0 0CEFFF00#6406DA7CFFFFFFFF
(1547755126.747479) can0 18EFFF00#64100101FD02067D
(1547755126.748051) can0 18FEDF00#8B7C1CFFFFFFFFFF
(1547755126.748803) can0 18EEFF00#56F5290400000220
(1547755126.756351) can0 0CF00400#F1FF7D281EFFFFFF
(1547755126.763049) can0 0DEF0603#0101FFFFFFFFFFF5
(1547755126.763646) can0 0CFE4947#FFFFFFFFFFFFFFFF
(1547755126.764245) can0 0CFE4347#FFFFFFFFFFFFFFFF
(1547755126.764845) can0 0CFE4447#0000FFFF3FFFFFFF
(1547755126.765414) can0 0CFFFE06#5CFFFFFFFFFFFFFF
(1547755126.766318) can0 0CF00300#FF0000FF06FFFFFF
(1547755126.766918) can0 0CEFFF00#6406DA7CFFFFFFFF
(1547755126.767468) can0 18FEEF00#FFFFFF63FFFFFFFA
(1547755126.776309) can0 0CF00400#F1FF7DEC1DFFFFFF
(1547755126.782977) can0 0DEF0603#0101FFFFFFFFFFF5
(1547755126.786314) can0 0CF00300#FF000DFF06FFFFFF
(1547755126.786881) can0 0CEFFF00#6406DA7CFFFFFFFF
(1547755126.796355) can0 0CF00400#F1FF7D941DFFFFFF
(1547755126.803027) can0 0DEF0603#0101FFFFFFFFFFF5
(1547755126.803602) can0 18FEF147#FF0000FFFFFFFFFF
(1547755126.804225) can0 18F00503#FFFFFFFFFFFFFFFF
(1547755126.806325) can0 0CF00300#FF0014FF06FFFFFF
(1547755126.806898) can0 0CEFFF00#6406F97CFFFFFFFF
(1547755126.807473) can0 18FEF200#0A00FFFFFFFFFFFF
(1547755126.816422) can0 0CF00400#F1FF89421DFFFFFF
(1547755126.823019) can0 0DEF0603#0101FFFFFFFFFFF5
(1547755126.826344) can0 0CF00300#FF001CFF06FFFFFF
(1547755126.826912) can0 0CEFFF00#6406057DFFFFFFFF
(1547755126.827491) can0 18EF0600#640ED506FFFFFFFF
(1547755126.833210) can0 18EA0017#09FF00
(1547755126.836314) can0 0CF00400#F1FF8DE41CFFFFFF
(1547755126.842854) can0 0DEF0647#0104FFFFFFFFFFF1
(1547755126.843452) can0 0DEF0603#0101FFFFFFFFFFF5
(1547755126.844103) can0 0CFFFE06#5CFFFFFFFFFFFFFF
(1547755126.846304) can0 0CF00300#FF001FFF06FFFFFF
(1547755126.846878) can0 0CEFFF00#6406107DFFFFFFFF
(1547755126.847453) can0 18EFFF00#64100101E602037D
(1547755126.848027) can0 18FEF600#FF003CFF00FFFFFF
(1547755126.848877) can0 18FF0900#454355FFFFFFFFFF
(1547755126.856368) can0 0CF00400#F1FF91A41CFFFFFF
(1547755126.863448) can0 0DEF0603#0101FFFFFFFFFFF5
(1547755126.864597) can0 0C000006#30FFFFFFF8FFFFFF
(1547755126.865142) can0 04EF0006#641510F00000930E
(1547755126.866322) can0 18EFFA00#6401FF0000FFFFFF
(1547755126.866893) can0 0CEFFF00#64061B7DFFFFFFFF
(1547755126.867467) can0 0CF00300#FF0037FF07FFFFFF
(1547755126.876316) can0 0CF00400#F0FF96761CFFFFFF
(1547755126.883415) can0 0DEF0603#0101FFFFFFFFFFF5
(1547755126.884609) can0 04EF0006#641510F00000A90E
(1547755126.885185) can0 0CFE4947#FFFFFFFFFFFFFFFF
(1547755126.885762) can0 18FFFB06#0005C3F8FFFFFFFF
(1547755126.886358) can0 0CF00300#FF0039FF06FFFFFF
(1547755126.886932) can0 0CEFFF00#64064B7DFFFFFFFF
(1547755126.887508) can0 0CFE4347#FFFFFFFFFFFFFFFF
(1547755126.888106) can0 0CFE4447#0000FFFF3FFFFFFF
(1547755126.888651) can0 0CFFFE06#5C531D531DFFFFFF
(1547755126.896300) can0 0CF00400#F0FFA85A1CFFFFFF
(1547755126.903369) can0 0DEF0603#0101FFFFFFFFFFF5
(1547755126.904559) can0 04EF0006#641510F00000930E
(1547755126.906599) can0 0CF00300#FF003BFF07FFFFFF
(1547755126.907174) can0 0CEFFF00#64064D7DFFFFFFFF
(1547755126.907748) can0 18FEF200#2F00FFFFFFFFFFFF
(1547755126.916298) can0 0CF00400#F0FFA93C1CFFFFFF
(1547755126.923390) can0 0DEF0603#0101FFFFFFFFFFF5
(1547755126.924614) can0 04EF0006#641510F00000A90E
(1547755126.925165) can0 0CFFFE06#5C531D531DFFFFFF
(1547755126.925739) can0 18FEF147#FF0000FFFFFFFFFF
(1547755126.926340) can0 0CF00300#FF003BFF06FFFFFF
(1547755126.926914) can0 0CEFFF00#6406507DFFFFFFFF
(1547755126.927492) can0 18EF0600#640EDF00FFFFFFFF
(1547755126.928063) can0 18F00503#FFFFFFFFFFFFFFFF
(1547755126.936311) can0 0CF00400#F0FFAA5E1CFFFFFF
(1547755126.943306) can0 0DEF0647#0104FFFFFFFFFFF1
(1547755126.943858) can0 0DEF0603#0101FFFFFFFFFFF5
(1547755126.945011) can0 04EF0006#641510F00000930E
(1547755126.946304) can0 0CF00300#FF0036FF06FFFFFF
(1547755126.946877) can0 0CEFFF00#64064B7DFFFFFFFF
(1547755126.947454) can0 18EFFF00#64100101E502037D
(1547755126.956348) can0 0CF00400#F0FFA8A61CFFFFFF
(1547755126.963670) can0 0DEF0603#0101FFFFFFFFFFF5
(1547755126.964870) can0 04EF0006#641510F00000930E
(1547755126.965447) can0 0CFE4947#FFFFFFFFFFFFFFFF
(1547755126.966044) can0 0CFFFF47#5DFFFFF3FFFFFFFF
(1547755126.966622) can0 0CEFFF00#6406407DFFFFFFFF
(1547755126.967193) can0 0CF00300#FF0031FF06FFFFFF
(1547755126.967741) can0 0CFE4347#0000FFFF3FFFFFFF
(1547755126.968342) can0 18FEEE00#5642FFFFFFFFFFFF
(1547755126.968903) can0 0CFE4447#0000FFFF3FFFFFFF
(1547755126.969487) can0 0CFFFE06#5C271D271DFFFFFF
(1547755126.976258) can0 0CF00400#F0FFA4DC1CFFFFFF
(1547755126.983606) can0 0DEF0603#0101FFFFFFFFFFF5
(1547755126.984833) can0 04EF0006#641510F00000930E
(1547755126.986284) can0 0CF00300#FF002CFF06FFFFFF
(1547755126.986857) can0 0CEFFF00#6406367DFFFFFFFF
(1547755126.996406) can0 0CF00400#F0FFA0081DFFFFFF
(1547755126.997003) can0 18FEDF00#8B201CFFFFFFFFFF
(1547755127.003653) can0 0DEF0603#0101FFFFFFFFFFF5
(1547755127.004824) can0 04EF0006#641510F00000930E
(1547755127.005402) can0 18FEF147#FF0000FFFFFFFFFF
(1547755127.006024) can0 18FFFB06#0005B9F8FFFFFFFF
(1547755127.006572) can0 0CEFFF00#64062A7DFFFFFFFF
(1547755127.007173) can0 0CF00300#FF0024FF06FFFFFF
(1547755127.007748) can0 18F00503#7DFFFFFFFFFFFFFF
(1547755127.008291) can0 18FEF200#2100FFFFFFFFFFFF
(1547755127.016238) can0 0CF00400#F0FF9B341DFFFFFF
(1547755127.023606) can0 0DEF0603#0101FFFFFFFFFFF5
(1547755127.024782) can0 04EF0006#641510F00000930E
(1547755127.026239) can0 0CF00300#FF001EFF06FFFFFF
(1547755127.026814) can0 0CEFFF00#64061C7DFFFFFFFF
(1547755127.027388) can0 18EF0600#640EE900FFFFFFFF
(1547755127.036461) can0 0CF00400#F0FF96461DFFFFFF
(1547755127.043311) can0 0DEF0647#0104FFFFFFFFFFF1
(1547755127.043906) can0 0DEF0603#0101FFFFFFFFFFF5
(1547755127.044955) can0 04EF0006#641510F00000930E
(1547755127.045532) can0 18FFFF06#73FFFFFFFFFFFFFF
(1547755127.046280) can0 0CF00300#FF001BFF07FFFFFF
(1547755127.046854) can0 0CEFFF00#6406137DFFFFFFFF
(1547755127.047402) can0 18EEFF47#4D74300400340220
(1547755127.047975) can0 18EEFF17#0C6E240400130220
(1547755127.048530) can0 18EEFF06#4D743004000E0020
(1547755127.049071) can0 18EFFF00#64100101F202057D
(1547755127.049628) can0 18EEFF03#4D74300400030220
(1547755127.050211) can0 18FEF700#FFFFFFFFFFFFEE00
(1547755127.056250) can0 0CF00400#F0FF934C1DFFFFFF
(1547755127.063583) can0 0DEF0603#0101FFFFFFFFFFF5
(1547755127.064819) can0 04EF0006#641510F00000A90E
(1547755127.066220) can0 0CF00300#FF0000FF06FFFFFF
(1547755127.066794) can0 0CEFFF00#64060E7DFFFFFFFF
(1547755127.076214) can0 0CF00400#FEFF91441DFFFFFF
(1547755127.083612) can0 0DEF0603#0101FFFFFFFFFFF5
(1547755127.084808) can0 04EF0006#641510F00000930E
(1547755127.085387) can0 0CFE4947#FFFFFFFFFFFFFFFF
(1547755127.085958) can0 1CFDDF47#FCFFFFFFFFFFFFFF
(1547755127.086533) can0 0CEFFF00#6406F67CFFFFFFFF
(1547755127.087136) can0 0CF00300#FF0013FF06FFFFFF
(1547755127.087707) can0 0CFE4347#0000FFFF3FFFFFFF
(1547755127.088307) can0 0CFE4447#0000FFFF3FFFFFFF
(1547755127.088850) can0 0CFFFE06#5C271D271DFFFFFF
(1547755127.096148) can0 0CF00400#FEFF87241DFFFFFF
(1547755127.103567) can0 0DEF0603#0101FFFFFFFFFFF5
(1547755127.104744) can0 04EF0006#641510F00000930E
(1547755127.106226) can0 0CF00300#FF001BFF07FFFFFF
(1547755127.106797) can0 0CEFFF00#6406F57CFFFFFFFF
(1547755127.107374) can0 18FEF200#0800FFFFFFFFFFFF
(1547755127.116296) can0 0CF00400#FEFF87C21CFFFFFF
(1547755127.123592) can0 0DEF0603#0101FFFFFFFFFFF5
(1547755127.124765) can0 04EF0006#641510F00000A90E
(1547755127.125347) can0 0CFFFE06#5C531D531DFFFFFF
(1547755127.125913) can0 18FEF147#FF0000FFFFFFFFFF
(1547755127.126488) can0 0CEFFF00#64061B7DFFFFFFFF
(1547755127.127063) can0 0CF00300#FF0022FF07FFFFFF
(1547755127.127637) can0 18EF0600#640EF300FFFFFFFF
(1547755127.128212) can0 18F00647#FFCFFFFFFFFFFFFF
(1547755127.128779) can0 18FFFB06#00057DF8FFFFFFFF
(1547755127.129357) can0 18F00503#7DFFFFFFFFFFFFFF
(1547755127.136178) can0 0CF00400#FEFF96701CFFFFFF
(1547755127.143226) can0 0DEF0647#0104FFFFFFFFFFF1
(1547755127.143861) can0 0DEF0603#0101FFFFFFFFFFF5
(1547755127.144906) can0 04EF0006#641510F00000A90E
(1547755127.146205) can0 0CF00300#FF0029FF07FFFFFF
(1547755127.146778) can0 0CEFFF00#6406397DFFFFFFFF
(1547755127.147355) can0 18EFFF00#64100101E502057D
(1547755127.147929) can0 18FED500#FFFFFDFFFFFFFFFF
(1547755127.156224) can0 0CF00400#F0FFA13E1CFFFFFF
(1547755127.163572) can0 0DEF0603#0101FFFFFFFFFFF5
(1547755127.164771) can0 04EF0006#641510F00000A90E
(1547755127.165348) can0 0CFE4947#FFFFFFFFFFFFFFFF
(1547755127.165944) can0 0CFE4347#0000FFFF3FFFFFFF
(1547755127.166518) can0 0CF00300#FF0032FF07FFFFFF
(1547755127.167096) can0 0CEFFF00#64063A7DFFFFFFFF
(1547755127.167667) can0 0CFE4447#0000FFFF3FFFFFFF
(1547755127.176191) can0 0CF00400#F0FFA2101CFFFFFF
(1547755127.183563) can0 0DEF0603#0101FFFFFFFFFFF5
(1547755127.184785) can0 04EF0006#641510F00000A90E
(1547755127.186161) can0 0CF00300#FF0033FF06FFFFFF
(1547755127.186734) can0 0CEFFF00#6406417DFFFFFFFF
(1547755127.187334) can0 18FDB300#FFFF042AFFFFFFFF
(1547755127.196178) can0 0CF00400#F0FFA41E1CFFFFFF
(1547755127.203579) can0 0DEF0603#0101FFFFFFFFFFF5
(1547755127.204800) can0 04EF0006#641511F00419930E
(1547755127.205329) can0 0CFFFE06#5C271D271DFFFFFF
(1547755127.205947) can0 18FEF147#FF0000FFFFFFFFFF
(1547755127.206525) can0 0CEFFF00#64063E7DFFFFFFFF
(1547755127.207100) can0 0CF00300#FF0030FF06FFFFFF
(1547755127.207672) can0 18F00503#7DFFFFFFFFFFFFFF
(1547755127.208247) can0 18FEF200#2900FFFFFFFFFFFF
(1547755127.216213) can0 0CF00400#F0FFA34E1CFFFFFF
(1547755127.223506) can0 0DEF0603#0101FFFFFFFFFFF5
(1547755127.224708) can0 04EF0006#641512F00B19930E
(1547755127.226163) can0 0CF00300#FF0026FF06FFFFFF
(1547755127.226736) can0 0CEFFF00#6406367DFFFFFFFF
(1547755127.227313) can0 18EF0600#640EFD00FFFFFFFF
(1547755127.233063) can0 18EA4717#09FF00
(1547755127.233458) can0 18EA0617#09FF00
(1547755127.233855) can0 18EA0317#09FF00
(1547755127.236184) can0 0CF00400#F0FFA06C1CFFFFFF
(1547755127.243184) can0 0DEF0647#0104FFFFFFFFFFF1
(1547755127.243803) can0 0DEF0603#0101FFFFFFFFFFF5
(1547755127.244855) can0 04EF0006#641513F0C118930E
(1547755127.245430) can0 18FF0947#434355FFFFFFFFFF
(1547755127.246005) can0 18FF0906#454943FFFFFFFFFF
(1547755127.246602) can0 0CEFFF00#6406327DFFFFFFFF
(1547755127.247178) can0 0CF00300#FF0024FF06FFFFFF
(1547755127.247725) can0 18EFFF00#64100101E402037D
(1547755127.248296) can0 18FEDF00#8B201CFFFFFFFFFF
(1547755127.248858) can0 18FF0903#505452FFFFFFFFFF
(1547755127.249472) can0 18FFFB06#0005B8F8FFFFFFFF
(1547755127.250106) can0 18FECA06#00FF00000000FFFF
(1547755127.250701) can0 18FECA47#00FF00000000FFFF
(1547755127.251303) can0 18FECA03#00FF00000000FFFF
(1547755127.256375) can0 0CF00400#F0FF9E881CFFFFFF
(1547755127.263521) can0 0DEF0603#0101FFFFFFFFFFF5
(1547755127.264719) can0 04EF0006#641514F03019930E
(1547755127.266075) can0 0CF00300#FF0023FF06FFFFFF
(1547755127.266692) can0 0CEFFF00#64062D7DFFFFFFFF
(1547755127.267270) can0 18FEEF00#FFFFFF64FFFFFFFA
(1547755127.276144) can0 0CF00400#F0FF9DA61CFFFFFF
(1547755127.283513) can0 0DEF0603#0101FFFFFFFFFFF5
(1547755127.284709) can0 04EF0006#641515F03419930E
(1547755127.285285) can0 0CFE4947#FFFFFFFFFFFFFFFF
(1547755127.285884) can0 0CFE4347#0000FFFF3FFFFFFF
(1547755127.286459) can0 0CEFFF00#6406297DFFFFFFFF
(1547755127.287035) can0 0CF00300#FF0021FF06FFFFFF
(1547755127.287609) can0 0CFE4447#0000FFFF3FFFFFFF
(1547755127.296207) can0 0CF00400#F0FF9BB61CFFFFFF
(1547755127.303502) can0 0DEF0603#0101FFFFFFFFFFF5
(1547755127.304699) can0 04EF0006#641516F03019930E
(1547755127.306179) can0 0CF00300#FF001FFF06FFFFFF
(1547755127.306746) can0 0CEFFF00#6406267DFFFFFFFF
(1547755127.307350) can0 18FEF200#1F00FFFFFFFFFFFF
(1547755127.314547) can0 18FECA17#00FF00000000FFFF
(1547755127.316118) can0 0CF00400#F0FF9AC21CFFFFFF
(1547755127.323490) can0 0DEF0603#0101FFFFFFFFFFF5
(1547755127.324690) can0 04EF0006#641517F0EB18930E
(1547755127.325240) can0 0CFFFE06#5C271D271DFFFFFF
(1547755127.325815) can0 18FEF147#FF0000FFFFFFFFFF
(1547755127.326389) can0 0CEFFF00#6406237DFFFFFFFF
(1547755127.326963) can0 0CF00300#FF001EFF06FFFFFF
(1547755127.327561) can0 18EF0600#640E0700FFFFFFFF
(1547755127.328140) can0 18F00503#7DFFFFFFFFFFFFFF
(1547755127.336225) can0 0CF00400#F0FF99D21CFFFFFF
(1547755127.343126) can0 0DEF0647#0104FFFFFFFFFFF1
(1547755127.343729) can0 0DEF0603#0101FFFFFFFFFFF5
(1547755127.344953) can0 04EF0006#641518F0E818930E
(1547755127.346079) can0 0CF00300#FF0000FF06FFFFFF
(1547755127.346655) can0 0CEFFF00#64061F7DFFFFFFFF
(1547755127.347229) can0 18EFFF00#64100101EA02057D
(1547755127.347801) can0 18FEF600#FF003BFF00FFFFFF
(1547755127.356102) can0 0CF00400#FEFF97E01CFFFFFF
(1547755127.362673) can0 18EAFF06#E5FE00
(1547755127.363670) can0 0DEF0603#0101FFFFFFFFFFF5
(1547755127.364869) can0 04EF0006#641519F0E518930E
(1547755127.365447) can0 0CFE4947#FFFFFFFFFFFFFFFF
(1547755127.366019) can0 18FFFB06#00059FF8FFFFFFFF
(1547755127.366617) can0 0CEFFF00#6406027DFFFFFFFF
(1547755127.367194) can0 0CF00300#FF0013FF07FFFFFF
(1547755127.367768) can0 0CFE4347#0000FFFF3FFFFFFF
(1547755127.368344) can0 18FEE706#CC0A0000FFFFFFFF
(1547755127.368911) can0 0CFE4447#0000FFFF3FFFFFFF
(1547755127.376158) can0 0CF00400#FEFF8CD61CFFFFFF
(1547755127.383549) can0 0DEF0603#0101FFFFFFFFFFF5
(1547755127.384743) can0 04EF0006#64151AF0E818A90E
(1547755127.386186) can0 0CF00300#FF0014FF07FFFFFF
(1547755127.386758) can0 0CEFFF00#64060A7DFFFFFFFF
(1547755127.393134) can0 1CFFFF17#22FFFF3CFFFFFFFF
(1547755127.393557) can0 18EA0017#E5FE00
(1547755127.396055) can0 0CF00400#FEFF8FCE1CFFFFFF
(1547755127.396627) can0 18FFFA00#022C0000180C0081
(1547755127.401203) can0 18FEE500#CD0A0000FFFFFFFF
(1547755127.401752) can0 18FEE500#CD0A0000FFFFFFFF
(1547755127.403625) can0 0DEF0603#0101FFFFFFFFFFF5
(1547755127.404799) can0 04EF0006#64151BF0F218A90E
(1547755127.405378) can0 0CFFFE06#5C531D531DFFFFFF
(1547755127.405948) can0 18FEF147#FF0000FFFFFFFFFF
(1547755127.406523) can0 0CEFFF00#6406207DFFFFFFFF
(1547755127.407098) can0 0CF00300#FF001BFF06FFFFFF
(1547755127.407704) can0 18F00503#7DFFFFFFFFFFFFFF
(1547755127.408242) can0 18FEF200#1C00FFFFFFFFFFFF
(1547755127.416040) can0 0CF00400#FEFF98AC1CFFFFFF
(1547755127.423560) can0 0DEF0603#0101FFFFFFFFFFF5
(1547755127.424732) can0 04EF0006#64151CF0E818930E
(1547755127.426141) can0 0CF00300#FF001FFF07FFFFFF
(1547755127.426715) can0 0CEFFF00#64061E7DFFFFFFFF
(1547755127.427288) can0 18EF0600#640E1100FFFFFFFF
(1547755127.427864) can0 18FEF500#C8FFFFFFFF39FFFF
(1547755127.436061) can0 0CF00400#FEFF97761CFFFFFF
(1547755127.443109) can0 0DEF0647#0104FFFFFFFFFFF1
(1547755127.443803) can0 0DEF0603#0101FFFFFFFFFFF5
(1547755127.445006) can0 04EF0006#64151DF0C718A90E
(1547755127.445556) can0 0CFFFE06#5C531D531DFFFFFF
(1547755127.446155) can0 0CF00300#FF001DFF07FFFFFF
(1547755127.446705) can0 0CEFFF00#6406157DFFFFFFFF
(1547755127.447278) can0 18EFFF00#64100101DF02057D
(1547755127.456076) can0 0CF00400#FEFF93621CFFFFFF
(1547755127.463575) can0 0DEF0603#0101FFFFFFFFFFF5
(1547755127.464744) can0 04EF0006#64151EF07319A90E
(1547755127.466145) can0 0CF00300#FF0020FF07FFFFFF
(1547755127.466717) can0 0CEFFF00#6406347DFFFFFFFF
(1547755127.467270) can0 18FE6900#9624F027FFFF60FE
(1547755127.476191) can0 0CF00400#FEFF9F5E1CFFFFFF
(1547755127.483539) can0 0DEF0603#0101FFFFFFFFFFF5
(1547755127.484759) can0 04EF0006#64151FF0D018A90E
(1547755127.485337) can0 0CFE4947#FFFFFFFFFFFFFFFF
(1547755127.485909) can0 18FFFB06#0005B5F8FFFFFFFF
(1547755127.486484) can0 0CEFFF00#6406257DFFFFFFFF
(1547755127.487059) can0 0CF00300#FF0020FF06FFFFFF
(1547755127.487632) can0 0CFFFF47#5DFFFFF3FFFFFFFF
(1547755127.488232) can0 0CFE4347#0000FFFF3FFFFFFF
(1547755127.488801) can0 0CFE4447#0000FFFF3FFFFFFF
(1547755127.496000) can0 0CF00400#FEFF995A1CFFFFFF
(1547755127.496577) can0 18FEDF00#8B481CFFFFFFFFFF
(1547755127.503490) can0 0DEF0603#0101FFFFFFFFFFF5
(1547755127.504727) can0 04EF0006#641510F0C618930E
(1547755127.506074) can0 0CF00300#FF0020FF07FFFFFF
(1547755127.506649) can0 0CEFFF00#6406267DFFFFFFFF
(1547755127.507223) can0 18FEF200#1F00FFFFFFFFFFFF
(1547755127.516273) can0 0CF00400#F0FF9A5C1CFFFFFF
(1547755127.523542) can0 0DEF0603#0101FFFFFFFFFFF5
(1547755127.524716) can0 04EF0006#641511F0C618A90E
(1547755127.525291) can0 0CFFFE06#5C531D531DFFFFFF
(1547755127.525864) can0 18FEF147#FF0000FFFFFFFFFF
(1547755127.526438) can0 0CEFFF00#6406277DFFFFFFFF
(1547755127.527013) can0 0CF00300#FF0021FF07FFFFFF
(1547755127.527591) can0 18EF0600#640E1B00FFFFFFFF
(1547755127.528162) can0 18FFFB06#001BFFFFFFFFFFFF
(1547755127.528756) can0 18F00503#7DFFFFFFFFFFFFFF
(1547755127.535956) can0 0CF00400#FEFF9A621CFFFFFF
(1547755127.543027) can0 0DEF0647#0104FFFFFFFFFFF1
(1547755127.543629) can0 0DEF0603#0101FFFFFFFFFFF5
(1547755127.544856) can0 04EF0006#641512F07319A90E
(1547755127.545980) can0 0CF00300#FF001EFF06FFFFFF
(1547755127.546554) can0 0CEFFF00#64061E7DFFFFFFFF
(1547755127.547128) can0 18EFFF00#64100101DF02047D
(1547755127.556026) can0 0CF00400#FEFF97661CFFFFFF
(1547755127.563524) can0 0DEF0603#0101FFFFFFFFFFF5
(1547755127.564722) can0 04EF0006#641513F07319930E
(1547755127.565271) can0 0CFE4947#FFFFFFFFFFFFFFFF
(1547755127.565871) can0 18FE6847#3DFFFFFFFFFFFFFF
(1547755127.566443) can0 0CEFFF00#6406227DFFFFFFFF
(1547755127.567020) can0 0CF00300#FF001FFF06FFFFFF
(1547755127.567592) can0 0CFE4347#0000FFFF3FFFFFFF
(1547755127.568194) can0 18FFFF06#73FFFFFFFFFFFFFF
(1547755127.568736) can0 0CFE4447#0000FFFF3FFFFFFF
(1547755127.569313) can0 0CFFFE06#5C271D271DFFFFFF
(1547755127.575935) can0 0CF00400#FEFF98621CFFFFFF
(1547755127.583450) can0 0DEF0603#0101FFFFFFFFFFF5
(1547755127.584685) can0 04EF0006#641514F07319930E
(1547755127.585985) can0 0CF00300#FF001AFF06FFFFFF
(1547755127.586559) can0 0CEFFF00#64060E7DFFFFFFFF
(1547755127.587107) can0 18FD7C00#F880F1F400CF03FD
(1547755127.596106) can0 0CF00400#FEFF916A1CFFFFFF
(1547755127.603504) can0 0DEF0603#0101FFFFFFFFFFF5
(1547755127.604699) can0 04EF0006#641515F0D018930E
(1547755127.605276) can0 0CFFFF47#5EFFFFFFFFFFFFFF
(1547755127.605849) can0 18FEF147#FF0000FFFFFFFFFF
(1547755127.606423) can0 0CEFFF00#6406187DFFFFFFFF
(1547755127.606999) can0 0CF00300#FF001AFF07FFFFFF
(1547755127.607572) can0 18FEF200#1700FFFFFFFFFFFF
(1547755127.608151) can0 18FEFC47#FFFFFFFFFFFFFFFF
(1547755127.608711) can0 18EF0047#F220610FFFFFFFFF
(1547755127.609314) can0 18F00647#FFCFFFFFFFFFFFFF
(1547755127.609907) can0 1CFDDF47#FCFFFFFFFFFFFFFF
(1547755127.610485) can0 18FFFB06#00058DF8FFFFFFFF
(1547755127.611146) can0 18F00503#7DFFFFFFFFFFFFFF
(1547755127.616023) can0 0CF00400#FEFF94701CFFFFFF
(1547755127.623492) can0 0DEF0603#0101FFFFFFFFFFF5
(1547755127.624639) can0 04EF0006#641516F0C718A90E
(1547755127.625963) can0 0CF00300#FF001CFF06FFFFFF
(1547755127.626539) can0 0CEFFF00#6406177DFFFFFFFF
(1547755127.627090) can0 18EF0600#640E2500FFFFFFFF
(1547755127.635960) can0 0CF00400#FEFF945C1CFFFFFF
(1547755127.643008) can0 0DEF0647#0104FFFFFFFFFFF1
(1547755127.643629) can0 0DEF0603#0101FFFFFFFFFFF5
(1547755127.644805) can0 04EF0006#641517F0C618930E
(1547755127.645356) can0 0CFFFE06#5C271D271DFFFFFF
(1547755127.645979) can0 0CF00300#FF0022FF06FFFFFF
(1547755127.646552) can0 0CEFFF00#6406347DFFFFFFFF
(1547755127.647104) can0 18EFFF00#64100101E102057D
(1547755127.655974) can0 0CF00400#F0FF9F461CFFFFFF
(1547755127.663472) can0 0DEF0603#0101FFFFFFFFFFF5
(1547755127.664669) can0 04EF0006#641518F07319930E
(1547755127.665946) can0 0CF00300#FF0021FF06FFFFFF
(1547755127.666518) can0 0CEFFF00#6406277DFFFFFFFF
(1547755127.675942) can0 0CF00400#F0FF9A4C1CFFFFFF
(1547755127.683465) can0 0DEF0603#0101FFFFFFFFFFF5
(1547755127.684635) can0 04EF0006#641519F00B19930E
(1547755127.685209) can0 0CFE4947#FFFFFFFFFFFFFFFF
(1547755127.685810) can0 0CFE4347#0000FFFF3FFFFFFF
(1547755127.686410) can0 0CEFFF00#6406267DFFFFFFFF
(1547755127.686984) can0 0CF00300#FF0020FF07FFFFFF
(1547755127.687559) can0 0CFE4447#0000FFFF3FFFFFFF
(1547755127.688133) can0 18FDB300#FFFF102AFFFFFFFF
(1547755127.688680) can0 1CEFFF00#64070000FFFFFFFF
(1547755127.695975) can0 0CF00400#F0FF9A581CFFFFFF
(1547755127.703391) can0 0DEF0603#0101FFFFFFFFFFF5
(1547755127.704593) can0 04EF0006#64151AF0C618A90E
(1547755127.705949) can0 0CF00300#FF001FFF06FFFFFF
(1547755127.706547) can0 0CEFFF00#6406247DFFFFFFFF
(1547755127.707125) can0 18FEF200#1E00FFFFFFFFFFFF
(1547755127.715922) can0 0CF00400#FEFF99641CFFFFFF
(1547755127.723443) can0 0DEF0603#0101FFFFFFFFFFF5
(1547755127.724614) can0 04EF0006#64151BF07319930E
(1547755127.725192) can0 0CFFFE06#5C271D271DFFFFFF
(1547755127.725767) can0 18FEF147#FF0000FFFFFFFFFF
(1547755127.726338) can0 0CEFFF00#64061D7DFFFFFFFF
(1547755127.726915) can0 0CF00300#FF001DFF06FFFFFF
(1547755127.727489) can0 18EF0600#640E2F00FFFFFFFF
(1547755127.728063) can0 18FFFB06#0005A4F8FFFFFFFF
(1547755127.728630) can0 18F00503#7DFFFFFFFFFFFFFF
(1547755127.736126) can0 0CF00400#FEFF966E1CFFFFFF
(1547755127.742940) can0 0DEF0647#0104FFFFFFFFFFF1
(1547755127.743518) can0 0DEF0603#0101FFFFFFFFFFF5
(1547755127.744754) can0 04EF0006#64151CF0D018930E
(1547755127.745931) can0 0CF00300#FF0018FF07FFFFFF
(1547755127.746503) can0 0CEFFF00#6406087DFFFFFFFF
(1547755127.747078) can0 18EFFF00#64100101DD02047D
(1547755127.747652) can0 18FEDF00#8B461CFFFFFFFFFF
(1547755127.755902) can0 0CF00400#FEFF8E6E1CFFFFFF
(1547755127.763420) can0 0DEF0603#0101FFFFFFFFFFF5
(1547755127.764622) can0 04EF0006#64151DF0C118A90E
(1547755127.765197) can0 0CFE4947#FFFFFFFFFFFFFFFF
(1547755127.765798) can0 0CFE4347#0000FFFF3FFFFFFF
(1547755127.766368) can0 0CEFFF00#6406197DFFFFFFFF
(1547755127.766943) can0 0CF00300#FF001CFF06FFFFFF
(1547755127.767518) can0 0CFE4447#0000FFFF3FFFFFFF
(1547755127.768096) can0 18FEEF00#FFFFFF62FFFFFFFA
(1547755127.768638) can0 0CFFFE06#5C531D531DFFFFFF
(1547755127.775934) can0 0CF00400#FEFF955C1CFFFFFF
(1547755127.783380) can0 0DEF0603#0101FFFFFFFFFFF5
(1547755127.784543) can0 04EF0006#64151EF0C618930E
(1547755127.785985) can0 0CF00300#FF0021FF06FFFFFF
(1547755127.786558) can0 0CEFFF00#6406327DFFFFFFFF
(1547755127.795882) can0 0CF00400#F0FF9E501CFFFFFF
(1547755127.803402) can0 0DEF0603#0101FFFFFFFFFFF5
(1547755127.804574) can0 04EF0006#64151FF0C918930E
(1547755127.805151) can0 0CFFFE06#5C271D271DFFFFFF
(1547755127.805725) can0 18FEF147#FF0000FFFFFFFFFF
(1547755127.806298) can0 0CEFFF00#6406237DFFFFFFFF
(1547755127.806876) can0 0CF00300#FF001FFF06FFFFFF
(1547755127.807449) can0 18F00503#7DFFFFFFFFFFFFFF
(1547755127.808024) can0 18FEF200#1E00FFFFFFFFFFFF
(1547755127.815961) can0 0CF00400#F0FF995A1CFFFFFF
(1547755127.823362) can0 0DEF0603#0101FFFFFFFFFFF5
(1547755127.824549) can0 04EF0006#641510F0C618930E
(1547755127.825990) can0 0CF00300#FF0015FF06FFFFFF
(1547755127.826563) can0 0CEFFF00#6406217DFFFFFFFF
(1547755127.827166) can0 18EF0600#640E3900FFFFFFFF
(1547755127.835886) can0 0CF00400#FEFF985C1CFFFFFF
(1547755127.842905) can0 0DEF0647#0104FFFFFFFFFFF1
(1547755127.843531) can0 0DEF0603#0101FFFFFFFFFFF5
(1547755127.844704) can0 04EF0006#641511F0C618930E
(1547755127.845277) can0 18FFFB06#0005A1F8FFFFFFFF
(1547755127.845881) can0 0CF00300#FF001AFF06FFFFFF
(1547755127.846455) can0 0CEFFF00#6406197DFFFFFFFF
(1547755127.847028) can0 18EFFF00#64100101DB02057D
(1547755127.847602) can0 18FEF600#FF003BFF00FFFFFF
(1547755127.855819) can0 0CF00400#FEFF95641CFFFFFF
(1547755127.863340) can0 0DEF0603#0101FFFFFFFFFFF5
(1547755127.864520) can0 0C000006#30FFFFFFF8FFFFFF
(1547755127.865070) can0 04EF0006#641512F07319930E
(1547755127.865820) can0 18EFFA00#6401FF0000FFFFFF
(1547755127.866396) can0 0CEFFF00#6406187DFFFFFFFF
(1547755127.866970) can0 0CF00300#FF001AFF07FFFFFF
(1547755127.875814) can0 0CF00400#FEFF94661CFFFFFF
(1547755127.883361) can0 0DEF0603#0101FFFFFFFFFFF5
(1547755127.884561) can0 04EF0006#641513F07319A90E
(1547755127.885135) can0 0CFE4947#FFFFFFFFFFFFFFFF
(1547755127.885738) can0 0CFE4347#0000FFFF3FFFFFFF
(1547755127.886310) can0 0CEFFF00#6406187DFFFFFFFF
(1547755127.886884) can0 0CF00300#FF001BFF06FFFFFF
(1547755127.887457) can0 0CFE4447#0000FFFF3FFFFFFF
(1547755127.888035) can0 0CFFFE06#5C531D531DFFFFFF
(1547755127.895825) can0 0CF00400#FEFF94501CFFFFFF
(1547755127.903303) can0 0DEF0603#0101FFFFFFFFFFF5
(1547755127.904493) can0 04EF0006#641514F0D018930E
(1547755127.905875) can0 0CF00300#FF0023FF07FFFFFF
(1547755127.906448) can0 0CEFFF00#6406377DFFFFFFFF
(1547755127.907024) can0 18FEF200#2600FFFFFFFFFFFF
(1547755127.915922) can0 0CF00400#F0FFA0361CFFFFFF
(1547755127.923345) can0 0DEF0603#0101FFFFFFFFFFF5
(1547755127.924542) can0 04EF0006#641515F00719A90E
(1547755127.925089) can0 0CFFFE06#5C531D531DFFFFFF
(1547755127.925666) can0 18FEF147#FF0000FFFFFFFFFF
(1547755127.926240) can0 0CEFFF00#6406247DFFFFFFFF
(1547755127.926758) can0 0CF00300#FF0020FF06FFFFFF
(1547755127.927387) can0 18EF0600#640E4300FFFFFFFF
(1547755127.927963) can0 18F00503#7DFFFFFFFFFFFFFF
(1547755127.935803) can0 0CF00400#FEFF992A1CFFFFFF
(1547755127.942852) can0 0DEF0647#0104FFFFFFFFFFF1
(1547755127.943522) can0 0DEF0603#0101FFFFFFFFFFF5
(1547755127.944756) can0 04EF0006#641516F01119930E
(1547755127.945831) can0 0CF00300#FF0022FF06FFFFFF
(1547755127.946382) can0 0CEFFF00#6406337DFFFFFFFF
(1547755127.946953) can0 18EFFF00#64100101DB02057D
(1547755127.955899) can0 0CF00400#F0FF9F2A1CFFFFFF
(1547755127.963325) can0 0DEF0603#0101FFFFFFFFFFF5
(1547755127.964522) can0 04EF0006#641517F01119930E
(1547755127.965095) can0 0CFE4947#FFFFFFFFFFFFFFFF
(1547755127.965670) can0 18FFFB06#0005B5F8FFFFFFFF
(1547755127.966244) can0 0CEFFF00#6406267DFFFFFFFF
(1547755127.966820) can0 0CF00300#FF0020FF07FFFFFF
(1547755127.967417) can0 0CFFFF47#5DFFFFF3FFFFFFFF
(1547755127.967997) can0 18FEEE00#5642FFFFFFFFFFFF
(1547755127.968539) can0 0CFE4347#0000FFFF3FFFFFFF
(1547755127.969114) can0 0CFE4447#0000FFFF3FFFFFFF
(1547755127.969705) can0 0CFFFE06#5C271D271DFFFFFF
(1547755127.975750) can0 0CF00400#F0FF9A281CFFFFFF
(1547755127.983286) can0 0DEF0603#0101FFFFFFFFFFF5
(1547755127.984433) can0 04EF0006#641518F01119A90E
(1547755127.985809) can0 0CF00300#FF0020FF06FFFFFF
(1547755127.986381) can0 0CEFFF00#6406267DFFFFFFFF
(1547755127.995854) can0 0CF00400#FEFF9A341CFFFFFF
(1547755127.996427) can0 18FEDF00#8B401CFFFFFFFFFF
(1547755128.003275) can0 0DEF0603#0101FFFFFFFFFFF5
(1547755128.004462) can0 04EF0006#641519F00719930E
(1547755128.005024) can0 0CFFFE06#5C271D271DFFFFFF
(1547755128.005587) can0 18FEF147#FF0000FFFFFFFFFF
(1547755128.006196) can0 0CEFFF00#64062C7DFFFFFFFF
(1547755128.006773) can0 0CF00300#FF0020FF06FFFFFF
(1547755128.007346) can0 18F00503#7DFFFFFFFFFFFFFF
(1547755128.007909) can0 18FEF200#2100FFFFFFFFFFFF
(1547755128.015730) can0 0CF00400#F0FF9C401CFFFFFF
(1547755128.023252) can0 0DEF0603#0101FFFFFFFFFFF5
(1547755128.024451) can0 04EF0006#64151AF07319930E
(1547755128.025739) can0 0CF00300#FF001FFF06FFFFFF
(1547755128.026311) can0 0CEFFF00#6406237DFFFFFFFF
(1547755128.026887) can0 18EF0600#640E4D00FFFFFFFF
(1547755128.035758) can0 0CF00400#F0FF993C1CFFFFFF
(1547755128.042806) can0 0DEF0647#0104FFFFFFFFFFF1
(1547755128.043402) can0 0DEF0603#0101FFFFFFFFFFF5
(1547755128.044579) can0 04EF0006#64151BF0D018930E
(1547755128.045152) can0 18FFFF06#73FFFFFFFFFFFFFF
(1547755128.045979) can0 0CF00300#FF001FFF06FFFFFF
(1547755128.046578) can0 0CEFFF00#6406237DFFFFFFFF
(1547755128.047125) can0 18EFFF00#64100101DA02057D
(1547755128.047703) can0 18FEF700#FFFFFFFFFFFFFB00
(1547755128.055724) can0 0CF00400#F0FF99441CFFFFFF
(1547755128.063245) can0 0DEF0603#0101FFFFFFFFFFF5
(1547755128.064444) can0 04EF0006#64151CF07319930E
(1547755128.065693) can0 0CF00300#FF0018FF07FFFFFF
(1547755128.066291) can0 0CEFFF00#6406227DFFFFFFFF
(1547755128.072766) can0 1CFFFF17#22FFFF3CFFFFFFFF
(1547755128.075738) can0 0CF00400#FEFF98441CFFFFFF
(1547755128.083236) can0 0DEF0603#0101FFFFFFFFFFF5
(1547755128.084434) can0 04EF0006#64151DF07319A90E
(1547755128.085009) can0 0CFE4947#FFFFFFFFFFFFFFFF
(1547755128.085585) can0 1CFDDF47#FCFFFFFFFFFFFFFF
(1547755128.086157) can0 0CEFFF00#64061E7DFFFFFFFF
(1547755128.086733) can0 0CF00300#FF001EFF07FFFFFF
(1547755128.087331) can0 0CFE4347#0000FFFF3FFFFFFF
(1547755128.087908) can0 18FFFB06#0005A1F8FFFFFFFF
(1547755128.088467) can0 0CFE4447#0000FFFF3FFFFFFF
(1547755128.089043) can0 0CFFFE06#5C531D531DFFFFFF
(1547755128.095753) can0 0CF00400#FEFF97341CFFFFFF
(1547755128.103226) can0 0DEF0603#0101FFFFFFFFFFF5
(1547755128.104424) can0 04EF0006#64151EF00719A90E
(1547755128.105724) can0 0CF00300#FF0024FF06FFFFFF
(1547755128.106295) can0 0CEFFF00#6406397DFFFFFFFF
(1547755128.106873) can0 18FEF200#2800FFFFFFFFFFFF
(1547755128.115694) can0 0CF00400#FEFFA1281CFFFFFF
(1547755128.123215) can0 0DEF0603#0101FFFFFFFFFFF5
(1547755128.124414) can0 04EF0006#64151FF01119930E
(1547755128.124963) can0 0CFFFE06#5C271D271DFFFFFF
(1547755128.125539) can0 18FEF147#FF0000FFFFFFFFFF
(1547755128.126135) can0 0CEFFF00#64062C7DFFFFFFFF
(1547755128.126712) can0 0CF00300#FF0022FF07FFFFFF
(1547755128.127285) can0 18EF0600#640E5700FFFFFFFF
(1547755128.127863) can0 18F00647#FFCFFFFFFFFFFFFF
(1547755128.128448) can0 18F00503#7DFFFFFFFFFFFFFF
(1547755128.135829) can0 0CF00400#F0FF9C241CFFFFFF
(1547755128.142744) can0 0DEF0647#0104FFFFFFFFFFF1
(1547755128.143339) can0 0DEF0603#0101FFFFFFFFFFF5
(1547755128.144528) can0 04EF0006#641510F00B19A90E
(1547755128.145724) can0 0CF00300#FF0020FF07FFFFFF
(1547755128.146301) can0 0CEFFF00#6406267DFFFFFFFF
(1547755128.146877) can0 18EFFF00#64100101D802057D
(1547755128.147475) can0 18FED500#FFFFFDFFFFFFFFFF
(1547755128.155699) can0 0CF00400#FEFF9A1E1CFFFFFF
(1547755128.163220) can0 0DEF0603#0101FFFFFFFFFFF5
(1547755128.164444) can0 04EF0006#641511F00419A90E
(1547755128.165020) can0 0CFE4947#FFFFFFFFFFFFFFFF
(1547755128.165619) can0 0CFE4347#0000FFFF3FFFFFFF
(1547755128.166191) can0 0CEFFF00#6406357DFFFFFFFF
(1547755128.166768) can0 0CF00300#FF0024FF06FFFFFF
(1547755128.167366) can0 0CFE4447#0000FFFF3FFFFFFF
(1547755128.167942) can0 0CFFFE06#5C531D531DFFFFFF
(1547755128.175677) can0 0CF00400#FEFF9F1A1CFFFFFF
(1547755128.183199) can0 0DEF0603#0101FFFFFFFFFFF5
(1547755128.184420) can0 04EF0006#641512F00419930E
(1547755128.185708) can0 0CF00300#FF0023FF06FFFFFF
(1547755128.186256) can0 0CEFFF00#64062D7DFFFFFFFF
(1547755128.186857) can0 18FDB300#FFFF282AFFFFFFFF
(1547755128.195680) can0 0CF00400#F0FF9C201CFFFFFF
(1547755128.203176) can0 0DEF0603#0101FFFFFFFFFFF5
(1547755128.204373) can0 04EF0006#641513F00B19930E
(1547755128.204924) can0 0CFFFE06#5C271D271DFFFFFF
(1547755128.205499) can0 18FEF147#FF0000FFFFFFFFFF
(1547755128.206071) can0 0CEFFF00#6406277DFFFFFFFF
(1547755128.206674) can0 0CF00300#FF0020FF07FFFFFF
(1547755128.207245) can0 18FEF200#1F00FFFFFFFFFFFF
(1547755128.207822) can0 18FFFB06#0005ACF8FFFFFFFF
(1547755128.208407) can0 18F00503#7DFFFFFFFFFFFFFF
(1547755128.215681) can0 0CF00400#F0FF9A2A1CFFFFFF
(1547755128.223153) can0 0DEF0603#0101FFFFFFFFFFF5
(1547755128.224350) can0 04EF0006#641514F01119A90E
(1547755128.225763) can0 0CF00300#FF0020FF06FFFFFF
(1547755128.226337) can0 0CEFFF00#6406267DFFFFFFFF
(1547755128.226913) can0 18EF0600#640E6100FFFFFFFF
(1547755128.235685) can0 0CF00400#FEFF9A281CFFFFFF
(1547755128.242706) can0 0DEF0647#0104FFFFFFFFFFF1
(1547755128.243303) can0 0DEF0603#0101FFFFFFFFFFF5
(1547755128.244504) can0 04EF0006#641515F01119930E
(1547755128.245052) can0 0CFFFE06#5C271D271DFFFFFF
(1547755128.245628) can0 0CF00300#FF0022FF06FFFFFF
(1547755128.246201) can0 0CEFFF00#6406317DFFFFFFFF
(1547755128.246752) can0 18EFFF00#64100101DA02057D
(1547755128.247351) can0 18FEDF00#8B321CFFFFFFFFFF
(1547755128.255611) can0 0CF00400#F0FF9E301CFFFFFF
(1547755128.263145) can0 0DEF0603#0101FFFFFFFFFFF5
(1547755128.264343) can0 04EF0006#641516F00719930E
(1547755128.265719) can0 0CF00300#FF0020FF06FFFFFF
(1547755128.266292) can0 0CEFFF00#6406257DFFFFFFFF
(1547755128.266843) can0 18FEEF00#FFFFFF62FFFFFFFA
(1547755128.275664) can0 0CF00400#F0FF99341CFFFFFF
(1547755128.283136) can0 0DEF0603#0101FFFFFFFFFFF5
(1547755128.284334) can0 04EF0006#641517F00719930E
(1547755128.284910) can0 0CFE4947#FFFFFFFFFFFFFFFF
(1547755128.285483) can0 0CFE4347#0000FFFF3FFFFFFF
(1547755128.286082) can0 0CEFFF00#6406247DFFFFFFFF
(1547755128.286658) can0 0CF00300#FF0020FF06FFFFFF
(1547755128.287205) can0 0CFE4447#0000FFFF3FFFFFFF
(1547755128.295604) can0 0CF00400#F0FF992A1CFFFFFF
(1547755128.303125) can0 0DEF0603#0101FFFFFFFFFFF5
(1547755128.304324) can0 04EF0006#641518F01119930E
(1547755128.305724) can0 0CF00300#FF0021FF06FFFFFF
(1547755128.306297) can0 0CEFFF00#6406267DFFFFFFFF
(1547755128.306899) can0 18FEF200#1E00FFFFFFFFFFFF
(1547755128.315797) can0 0CF00400#F0FF9A201CFFFFFF
(1547755128.323141) can0 0DEF0603#0101FFFFFFFFFFF5
(1547755128.324340) can0 04EF0006#641519F00B19930E
(1547755128.324917) can0 18FEF147#FF0000FFFFFFFFFF
(1547755128.325542) can0 18FFFB06#0005A7F8FFFFFFFF
(1547755128.326114) can0 0CEFFF00#6406277DFFFFFFFF
(1547755128.326663) can0 0CF00300#FF0021FF06FFFFFF
(1547755128.327239) can0 18EF0600#640E6B00FFFFFFFF
(1547755128.327815) can0 18F00503#7DFFFFFFFFFFFFFF
(1547755128.335604) can0 0CF00400#F0FF9A1C1CFFFFFF
(1547755128.342677) can0 0DEF0647#0104FFFFFFFFFFF1
(1547755128.343279) can0 0DEF0603#0101FFFFFFFFFFF5
(1547755128.344530) can0 04EF0006#64151AF00419930E
(1547755128.345631) can0 0CF00300#FF0021FF06FFFFFF
(1547755128.346203) can0 0CEFFF00#6406297DFFFFFFFF
(1547755128.346779) can0 18EFFF00#64100101D702057D
(1547755128.347353) can0 18FEF600#FF003BFF00FFFFFF
(1547755128.355804) can0 0CF00400#F0FF9B121CFFFFFF
(1547755128.363150) can0 0DEF0603#0101FFFFFFFFFFF5
(1547755128.364370) can0 04EF0006#64151BF00919930E
(1547755128.364947) can0 0CFE4947#FFFFFFFFFFFFFFFF
(1547755128.365546) can0 0CFE4347#0000FFFF3FFFFFFF
(1547755128.366120) can0 0CEFFF00#64062A7DFFFFFFFF
(1547755128.366695) can0 0CF00300#FF0022FF06FFFFFF
(1547755128.367294) can0 0CFE4447#0000FFFF3FFFFFFF
(1547755128.367847) can0 0CFFFE06#5C271D271DFFFFFF
(1547755128.375584) can0 0CF00400#F0FF9B0A1CFFFFFF
(1547755128.382178) can0 18EAFF06#E5FE00
(1547755128.383156) can0 0DEF0603#0101FFFFFFFFFFF5
(1547755128.384434) can0 04EF0006#64151CF00219930E
(1547755128.385612) can0 0CF00300#FF0022FF07FFFFFF
(1547755128.386184) can0 0CEFFF00#64062B7DFFFFFFFF
(1547755128.395682) can0 0CF00400#F0FF9B0E1CFFFFFF
(1547755128.396256) can0 18FFFA00#022C0000180C0081
(1547755128.401227) can0 18FEE500#CD0A0000FFFFFFFF
(1547755128.403156) can0 0DEF0603#0101FFFFFFFFFFF5
(1547755128.404376) can0 04EF0006#64151DF00219A90E
(1547755128.404924) can0 0CFFFE06#5C531D531DFFFFFF
(1547755128.405502) can0 18FEF147#FF0000FFFFFFFFFF
(1547755128.406076) can0 0CEFFF00#64062A7DFFFFFFFF
(1547755128.406649) can0 0CF00300#FF0022FF07FFFFFF
(1547755128.407225) can0 18FEE706#CC0A0000FFFFFFFF
(1547755128.407823) can0 18FEF200#2000FFFFFFFFFFFF
(1547755128.408392) can0 18F00503#7DFFFFFFFFFFFFFF
(1547755128.415590) can0 0CF00400#FEFF9B121CFFFFFF
(1547755128.423087) can0 0DEF0603#0101FFFFFFFFFFF5
(1547755128.424300) can0 04EF0006#64151EF00919A90E
(1547755128.425591) can0 0CF00300#FF0026FF07FFFFFF
(1547755128.426140) can0 0CEFFF00#6406397DFFFFFFFF
(1547755128.426741) can0 18EF0600#640E7500FFFFFFFF
(1547755128.427315) can0 18FEF500#C8FFFFFFFF39FFFF
(1547755128.435588) can0 0CF00400#F0FFA1061CFFFFFF
(1547755128.442658) can0 0DEF0647#0104FFFFFFFFFFF1
(1547755128.443333) can0 0DEF0603#0101FFFFFFFFFFF5
(1547755128.444555) can0 04EF0006#64151FF01319A90E
(1547755128.445153) can0 18FFFB06#0005BAF8FFFFFFFF
(1547755128.445882) can0 0CF00300#FF0027FF07FFFFFF
(1547755128.446456) can0 0CEFFF00#64062C7DFFFFFFFF
(1547755128.447029) can0 18EFFF00#64100101D602057D
(1547755128.455577) can0 0CF00400#F0FF9C021CFFFFFF
(1547755128.463096) can0 0DEF0603#0101FFFFFFFFFFF5
(1547755128.464321) can0 04EF0006#641510F01319A90E
(1547755128.465548) can0 0CF00300#FF0023FF06FFFFFF
(1547755128.466118) can0 0CEFFF00#64062D7DFFFFFFFF
(1547755128.466695) can0 18FE6900#8224F227FFFF60FE
(1547755128.475568) can0 0CF00400#FEFF9C021CFFFFFF
(1547755128.483088) can0 0DEF0603#0101FFFFFFFFFFF5
(1547755128.484313) can0 04EF0006#641511F01319930E
(1547755128.484885) can0 0CFE4947#FFFFFFFFFFFFFFFF
(1547755128.485487) can0 0CFFFF47#5DFFFFF3FFFFFFFF
(1547755128.486059) can0 0CEFFF00#64063A7DFFFFFFFF
(1547755128.486636) can0 0CF00300#FF0023FF06FFFFFF
(1547755128.487209) can0 0CFE4347#0000FFFF3FFFFFFF
(1547755128.487810) can0 0CFE4447#0000FFFF3FFFFFFF
(1547755128.488374) can0 0CFFFE06#5C271D271DFFFFFF
(1547755128.495601) can0 0CF00400#F0FFA1FA1BFFFFFF
(1547755128.496178) can0 18FEDF00#8A201CFFFFFFFFFF
(1547755128.503046) can0 0DEF0603#0101FFFFFFFFFFF5
(1547755128.504301) can0 04EF0006#641512F00C19930E
(1547755128.505601) can0 0CF00300#FF0024FF06FFFFFF
(1547755128.506175) can0 0CEFFF00#64062F7DFFFFFFFF
(1547755128.506752) can0 18FEF200#2100FFFFFFFFFFFF
(1547755128.515549) can0 0CF00400#F0FF9DFA1BFFFFFF
(1547755128.522945) can0 0DEF0603#0101FFFFFFFFFFF5
(1547755128.524164) can0 04EF0006#641513F00C19930E
(1547755128.524741) can0 18FEF147#FF0000FFFFFFFFFF
(1547755128.525370) can0 18FFFB06#001BFFFFFFFFFFFF
(1547755128.525938) can0 0CEFFF00#64062F7DFFFFFFFF
(1547755128.526513) can0 0CF00300#FF0024FF06FFFFFF
(1547755128.527087) can0 18EF0600#640E7F00FFFFFFFF
(1547755128.527663) can0 18F00503#7DFFFFFFFFFFFFFF
(1547755128.535728) can0 0CF00400#F0FF9D021CFFFFFF
(1547755128.542577) can0 0DEF0647#0104FFFFFFFFFFF1
(1547755128.543180) can0 0DEF0603#0101FFFFFFFFFFF5
(1547755128.544306) can0 04EF0006#641514F01319930E
(1547755128.545556) can0 0CF00300#FF0023FF06FFFFFF
(1547755128.546130) can0 0CEFFF00#64062E7DFFFFFFFF
(1547755128.546679) can0 18EFFF00#64100101D702057D
(1547755128.555528) can0 0CF00400#F0FF9D081CFFFFFF
(1547755128.562999) can0 0DEF0603#0101FFFFFFFFFFF5
(1547755128.564222) can0 04EF0006#641515F00219930E
(1547755128.564796) can0 0CFE4947#FFFFFFFFFFFFFFFF
(1547755128.565396) can0 18FE6847#3DFFFFFFFFFFFFFF
(1547755128.565968) can0 0CEFFF00#64062D7DFFFFFFFF
(1547755128.566544) can0 0CF00300#FF0024FF07FFFFFF
(1547755128.567120) can0 0CFE4347#0000FFFF3FFFFFFF
(1547755128.567695) can0 18FFFF06#73FFFFFFFFFFFFFF
(1547755128.568261) can0 0CFE4447#0000FFFF3FFFFFFF
(1547755128.568834) can0 18FFFB06#0005B2F8FFFFFFFF
(1547755128.575536) can0 0CF00400#F0FF9C021CFFFFFF
(1547755128.582952) can0 0DEF0603#0101FFFFFFFFFFF5
(1547755128.584211) can0 04EF0006#641516F01319A90E
(1547755128.585563) can0 0CF00300#FF0024FF07FFFFFF
(1547755128.586160) can0 0CEFFF00#64062E7DFFFFFFFF
(1547755128.586711) can0 18FD7C00#F880F1F000CF03FD
(1547755128.595535) can0 0CF00400#FEFF9D041CFFFFFF
(1547755128.602980) can0 0DEF0603#0101FFFFFFFFFFF5
(1547755128.604199) can0 04EF0006#641517F01319A90E
(1547755128.604802) can0 0CFFFF47#5EFFFFFFFFFFFFFF
(1547755128.605376) can0 18FEF147#FF0000FFFFFFFFFF
(1547755128.605950) can0 0CEFFF00#64063B7DFFFFFFFF
(1547755128.606528) can0 0CF00300#FF0024FF07FFFFFF
(1547755128.607099) can0 0CFFFE06#5C531D531DFFFFFF
(1547755128.607676) can0 18FEF200#2800FFFFFFFFFFFF
(1547755128.608219) can0 18FEFC47#FFFFFFFFFFFFFFFF
(1547755128.608782) can0 18EF0047#F220610FFFFFFFFF
(1547755128.609394) can0 18F00647#FFCFFFFFFFFFFFFF
(1547755128.609997) can0 1CFDDF47#FCFFFFFFFFFFFFFF
(1547755128.610591) can0 18F00503#80FFFFFFFFFFFFFF
(1547755128.615593) can0 0CF00400#F0FFA2021CFFFFFF
(1547755128.622966) can0 0DEF0603#0101FFFFFFFFFFF5
(1547755128.624188) can0 04EF0006#641518F01319A90E
(1547755128.625665) can0 0CF00300#FF0024FF06FFFFFF
(1547755128.626238) can0 0CEFFF00#64062F7DFFFFFFFF
(1547755128.626814) can0 18EF0600#640E8900FFFFFFFF
(1547755128.635512) can0 0CF00400#F0FF9DF41BFFFFFF
(1547755128.642560) can0 0DEF0647#0104FFFFFFFFFFF1
(1547755128.643155) can0 0DEF0603#0101FFFFFFFFFFF5
(1547755128.644330) can0 04EF0006#641519F00F19930E
(1547755128.644881) can0 0CFFFE06#5C271D271DFFFFFF
(1547755128.645482) can0 0CF00300#FF0025FF06FFFFFF
(1547755128.646053) can0 0CEFFF00#6406317DFFFFFFFF
(1547755128.646630) can0 18EFFF00#64100101D502057D
(1547755128.655504) can0 0CF00400#F0FF9EFA1BFFFFFF
(1547755128.662947) can0 0DEF0603#0101FFFFFFFFFFF5
(1547755128.664171) can0 04EF0006#64151AF00C19930E
(1547755128.665495) can0 0CF00300#FF0024FF07FFFFFF
(1547755128.666068) can0 0CEFFF00#6406317DFFFFFFFF
(1547755128.675517) can0 0CF00400#F0FF9E041CFFFFFF
(1547755128.682936) can0 0DEF0603#0101FFFFFFFFFFF5
(1547755128.684187) can0 04EF0006#64151BF01319A90E
(1547755128.684760) can0 0CFE4947#FFFFFFFFFFFFFFFF
(1547755128.685337) can0 18FFFB06#0005B4F8FFFFFFFF
(1547755128.685909) can0 0CEFFF00#6406307DFFFFFFFF
(1547755128.686485) can0 0CF00300#FF0024FF06FFFFFF
(1547755128.687058) can0 0CFE4347#0000FFFF3FFFFFFF
(1547755128.687634) can0 18FDB300#FFFF1C2AFFFFFFFF
(1547755128.688178) can0 0CFE4447#0000FFFF3FFFFFFF
(1547755128.688764) can0 1CEFFF00#64070000FFFFFFFF
(1547755128.689328) can0 0CFFFE06#5C531D531DFFFFFF
(1547755128.695449) can0 0CF00400#F0FF9D021CFFFFFF
(1547755128.702928) can0 0DEF0603#0101FFFFFFFFFFF5
(1547755128.704175) can0 04EF0006#64151CF01319930E
(1547755128.705500) can0 0CF00300#FF0024FF06FFFFFF
(1547755128.706076) can0 0CEFFF00#6406307DFFFFFFFF
(1547755128.706651) can0 18FEF200#2300FFFFFFFFFFFF
(1547755128.715571) can0 0CF00400#F0FF9D041CFFFFFF
(1547755128.722919) can0 0DEF0603#0101FFFFFFFFFFF5
(1547755128.724165) can0 04EF0006#64151DF01319930E
(1547755128.724716) can0 0CFFFE06#5C271D271DFFFFFF
(1547755128.725293) can0 18FEF147#FF0000FFFFFFFFFF
(1547755128.725865) can0 0CEFFF00#6406307DFFFFFFFF
(1547755128.726440) can0 0CF00300#FF0024FF06FFFFFF
(1547755128.727013) can0 18EF0600#640E9300FFFFFFFF
(1547755128.727614) can0 18F00503#80FFFFFFFFFFFFFF
(1547755128.732432) can0 1CFFFF17#22FFFF3CFFFFFFFF
(1547755128.735431) can0 0CF00400#F0FF9D061CFFFFFF
(1547755128.742477) can0 0DEF0647#0104FFFFFFFFFFF1
(1547755128.743111) can0 0DEF0603#0101FFFFFFFFFFF5
(1547755128.744282) can0 04EF0006#64151EF01319930E
(1547755128.745432) can0 0CF00300#FF0024FF07FFFFFF
(1547755128.746004) can0 0CEFFF00#6406307DFFFFFFFF
(1547755128.746579) can0 18EFFF00#64100101D802057D
(1547755128.747152) can0 18FEDF00#8A201CFFFFFFFFFF
(1547755128.755430) can0 0CF00400#F0FF9D041CFFFFFF
(1547755128.762898) can0 0DEF0603#0101FFFFFFFFFFF5
(1547755128.764145) can0 04EF0006#64151FF01319A90E
(1547755128.764721) can0 0CFE4947#FFFFFFFFFFFFFFFF
(1547755128.765321) can0 0CFE4347#0000FFFF3FFFFFFF
(1547755128.765894) can0 0CEFFF00#6406307DFFFFFFFF
(1547755128.766469) can0 0CF00300#FF0025FF07FFFFFF
(1547755128.767043) can0 0CFE4447#0000FFFF3FFFFFFF
(1547755128.767619) can0 18FEEF00#FFFFFF63FFFFFFFA
(1547755128.768162) can0 0CFFFE06#5C531D531DFFFFFF
(1547755128.775410) can0 0CF00400#F0FF9DFC1BFFFFFF
(1547755128.782853) can0 0DEF0603#0101FFFFFFFFFFF5
(1547755128.784069) can0 04EF0006#641510F00C19A90E
(1547755128.785437) can0 0CF00300#FF0025FF06FFFFFF
(1547755128.786009) can0 0CEFFF00#6406327DFFFFFFFF
(1547755128.795458) can0 0CF00400#F0FF9E061CFFFFFF
(1547755128.802884) can0 0DEF0603#0101FFFFFFFFFFF5
(1547755128.804125) can0 04EF0006#641511F01319930E
(1547755128.804676) can0 0CFFFE06#5C271D271DFFFFFF
(1547755128.805250) can0 18FEF147#FF0000FFFFFFFFFF
(1547755128.805826) can0 0CEFFF00#6406317DFFFFFFFF
(1547755128.806398) can0 0CF00300#FF0024FF07FFFFFF
(1547755128.806998) can0 18FEF200#2300FFFFFFFFFFFF
(1547755128.807575) can0 18FFFB06#0005B4F8FFFFFFFF
(1547755128.808131) can0 18F00503#80FFFFFFFFFFFFFF
(1547755128.815390) can0 0CF00400#F0FF9E101CFFFFFF
(1547755128.822831) can0 0DEF0603#0101FFFFFFFFFFF5
(1547755128.824060) can0 04EF0006#641512F00919A90E
(1547755128.825391) can0 0CF00300#FF0024FF07FFFFFF
(1547755128.825965) can0 0CEFFF00#64062F7DFFFFFFFF
(1547755128.826540) can0 18EF0600#640E9D00FFFFFFFF
(1547755128.835420) can0 0CF00400#F0FF9D0A1CFFFFFF
(1547755128.842460) can0 0DEF0647#0104FFFFFFFFFFF1
(1547755128.843080) can0 0DEF0603#0101FFFFFFFFFFF5
(1547755128.844230) can0 04EF0006#641513F00219A90E
(1547755128.844778) can0 0CFFFE06#5C531D531DFFFFFF
(1547755128.845483) can0 0CF00300#FF0024FF06FFFFFF
(1547755128.846078) can0 0CEFFF00#6406307DFFFFFFFF
(1547755128.846631) can0 18EFFF00#64100101D802057D
(1547755128.847229) can0 18FEF600#FF003AFF00FFFFFF
(1547755128.855394) can0 0CF00400#F0FF9D101CFFFFFF
(1547755128.862842) can0 0DEF0603#0101FFFFFFFFFFF5
(1547755128.864046) can0 0C000006#30FFFFFFF8FFFFFF
(1547755128.864597) can0 04EF0006#641514F00919930E
(1547755128.865371) can0 18EFFA00#6401FF0000FFFFFF
(1547755128.865946) can0 0CEFFF00#6406307DFFFFFFFF
(1547755128.866520) can0 0CF00300#FF0024FF06FFFFFF
(1547755128.875391) can0 0CF00400#F0FF9D161CFFFFFF
(1547755128.882836) can0 0DEF0603#0101FFFFFFFFFFF5
(1547755128.884064) can0 04EF0006#641515F00919930E
(1547755128.884636) can0 0CFE4947#FFFFFFFFFFFFFFFF
(1547755128.885235) can0 0CFE4347#0000FFFF3FFFFFFF
(1547755128.885810) can0 0CEFFF00#64062F7DFFFFFFFF
(1547755128.886387) can0 0CF00300#FF0024FF06FFFFFF
(1547755128.886983) can0 0CFE4447#0000FFFF3FFFFFFF
(1547755128.887560) can0 0CFFFE06#5C271D271DFFFFFF
(1547755128.895475) can0 0CF00400#F0FF9D121CFFFFFF
(1547755128.902791) can0 0DEF0603#0101FFFFFFFFFFF5
(1547755128.904008) can0 04EF0006#641516F00919930E
(1547755128.905402) can0 0CF00300#FF0024FF06FFFFFF
(1547755128.905977) can0 0CEFFF00#6406307DFFFFFFFF
(1547755128.906552) can0 18FEF200#2300FFFFFFFFFFFF
(1547755128.915345) can0 0CF00400#F0FF9D161CFFFFFF
(1547755128.922845) can0 0DEF0603#0101FFFFFFFFFFF5
(1547755128.924065) can0 04EF0006#641517F00919930E
(1547755128.924615) can0 18FEF147#FF0000FFFFFFFFFF
(1547755128.925247) can0 18FFFB06#0005B2F8FFFFFFFF
(1547755128.925813) can0 0CEFFF00#64062F7DFFFFFFFF
(1547755128.926389) can0 0CF00300#FF0024FF06FFFFFF
(1547755128.926964) can0 18EF0600#640EA700FFFFFFFF
(1547755128.927540) can0 18F00503#80FFFFFFFFFFFFFF
(1547755128.935604) can0 0CF00400#F0FF9D241CFFFFFF
(1547755128.942376) can0 0DEF0647#0104FFFFFFFFFFF1
(1547755128.943005) can0 0DEF0603#0101FFFFFFFFFFF5
(1547755128.944230) can0 04EF0006#641518F00B19930E
(1547755128.945358) can0 0CF00300#FF0023FF06FFFFFF
(1547755128.945929) can0 0CEFFF00#64062D7DFFFFFFFF
(1547755128.946504) can0 18EFFF00#64100101DA02057D
(1547755128.955327) can0 0CF00400#F0FF9D2A1CFFFFFF
(1547755128.962801) can0 0DEF0603#0101FFFFFFFFFFF5
(1547755128.963995) can0 04EF0006#641519F01119930E
(1547755128.964573) can0 0CFE4947#FFFFFFFFFFFFFFFF
(1547755128.965147) can0 0CFFFF47#5DFFFFF3FFFFFFFF
(1547755128.965748) can0 0CEFFF00#64062C7DFFFFFFFF
(1547755128.966321) can0 0CF00300#FF0023FF06FFFFFF
(1547755128.966892) can0 0CFE4347#0000FFFF3FFFFFFF
(1547755128.967470) can0 18FEEE00#5642FFFFFFFFFFFF
(1547755128.968039) can0 0CFE4447#0000FFFF3FFFFFFF
(1547755128.975382) can0 0CF00400#F0FF9C261CFFFFFF
(1547755128.982740) can0 0DEF0603#0101FFFFFFFFFFF5
(1547755128.983944) can0 04EF0006#64151AF00B19930E
(1547755128.985411) can0 0CF00300#FF0023FF06FFFFFF
(1547755128.985985) can0 0CEFFF00#64062C7DFFFFFFFF
(1547755128.995357) can0 0CF00400#F0FF9C281CFFFFFF
(1547755128.995931) can0 18FEDF00#8B201CFFFFFFFFFF
(1547755129.002781) can0 0DEF0603#0101FFFFFFFFFFF5
(1547755129.003975) can0 04EF0006#64151BF01119930E
(1547755129.004525) can0 0CFFFE06#5C271D271DFFFFFF
(1547755129.005125) can0 18FEF147#FF0000FFFFFFFFFF
(1547755129.005677) can0 0CEFFF00#64062C7DFFFFFFFF
(1547755129.006277) can0 0CF00300#FF0023FF07FFFFFF
(1547755129.006849) can0 18F00503#80FFFFFFFFFFFFFF
(1547755129.007396) can0 18FEF200#2100FFFFFFFFFFFF
(1547755129.015389) can0 0CF00400#F0FF9C281CFFFFFF
(1547755129.022731) can0 0DEF0603#0101FFFFFFFFFFF5
(1547755129.023935) can0 04EF0006#64151CF01119A90E
(1547755129.025513) can0 0CF00300#FF0023FF07FFFFFF
(1547755129.026116) can0 0CEFFF00#64062C7DFFFFFFFF
(1547755129.026688) can0 18EF0600#640EB100FFFFFFFF
(1547755129.035340) can0 0CF00400#FEFF9C1E1CFFFFFF
(1547755129.042361) can0 0DEF0647#0104FFFFFFFFFFF1
(1547755129.042980) can0 0DEF0603#0101FFFFFFFFFFF5
(1547755129.044131) can0 04EF0006#64151DF00419A90E
(1547755129.044705) can0 0CFFFE06#5C531D531DFFFFFF
(1547755129.045282) can0 18FFFF06#73FFFFFFFFFFFFFF
(1547755129.045856) can0 0CEFFF00#6406347DFFFFFFFF
(1547755129.046429) can0 0CF00300#FF0024FF06FFFFFF
(1547755129.047005) can0 18EFFF00#64100101DB02057D
(1547755129.047548) can0 18FEF700#FFFFFFFFFFFF1801
(1547755129.048124) can0 18FFFB06#0005ACF8FFFFFFFF
(1547755129.055271) can0 0CF00400#FEFF9F241CFFFFFF
(1547755129.062713) can0 0DEF0603#0101FFFFFFFFFFF5
(1547755129.063947) can0 04EF0006#64151EF00B19930E
(1547755129.065295) can0 0CF00300#FF0022FF07FFFFFF
(1547755129.065894) can0 0CEFFF00#64062C7DFFFFFFFF
(1547755129.075345) can0 0CF00400#F0FF9C301CFFFFFF
(1547755129.082741) can0 0DEF0603#0101FFFFFFFFFFF5
(1547755129.083936) can0 04EF0006#64151FF00719A90E
(1547755129.084512) can0 0CFE4947#FFFFFFFFFFFFFFFF
(1547755129.085086) can0 1CFDDF47#FCFFFFFFFFFFFFFF
(1547755129.085662) can0 0CEFFF00#64062B7DFFFFFFFF
(1547755129.086190) can0 0CF00300#FF0022FF06FFFFFF
(1547755129.086811) can0 0CFE4347#0000FFFF3FFFFFFF
(1547755129.087412) can0 0CFE4447#0000FFFF3FFFFFFF
(1547755129.087979) can0 0CFFFE06#5C531D531DFFFFFF
(1547755129.095251) can0 0CF00400#FEFF9C2E1CFFFFFF
(1547755129.102692) can0 0DEF0603#0101FFFFFFFFFFF5
(1547755129.103894) can0 04EF0006#641510F01119930E
(1547755129.105432) can0 0CF00300#FF0024FF06FFFFFF
(1547755129.105998) can0 0CEFFF00#64062D7DFFFFFFFF
(1547755129.106575) can0 18FEF200#2100FFFFFFFFFFFF
(1547755129.115501) can0 0CF00400#F0FF9D281CFFFFFF
(1547755129.122718) can0 0DEF0603#0101FFFFFFFFFFF5
(1547755129.123915) can0 04EF0006#641511F01119930E
(1547755129.124467) can0 0CFFFE06#5C271D271DFFFFFF
(1547755129.125065) can0 18FEF147#FF0000FFFFFFFFFF
(1547755129.125641) can0 0CEFFF00#64062C7DFFFFFFFF
(1547755129.126214) can0 0CF00300#FF0023FF06FFFFFF
(1547755129.126804) can0 18EF0600#640EBB00FFFFFFFF
(1547755129.127365) can0 18F00647#FFCFFFFFFFFFFFFF
(1547755129.127930) can0 18F00503#80FFFFFFFFFFFFFF
(1547755129.135230) can0 0CF00400#F0FF9C2A1CFFFFFF
(1547755129.142276) can0 0DEF0647#0104FFFFFFFFFFF1
(1547755129.142880) can0 0DEF0603#0101FFFFFFFFFFF5
(1547755129.144055) can0 04EF0006#641512F01119930E
(1547755129.145230) can0 0CF00300#FF0023FF06FFFFFF
(1547755129.145808) can0 0CEFFF00#64062B7DFFFFFFFF
(1547755129.146379) can0 18EFFF00#64100101DB02057D
(1547755129.146909) can0 18FED500#FFFFFDFFFFFFFFFF
(1547755129.155253) can0 0CF00400#F0FF9C261CFFFFFF
(1547755129.162699) can0 0DEF0603#0101FFFFFFFFFFF5
(1547755129.163895) can0 04EF0006#641513F00B19930E
(1547755129.164474) can0 0CFE4947#FFFFFFFFFFFFFFFF
(1547755129.165045) can0 18FFFB06#0005ACF8FFFFFFFF
(1547755129.165647) can0 0CEFFF00#64062C7DFFFFFFFF
(1547755129.166197) can0 0CF00300#FF0023FF06FFFFFF
(1547755129.166795) can0 0CFE4347#0000FFFF3FFFFFFF
(1547755129.167395) can0 0CFE4447#0000FFFF3FFFFFFF
(1547755129.175211) can0 0CF00400#F0FF9C221CFFFFFF
(1547755129.182653) can0 0DEF0603#0101FFFFFFFFFFF5
(1547755129.183854) can0 04EF0006#641514F00B19930E
(1547755129.185237) can0 0CF00300#FF0023FF07FFFFFF
(1547755129.185814) can0 0CEFFF00#64062D7DFFFFFFFF
(1547755129.186385) can0 18FDB300#FFFF282AFFFFFFFF
(1547755129.195259) can0 0CF00400#F0FF9D2C1CFFFFFF
(1547755129.202679) can0 0DEF0603#0101FFFFFFFFFFF5
(1547755129.203877) can0 04EF0006#641515F01119A90E
(1547755129.204451) can0 0CFFFE06#5C531D531DFFFFFF
(1547755129.205025) can0 18FEF147#FF0000FFFFFFFFFF
(1547755129.205604) can0 0CF00300#FF0022FF06FFFFFF
(1547755129.206175) can0 0CEFFF00#64062B7DFFFFFFFF
(1547755129.206748) can0 18F00503#80FFFFFFFFFFFFFF
(1547755129.207327) can0 18FEF200#2000FFFFFFFFFFFF
(1547755129.215217) can0 0CF00400#FEFF9C381CFFFFFF
(1547755129.222633) can0 0DEF0603#0101FFFFFFFFFFF5
(1547755129.223834) can0 04EF0006#641516F0CC18930E
(1547755129.225217) can0 0CF00300#FF0023FF06FFFFFF
(1547755129.225793) can0 0CEFFF00#6406277DFFFFFFFF
(1547755129.226367) can0 18EF0600#640EC500FFFFFFFF
(1547755129.235240) can0 0CF00400#F0FF9A301CFFFFFF
(1547755129.242259) can0 0DEF0647#0104FFFFFFFFFFF1
(1547755129.242857) can0 0DEF0603#0101FFFFFFFFFFF5
(1547755129.244007) can0 04EF0006#641517F00719930E
(1547755129.244553) can0 0CFFFE06#5C271D271DFFFFFF
(1547755129.245482) can0 0CF00300#FF0022FF06FFFFFF
(1547755129.246056) can0 0CEFFF00#64062A7DFFFFFFFF
(1547755129.246630) can0 18EFFF00#64100101DB02057D
(1547755129.247205) can0 18FEDF00#8B201CFFFFFFFFFF
(1547755129.255230) can0 0CF00400#F0FF9B301CFFFFFF
(1547755129.262648) can0 0DEF0603#0101FFFFFFFFFFF5
(1547755129.263846) can0 04EF0006#641518F00719930E
(1547755129.265198) can0 0CF00300#FF0022FF06FFFFFF
(1547755129.265774) can0 0CEFFF00#64062A7DFFFFFFFF
(1547755129.266347) can0 18FEEF00#FFFFFF64FFFFFFFA
(1547755129.275195) can0 0CF00400#F0FF9B321CFFFFFF
(1547755129.282641) can0 0DEF0603#0101FFFFFFFFFFF5
(1547755129.283836) can0 04EF0006#641519F00719930E
(1547755129.284413) can0 0CFE4947#FFFFFFFFFFFFFFFF
(1547755129.284987) can0 18FFFB06#0005A9F8FFFFFFFF
(1547755129.285559) can0 0CEFFF00#64062A7DFFFFFFFF
(1547755129.286136) can0 0CF00300#FF0022FF07FFFFFF
(1547755129.286734) can0 0CFE4347#0000FFFF3FFFFFFF
(1547755129.287309) can0 0CFE4447#0000FFFF3FFFFFFF
(1547755129.295277) can0 0CF00400#F0FF9B281CFFFFFF
(1547755129.302592) can0 0DEF0603#0101FFFFFFFFFFF5
(1547755129.303794) can0 04EF0006#64151AF01119A90E
(1547755129.305228) can0 0CF00300#FF0023FF06FFFFFF
(1547755129.305805) can0 0CEFFF00#64062B7DFFFFFFFF
(1547755129.306375) can0 18FEF200#2000FFFFFFFFFFFF
(1547755129.315172) can0 0CF00400#FEFF9C261CFFFFFF
(1547755129.322617) can0 0DEF0603#0101FFFFFFFFFFF5
(1547755129.323817) can0 04EF0006#64151BF00B19930E
(1547755129.324347) can0 0CFFFE06#5C271D271DFFFFFF
(1547755129.324966) can0 18FEF147#FF0000FFFFFFFFFF
(1547755129.325539) can0 0CEFFF00#6406317DFFFFFFFF
(1547755129.326114) can0 0CF00300#FF0022FF07FFFFFF
(1547755129.326687) can0 18EF0600#640ECF00FFFFFFFF
(1547755129.327266) can0 18F00503#80FFFFFFFFFFFFFF
(1547755129.335406) can0 0CF00400#F0FF9E2E1CFFFFFF
(1547755129.342199) can0 0DEF0647#0104FFFFFFFFFFF1
(1547755129.342801) can0 0DEF0603#0101FFFFFFFFFFF5
(1547755129.343956) can0 04EF0006#64151CF01119A90E
(1547755129.345182) can0 0CF00300#FF0022FF07FFFFFF
(1547755129.345757) can0 0CEFFF00#64062A7DFFFFFFFF
(1547755129.346331) can0 18EFFF00#64100101DB02057D
(1547755129.346903) can0 18FEF600#FF003AFF00FFFFFF
(1547755129.355153) can0 0CF00400#FEFF9B301CFFFFFF
(1547755129.362599) can0 0DEF0603#0101FFFFFFFFFFF5
(1547755129.363824) can0 04EF0006#64151DF00719A90E
(1547755129.364397) can0 0CFE4947#FFFFFFFFFFFFFFFF
(1547755129.364771) can0 18EA0006#E3FE00
(1547755129.365373) can0 0CEFFF00#64062C7DFFFFFFFF
(1547755129.365947) can0 0CF00300#FF0023FF06FFFFFF
(1547755129.366519) can0 0CFE4347#0000FFFF3FFFFFFF
(1547755129.367119) can0 0CFE4447#0000FFFF3FFFFFFF
(1547755129.367693) can0 0CFFFE06#5C531D531DFFFFFF
(1547755129.375216) can0 0CF00400#FEFF9C2A1CFFFFFF
(1547755129.382587) can0 0DEF0603#0101FFFFFFFFFFF5
(1547755129.383785) can0 04EF0006#64151EF01119930E
(1547755129.385186) can0 0CF00300#FF0023FF06FFFFFF
(1547755129.385761) can0 0CEFFF00#64062D7DFFFFFFFF
(1547755129.392207) can0 1CFFFF17#22FFFF3CFFFFFFFF
(1547755129.395158) can0 0CF00400#F0FF9D2A1CFFFFFF
(1547755129.395728) can0 18FFFA00#022C0000180C0081
(1547755129.400377) can0 1CEC0600#1022000505E3FE00
(1547755129.401729) can0 18EAFF06#E5FE00
(1547755129.402654) can0 0DEF0603#0101FFFFFFFFFFF5
(1547755129.403851) can0 04EF0006#64151FF01119930E
(1547755129.404425) can0 0CFFFE06#5C271D271DFFFFFF
(1547755129.405005) can0 18FEF147#FF0000FFFFFFFFFF
(1547755129.405579) can0 0CEFFF00#64062B7DFFFFFFFF
(1547755129.406151) can0 0CF00300#FF0022FF06FFFFFF
(1547755129.406724) can0 18FEF200#2000FFFFFFFFFFFF
(1547755129.407300) can0 18FFFB06#0005AFF8FFFFFFFF
(1547755129.407894) can0 18FEE706#CC0A0000FFFFFFFF
(1547755129.408463) can0 18F00503#80FFFFFFFFFFFFFF
(1547755129.410516) can0 1CEC0006#110501FFFFE3FE00
(1547755129.415190) can0 0CF00400#F0FF9C2C1CFFFFFF
(1547755129.422571) can0 0DEF0603#0101FFFFFFFFFFF5
(1547755129.423765) can0 04EF0006#641510F01119930E
(1547755129.425271) can0 0CF00300#FF0022FF06FFFFFF
(1547755129.425845) can0 0CEFFF00#64062A7DFFFFFFFF
(1547755129.426417) can0 18EF0600#640ED900FFFFFFFF
(1547755129.426990) can0 18FEF500#C8FFFFFFFF39FFFF
(1547755129.435137) can0 0CF00400#F0FF9B241CFFFFFF
(1547755129.442162) can0 0DEF0647#0104FFFFFFFFFFF1
(1547755129.442805) can0 0DEF0603#0101FFFFFFFFFFF5
(1547755129.444006) can0 04EF0006#641511F00B19930E
(1547755129.445106) can0 0CF00300#FF0022FF06FFFFFF
(1547755129.445681) can0 0CEFFF00#64062B7DFFFFFFFF
(1547755129.446254) can0 18EFFF00#64100101DB02057D
(1547755129.447654) can0 18FEE500#CD0A0000FFFFFFFF
(1547755129.455103) can0 0CF00400#F0FF9C2E1CFFFFFF
(1547755129.462576) can0 0DEF0603#0101FFFFFFFFFFF5
(1547755129.463771) can0 04EF0006#641512F01119930E
(1547755129.465122) can0 0CF00300#FF0022FF06FFFFFF
(1547755129.465697) can0 0CEFFF00#64062A7DFFFFFFFF
(1547755129.466247) can0 18FE6900#6A24F427FFFF60FE
(1547755129.475144) can0 0CF00400#F0FF9B3A1CFFFFFF
(1547755129.482564) can0 0DEF0603#0101FFFFFFFFFFF5
(1547755129.483763) can0 04EF0006#641513F0CC18930E
(1547755129.484338) can0 0CFE4947#FFFFFFFFFFFFFFFF
(1547755129.484937) can0 0CFFFF47#5DFFFFF3FFFFFFFF
(1547755129.485513) can0 0CEFFF00#6406287DFFFFFFFF
(1547755129.486085) can0 0CF00300#FF0021FF06FFFFFF
(1547755129.486659) can0 0CFE4347#0000FFFF3FFFFFFF
(1547755129.487261) can0 0CFE4447#0000FFFF3FFFFFFF
(1547755129.495052) can0 0CF00400#F0FF9B361CFFFFFF
(1547755129.495621) can0 18FEDF00#8B201CFFFFFFFFFF
(1547755129.500122) can0 1CEB0600#01201CDD6842DCA0
(1547755129.502524) can0 0DEF0603#0101FFFFFFFFFFF5
(1547755129.503753) can0 04EF0006#641514F00719930E
(1547755129.505128) can0 0CF00300#FF0022FF06FFFFFF
(1547755129.505702) can0 0CEFFF00#6406297DFFFFFFFF
(1547755129.506301) can0 18FEF200#2000FFFFFFFFFFFF
(1547755129.515173) can0 0CF00400#F0FF9B321CFFFFFF
(1547755129.522544) can0 0DEF0603#0101FFFFFFFFFFF5
(1547755129.523742) can0 04EF0006#641515F00719930E
(1547755129.524292) can0 0CFFFE06#5C271D271DFFFFFF
(1547755129.524866) can0 18FEF147#FF0000FFFFFFFFFF
(1547755129.525468) can0 0CEFFF00#6406297DFFFFFFFF
(1547755129.526015) can0 0CF00300#FF0022FF06FFFFFF
(1547755129.526589) can0 18EF0600#640EE300FFFFFFFF
(1547755129.527192) can0 18FFFB06#0005A9F8FFFFFFFF
(1547755129.527760) can0 18FFFB06#001BFFFFFFFFFFFF
(1547755129.528383) can0 18F00503#80FFFFFFFFFFFFFF
(1547755129.535057) can0 0CF00400#F0FF9B321CFFFFFF
(1547755129.542105) can0 0DEF0647#0104FFFFFFFFFFF1
(1547755129.542733) can0 0DEF0603#0101FFFFFFFFFFF5
(1547755129.543858) can0 04EF0006#641516F00719930E
(1547755129.545057) can0 0CF00300#FF0022FF06FFFFFF
(1547755129.545633) can0 0CEFFF00#6406297DFFFFFFFF
(1547755129.546205) can0 18EFFF00#64100101DC02057D
(1547755129.547855) can0 1CEB0600#020FD58D20E37A31
(1547755129.555129) can0 0CF00400#F0FF9B2C1CFFFFFF
(1547755129.562523) can0 0DEF0603#0101FFFFFFFFFFF5
(1547755129.563720) can0 04EF0006#641517F01119930E
(1547755129.564299) can0 0CFE4947#FFFFFFFFFFFFFFFF
(1547755129.564870) can0 18FE6847#3DFFFFFFFFFFFFFF
(1547755129.565448) can0 0CEFFF00#64062A7DFFFFFFFF
(1547755129.566022) can0 0CF00300#FF0022FF07FFFFFF
(1547755129.566621) can0 0CFE4347#0000FFFF3FFFFFFF
(1547755129.567197) can0 18FFFF06#73FFFFFFFFFFFFFF
(1547755129.567730) can0 0CFE4447#0000FFFF3FFFFFFF
(1547755129.575010) can0 0CF00400#F0FF9B241CFFFFFF
(1547755129.582484) can0 0DEF0603#0101FFFFFFFFFFF5
(1547755129.583680) can0 04EF0006#641518F00B19A90E
(1547755129.585063) can0 0CF00300#FF0022FF06FFFFFF
(1547755129.585638) can0 0CEFFF00#64062B7DFFFFFFFF
(1547755129.586212) can0 18FD7C00#F880F1F000CF03FC
(1547755129.595132) can0 0CF00400#FEFF9C2A1CFFFFFF
(1547755129.600378) can0 1CEB0600#03F1C044FFFF0401
(1547755129.602502) can0 0DEF0603#0101FFFFFFFFFFF5
(1547755129.603703) can0 04EF0006#641519F01119930E
(1547755129.604279) can0 0CFFFF47#5EFFFFFFFFFFFFFF
(1547755129.604851) can0 18FEF147#FF0000FFFFFFFFFF
(1547755129.605426) can0 0CEFFF00#6406307DFFFFFFFF
(1547755129.606025) can0 0CF00300#FF0022FF06FFFFFF
(1547755129.606574) can0 0CFFFE06#5C271D271DFFFFFF
(1547755129.607148) can0 18FEF200#2300FFFFFFFFFFFF
(1547755129.607723) can0 18FEFC47#FFFFFFFFFFFFFFFF
(1547755129.608293) can0 18EF0047#F220610FFFFFFFFF
(1547755129.608884) can0 18F00647#FFCFFFFFFFFFFFFF
(1547755129.609498) can0 1CFDDF47#FCFFFFFFFFFFFFFF
(1547755129.610124) can0 18F00503#80FFFFFFFFFFFFFF
(1547755129.615049) can0 0CF00400#F0FF9E301CFFFFFF
(1547755129.622494) can0 0DEF0603#0101FFFFFFFFFFF5
(1547755129.623691) can0 04EF0006#64151AF00719930E
(1547755129.624992) can0 0CF00300#FF0022FF06FFFFFF
(1547755129.625591) can0 0CEFFF00#6406297DFFFFFFFF
(1547755129.626140) can0 18EF0600#640EED00FFFFFFFF
(1547755129.635063) can0 0CF00400#F0FF9B2C1CFFFFFF
(1547755129.642086) can0 0DEF0647#0104FFFFFFFFFFF1
(1547755129.642682) can0 0DEF0603#0101FFFFFFFFFFF5
(1547755129.643807) can0 04EF0006#64151BF01119930E
(1547755129.644383) can0 18FFFB06#0005A9F8FFFFFFFF
(1547755129.645306) can0 0CF00300#FF0022FF06FFFFFF
(1547755129.645879) can0 0CEFFF00#6406297DFFFFFFFF
(1547755129.646457) can0 18EFFF00#64100101DB02057D
(1547755129.648204) can0 1CEB0600#04204E0001FAC9FA
(1547755129.655030) can0 0CF00400#F0FF9B321CFFFFFF
(1547755129.662472) can0 0DEF0603#0101FFFFFFFFFFF5
(1547755129.663673) can0 04EF0006#64151CF00719930E
(1547755129.664971) can0 0CF00300#FF0021FF06FFFFFF
(1547755129.665546) can0 0CEFFF00#6406287DFFFFFFFF
(1547755129.675019) can0 0CF00400#F0FF9B361CFFFFFF
(1547755129.682465) can0 0DEF0603#0101FFFFFFFFFFF5
(1547755129.683662) can0 04EF0006#64151DF00719930E
(1547755129.684238) can0 0CFE4947#FFFFFFFFFFFFFFFF
(1547755129.684838) can0 0CFE4347#0000FFFF3FFFFFFF
(1547755129.685412) can0 0CEFFF00#6406287DFFFFFFFF
(1547755129.685985) can0 0CF00300#FF0021FF06FFFFFF
(1547755129.686560) can0 0CFE4447#0000FFFF3FFFFFFF
(1547755129.687134) can0 18FDB300#FFFF282AFFFFFFFF
(1547755129.687679) can0 1CEFFF00#64070000FFFFFFFF
(1547755129.695075) can0 0CF00400#F0FF9B2E1CFFFFFF
(1547755129.700146) can0 1CEB0600#05C05D0000FFFFFF
(1547755129.702447) can0 0DEF0603#0101FFFFFFFFFFF5
(1547755129.703651) can0 04EF0006#64151EF01119930E
(1547755129.705027) can0 0CF00300#FF0022FF06FFFFFF
(1547755129.705603) can0 0CEFFF00#6406297DFFFFFFFF
(1547755129.706177) can0 18FEF200#2000FFFFFFFFFFFF
(1547755129.710401) can0 1CEC0006#13220005FFE3FE00
(1547755129.714971) can0 0CF00400#F0FF9B2C1CFFFFFF
(1547755129.722421) can0 0DEF0603#0101FFFFFFFFFFF5
(1547755129.723616) can0 04EF0006#64151FF01119930E
(1547755129.724191) can0 0CFFFE06#5C271D271DFFFFFF
(1547755129.724767) can0 18FEF147#FF0000FFFFFFFFFF
(1547755129.725343) can0 0CEFFF00#6406297DFFFFFFFF
(1547755129.725915) can0 0CF00300#FF0021FF06FFFFFF
(1547755129.726490) can0 18EF0600#640EF700FFFFFFFF
(1547755129.727065) can0 18F00503#80FFFFFFFFFFFFFF
(1547755129.735081) can0 0CF00400#F0FF9B321CFFFFFF
(1547755129.741977) can0 0DEF0647#0104FFFFFFFFFFF1
(1547755129.742607) can0 0DEF0603#0101FFFFFFFFFFF5
(1547755129.743758) can0 04EF0006#641510F00719930E
(1547755129.744981) can0 0CF00300#FF0021FF06FFFFFF
(1547755129.745557) can0 0CEFFF00#6406287DFFFFFFFF
(1547755129.746129) can0 18EFFF00#64100101DB02057D
(1547755129.746703) can0 18FEDF00#8B201CFFFFFFFFFF
(1547755129.754953) can0 0CF00400#F0FF9B301CFFFFFF
(1547755129.762399) can0 0DEF0603#0101FFFFFFFFFFF5
(1547755129.763622) can0 04EF0006#641511F00719930E
(1547755129.764141) can0 0CFE4947#FFFFFFFFFFFFFFFF
(1547755129.764771) can0 18FFFB06#000586F8FFFFFFFF
(1547755129.765349) can0 0CEFFF00#6406287DFFFFFFFF
(1547755129.765920) can0 0CF00300#FF0022FF06FFFFFF
(1547755129.766520) can0 0CFE4347#0000FFFF3FFFFFFF
(1547755129.767097) can0 18FEEF00#FFFFFF62FFFFFFFA
(1547755129.767633) can0 0CFE4447#0000FFFF3FFFFFFF
(1547755129.774936) can0 0CF00400#F0FF9B261CFFFFFF
(1547755129.782352) can0 0DEF0603#0101FFFFFFFFFFF5
(1547755129.783546) can0 04EF0006#641512F00B19930E
(1547755129.784987) can0 0CF00300#FF0022FF06FFFFFF
(1547755129.785587) can0 0CEFFF00#6406297DFFFFFFFF
(1547755129.794957) can0 0CF00400#F0FF9B221CFFFFFF
(1547755129.802407) can0 0DEF0603#0101FFFFFFFFFFF5
(1547755129.803601) can0 04EF0006#641513F00B19930E
(1547755129.804151) can0 0CFFFE06#5C271D271DFFFFFF
(1547755129.804698) can0 18FEF147#FF0000FFFFFFFFFF
(1547755129.805302) can0 0CEFFF00#64062A7DFFFFFFFF
(1547755129.805875) can0 0CF00300#FF0022FF06FFFFFF
(1547755129.806475) can0 18F00503#80FFFFFFFFFFFFFF
(1547755129.807051) can0 18FEF200#2000FFFFFFFFFFFF
(1547755129.814962) can0 0CF00400#F0FF9B201CFFFFFF
(1547755129.822362) can0 0DEF0603#0101FFFFFFFFFFF5
(1547755129.823560) can0 04EF0006#641514F00B19930E
(1547755129.825066) can0 0CF00300#FF0023FF06FFFFFF
(1547755129.825643) can0 0CEFFF00#64062A7DFFFFFFFF
(1547755129.826216) can0 18EF0600#640E0100FFFFFFFF
(1547755129.834955) can0 0CF00400#F0FF9B141CFFFFFF
(1547755129.841986) can0 0DEF0647#0104FFFFFFFFFFF1
(1547755129.842604) can0 0DEF0603#0101FFFFFFFFFFF5
(1547755129.843758) can0 04EF0006#641515F00919930E
(1547755129.844932) can0 0CF00300#FF0023FF07FFFFFF
(1547755129.845481) can0 0CEFFF00#64062D7DFFFFFFFF
(1547755129.846057) can0 18EFFF00#64100101D802057D
(1547755129.846628) can0 18FEF600#FF003AFF00FFFFFF
(1547755129.847707) can0 1CECFF00#20220005FFE3FE00
(1547755129.854928) can0 0CF00400#F0FF9C181CFFFFFF
(1547755129.862401) can0 0DEF0603#0101FFFFFFFFFFF5
(1547755129.863572) can0 0C000006#30FFFFFFF8FFFFFF
(1547755129.864120) can0 04EF0006#641516F00419A90E
(1547755129.864998) can0 18EFFA00#6401FF0000FFFFFF
(1547755129.865542) can0 0CEFFF00#64062C7DFFFFFFFF
(1547755129.866148) can0 0CF00300#FF0022FF06FFFFFF
(1547755129.874941) can0 0CF00400#FEFF9C221CFFFFFF
(1547755129.882362) can0 0DEF0603#0101FFFFFFFFFFF5
(1547755129.883564) can0 04EF0006#641517F00B19930E
(1547755129.884137) can0 0CFE4947#FFFFFFFFFFFFFFFF
(1547755129.884711) can0 0CFE4347#0000FFFF3FFFFFFF
(1547755129.885285) can0 0CEFFF00#6406307DFFFFFFFF
(1547755129.885885) can0 0CF00300#FF0023FF06FFFFFF
(1547755129.886460) can0 0CFE4447#0000FFFF3FFFFFFF
(1547755129.887036) can0 0CFFFE06#5C271D271DFFFFFF
(1547755129.894879) can0 0CF00400#F0FF9E1C1CFFFFFF
(1547755129.899825) can0 1CEBFF00#01201CEC6842EAA0
(1547755129.902346) can0 0DEF0603#0101FFFFFFFFFFF5
(1547755129.903603) can0 04EF0006#641518F00419930E
(1547755129.904929) can0 0CF00300#FF0023FF06FFFFFF
(1547755129.905502) can0 0CEFFF00#64062C7DFFFFFFFF
(1547755129.906077) can0 18FEF200#2000FFFFFFFFFFFF
(1547755129.915047) can0 0CF00400#F0FF9C1A1CFFFFFF
(1547755129.922345) can0 0DEF0603#0101FFFFFFFFFFF5
(1547755129.923593) can0 04EF0006#641519F00419930E
(1547755129.924167) can0 18FEF147#FF0000FFFFFFFFFF
(1547755129.924765) can0 18FFFB06#000586F8FFFFFFFF
(1547755129.925339) can0 0CEFFF00#64062C7DFFFFFFFF
(1547755129.925919) can0 0CF00300#FF0023FF06FFFFFF
(1547755129.926489) can0 18EF0600#640E0B00FFFFFFFF
(1547755129.927090) can0 18F00503#80FFFFFFFFFFFFFF
(1547755129.934857) can0 0CF00400#F0FF9C1A1CFFFFFF
(1547755129.941900) can0 0DEF0647#0104FFFFFFFFFFF1
(1547755129.942553) can0 0DEF0603#0101FFFFFFFFFFF5
(1547755129.943807) can0 04EF0006#64151AF00419930E
(1547755129.944882) can0 0CF00300#FF0023FF07FFFFFF
(1547755129.945482) can0 0CEFFF00#64062C7DFFFFFFFF
(1547755129.946056) can0 18EFFF00#64100101D902057D
(1547755129.947704) can0 1CEBFF00#020FE38D20F17A31
(1547755129.954977) can0 0CF00400#F0FF9C181CFFFFFF
(1547755129.962351) can0 0DEF0603#0101FFFFFFFFFFF5
(1547755129.963571) can0 04EF0006#64151BF00419A90E
(1547755129.964147) can0 0CFE4947#FFFFFFFFFFFFFFFF
(1547755129.964748) can0 0CFFFF47#5DFFFFF3FFFFFFFF
(1547755129.965295) can0 0CEFFF00#64062D7DFFFFFFFF
(1547755129.965896) can0 0CF00300#FF0023FF06FFFFFF
(1547755129.966470) can0 0CFE4347#0000FFFF3FFFFFFF
(1547755129.967047) can0 18FEEE00#5642FFFFFFFFFFFF
(1547755129.967614) can0 0CFE4447#0000FFFF3FFFFFFF
(1547755129.968167) can0 0CFFFE06#5C531D531DFFFFFF
(1547755129.974861) can0 0CF00400#FEFF9C121CFFFFFF
(1547755129.982284) can0 0DEF0603#0101FFFFFFFFFFF5
(1547755129.983562) can0 04EF0006#64151CF00919930E
(1547755129.984887) can0 0CF00300#FF0023FF06FFFFFF
(1547755129.985464) can0 0CEFFF00#6406387DFFFFFFFF
(1547755129.994959) can0 0CF00400#F0FFA01E1CFFFFFF
(1547755129.995531) can0 18FEDF00#8A201CFFFFFFFFFF
(1547755130.000405) can0 1CEBFF00#03FAC044FFFF0401
(1547755130.002330) can0 0DEF0603#0101FFFFFFFFFFF5
(1547755130.003576) can0 04EF0006#64151DF00419930E
(1547755130.004127) can0 0CFFFE06#5C271D271DFFFFFF
(1547755130.004702) can0 18FEF147#FF0000FFFFFFFFFF
(1547755130.005277) can0 0CF00300#FF0022FF06FFFFFF
(1547755130.005851) can0 0CEFFF00#64062C7DFFFFFFFF
(1547755130.006452) can0 18F00503#80FFFFFFFFFFFFFF
(1547755130.006970) can0 18FEF200#2000FFFFFFFFFFFF
(1547755130.014819) can0 0CF00400#F0FF9C281CFFFFFF
(1547755130.022256) can0 0DEF0603#0101FFFFFFFFFFF5
(1547755130.023436) can0 04EF0006#64151EF01119930E
(1547755130.024843) can0 0CF00300#FF0022FF06FFFFFF
(1547755130.025419) can0 0CEFFF00#64062A7DFFFFFFFF
(1547755130.025993) can0 18EF0600#640E1500FFFFFFFF
(1547755130.034838) can0 0CF00400#F0FF9B201CFFFFFF
(1547755130.041884) can0 0DEF0647#0104FFFFFFFFFFF1
(1547755130.042484) can0 0DEF0603#0101FFFFFFFFFFF5
(1547755130.043608) can0 04EF0006#64151FF00B19930E
(1547755130.044209) can0 18FFFF06#73FFFFFFFFFFFFFF
(1547755130.044808) can0 18FFFB06#000586F8FFFFFFFF
(1547755130.045382) can0 0CF00300#FF0022FF07FFFFFF
(1547755130.045955) can0 0CEFFF00#64062B7DFFFFFFFF
(1547755130.046532) can0 18EFFF00#64100101D902057D
(1547755130.047074) can0 18FEF700#FFFFFFFFFFFF1801
(1547755130.048117) can0 1CEBFF00#04204E0001FAC9FA
(1547755130.054823) can0 0CF00400#F0FF9C201CFFFFFF
(1547755130.062242) can0 0DEF0603#0101FFFFFFFFFFF5
(1547755130.063471) can0 04EF0006#641510F00B19A90E
(1547755130.064821) can0 0CF00300#FF0022FF07FFFFFF
(1547755130.065399) can0 0CEFFF00#64062B7DFFFFFFFF
(1547755130.071797) can0 1CFFFF17#22FFFF3CFFFFFFFF
(1547755130.074819) can0 0CF00400#FEFF9C221CFFFFFF
(1547755130.082265) can0 0DEF0603#0101FFFFFFFFFFF5
(1547755130.083461) can0 04EF0006#641511F00B19A90E
(1547755130.084064) can0 0CFE4947#FFFFFFFFFFFFFFFF
(1547755130.084637) can0 1CFDDF47#FCFFFFFFFFFFFFFF
(1547755130.085215) can0 0CEFFF00#6406317DFFFFFFFF
(1547755130.085788) can0 0CF00300#FF0024FF06FFFFFF
(1547755130.086360) can0 0CFE4347#0000FFFF3FFFFFFF
(1547755130.086963) can0 0CFE4447#0000FFFF3FFFFFFF
(1547755130.087554) can0 0CFFFE06#5C531D531DFFFFFF
(1547755130.094846) can0 0CF00400#FEFF9E1C1CFFFFFF
(1547755130.099898) can0 1CEBFF00#05C05D0000FFFFFF
(1547755130.102249) can0 0DEF0603#0101FFFFFFFFFFF5
(1547755130.103529) can0 04EF0006#641512F00419930E
(1547755130.104827) can0 0CF00300#FF0025FF06FFFFFF
(1547755130.105404) can0 0CEFFF00#6406317DFFFFFFFF
(1547755130.106002) can0 18FEF200#2300FFFFFFFFFFFF
(1547755130.114825) can0 0CF00400#F0FF9E1E1CFFFFFF
(1547755130.122236) can0 0DEF0603#0101FFFFFFFFFFF5
(1547755130.123492) can0 04EF0006#641513F00419930E
(1547755130.124042) can0 0CFFFE06#5C271D271DFFFFFF
(1547755130.124617) can0 18FEF147#FF0000FFFFFFFFFF
(1547755130.125218) can0 0CEFFF00#64062C7DFFFFFFFF
(1547755130.125790) can0 0CF00300#FF0022FF06FFFFFF
(1547755130.126366) can0 18EF0600#640E1F00FFFFFFFF
(1547755130.126943) can0 18F00647#FFCFFFFFFFFFFFFF
(1547755130.127535) can0 18F00503#80FFFFFFFFFFFFFF
(1547755130.134906) can0 0CF00400#F0FF9C2C1CFFFFFF
(1547755130.141799) can0 0DEF0647#0104FFFFFFFFFFF1
(1547755130.142404) can0 0DEF0603#0101FFFFFFFFFFF5
(1547755130.143556) can0 04EF0006#641514F01119930E
(1547755130.144830) can0 0CF00300#FF0021FF06FFFFFF
(1547755130.145408) can0 0CEFFF00#6406297DFFFFFFFF
(1547755130.145982) can0 18EFFF00#64100101DA02057D
(1547755130.146556) can0 18FED500#FFFFFDFFFFFFFFFF
(1547755130.154754) can0 0CF00400#F0FF9B341CFFFFFF
(1547755130.162226) can0 0DEF0603#0101FFFFFFFFFFF5
(1547755130.163422) can0 04EF0006#641515F00719930E
(1547755130.163998) can0 0CFE4947#FFFFFFFFFFFFFFFF
(1547755130.164598) can0 18FFFB06#000586F8FFFFFFFF
(1547755130.165170) can0 0CEFFF00#6406287DFFFFFFFF
(1547755130.165748) can0 0CF00300#FF0021FF06FFFFFF
(1547755130.166319) can0 0CFE4347#0000FFFF3FFFFFFF
(1547755130.166922) can0 0CFE4447#0000FFFF3FFFFFFF
(1547755130.174763) can0 0CF00400#F0FF9B2C1CFFFFFF
(1547755130.182185) can0 0DEF0603#0101FFFFFFFFFFF5
(1547755130.183383) can0 04EF0006#641516F01119930E
(1547755130.184787) can0 0CF00300#FF0022FF07FFFFFF
(1547755130.185362) can0 0CEFFF00#6406297DFFFFFFFF
(1547755130.185937) can0 18FDB300#FFFF342AFFFFFFFF
(1547755130.194760) can0 0CF00400#F0FF9B2C1CFFFFFF
(1547755130.202204) can0 0DEF0603#0101FFFFFFFFFFF5
(1547755130.203403) can0 04EF0006#641517F01119A90E
(1547755130.203951) can0 0CFFFE06#5C531D531DFFFFFF
(1547755130.204551) can0 18FEF147#FF0000FFFFFFFFFF
(1547755130.205125) can0 0CEFFF00#6406297DFFFFFFFF
(1547755130.205704) can0 0CF00300#FF0022FF06FFFFFF
(1547755130.206275) can0 18F00503#80FFFFFFFFFFFFFF
(1547755130.206878) can0 18FEF200#2000FFFFFFFFFFFF
(1547755130.214764) can0 0CF00400#FEFF9B2A1CFFFFFF
(1547755130.222166) can0 0DEF0603#0101FFFFFFFFFFF5
(1547755130.223361) can0 04EF0006#641518F01119930E
(1547755130.224869) can0 0CF00300#FF0024FF06FFFFFF
(1547755130.225442) can0 0CEFFF00#6406307DFFFFFFFF
(1547755130.226015) can0 18EF0600#640E2900FFFFFFFF
(1547755130.234765) can0 0CF00400#F0FF9E1E1CFFFFFF
(1547755130.241785) can0 0DEF0647#0104FFFFFFFFFFF1
(1547755130.242408) can0 0DEF0603#0101FFFFFFFFFFF5
(1547755130.243558) can0 04EF0006#641519F00419930E
(1547755130.244130) can0 0CFFFE06#5C271D271DFFFFFF
(1547755130.244731) can0 0CF00300#FF0022FF07FFFFFF
(1547755130.245334) can0 0CEFFF00#64062C7DFFFFFFFF
(1547755130.245882) can0 18EFFF00#64100101D902057D
(1547755130.246482) can0 18FEDF00#8B201CFFFFFFFFFF
(1547755130.254672) can0 0CF00400#F0FF9C2C1CFFFFFF
(1547755130.262177) can0 0DEF0603#0101FFFFFFFFFFF5
(1547755130.263372) can0 04EF0006#64151AF01119A90E
(1547755130.264796) can0 0CF00300#FF0021FF07FFFFFF
(1547755130.265374) can0 0CEFFF00#6406297DFFFFFFFF
(1547755130.265946) can0 18FEEF00#FFFFFF63FFFFFFFA
(1547755130.274746) can0 0CF00400#FEFF9B3C1CFFFFFF
(1547755130.282167) can0 0DEF0603#0101FFFFFFFFFFF5
(1547755130.283361) can0 04EF0006#64151BF0CC18A90E
(1547755130.283937) can0 0CFE4947#FFFFFFFFFFFFFFFF
(1547755130.284539) can0 18FFFB06#000586F8FFFFFFFF
(1547755130.285108) can0 0CEFFF00#6406277DFFFFFFFF
(1547755130.285662) can0 0CF00300#FF0021FF06FFFFFF
(1547755130.286260) can0 0CFE4347#0000FFFF3FFFFFFF
(1547755130.286860) can0 0CFE4447#0000FFFF3FFFFFFF
(1547755130.287404) can0 0CFFFE06#5C531D531DFFFFFF
