(1547754962.695282) can0 18EEFF47#4D74300400340220
(1547754962.695881) can0 18EEFF06#4D743004000E0020
(1547754962.696458) can0 18EEFF03#4D74300400030220
(1547754962.722425) can0 18EEFF00#56F5290400000220
(1547754962.724574) can0 0CF00400#F0FF000000FFFFFF
(1547754962.725017) can0 18EAFF00#00EE00
(1547754962.734518) can0 0CF00300#FF0000FF00FFFFFF
(1547754962.735087) can0 0CEFFF00#6406007DFFFFFFFF
(1547754962.735664) can0 18FEF200#0000FFFFFFFFFFFF
(1547754962.744711) can0 0CF00400#F0FF7D0000FFFFFF
(1547754962.754632) can0 0CF00300#FF0000FF06FFFFFF
(1547754962.755207) can0 0CEFFF00#6406007DFFFFFFFF
(1547754962.755775) can0 18EF0600#640E0302FFFFFFFF
(1547754962.764604) can0 0CF00400#F0FF7D0000FFFFFF
(1547754962.774643) can0 0CF00300#FF0000FF06FFFFFF
(1547754962.775219) can0 0CEFFF00#6406007DFFFFFFFF
(1547754962.775792) can0 18EFFF00#64100B0B0000007D
(1547754962.776393) can0 18FEDF00#7DF81CFFFFFFFFFF
(1547754962.776940) can0 1CECFF00#20220005FFE3FE00
(1547754962.784621) can0 0CF00400#F0FF7D0000FFFFFF
(1547754962.794587) can0 0CF00300#FF0000FF06FFFFFF
(1547754962.795185) can0 0CEFFF00#6406007DFFFFFFFF
(1547754962.795741) can0 18FEEF00#FFFFFFFEFFFFFFFA
(1547754962.804588) can0 0CF00400#F0FF7D0000FFFFFF
(1547754962.814580) can0 0CF00300#FF0000FF06FFFFFF
(1547754962.815148) can0 0CEFFF00#6406007DFFFFFFFF
(1547754962.824625) can0 0CF00400#F0FF7D0000FFFFFF
(1547754962.827745) can0 1CEBFF00#01201CDD6842DCA0
(1547754962.834619) can0 0CF00300#FF0000FF06FFFFFF
(1547754962.835189) can0 0CEFFF00#6406007DFFFFFFFF
(1547754962.835788) can0 18FEF200#0000FFFFFFFFFFFF
(1547754962.844584) can0 0CF00400#F0FF7D0000FFFFFF
(1547754962.854557) can0 0CF00300#FF0000FF06FFFFFF
(1547754962.855153) can0 0CEFFF00#6406007DFFFFFFFF
(1547754962.855727) can0 18EF0600#640E0D02FFFFFFFF
(1547754962.864627) can0 0CF00400#F0FF7D0000FFFFFF
(1547754962.874573) can0 0CF00300#FF0000FF06FFFFFF
(1547754962.875142) can0 0CEFFF00#6406007DFFFFFFFF
(1547754962.875717) can0 18EFFF00#64100B0B0000007D
(1547754962.876292) can0 18FEF600#FF0047FF00FFFFFF
(1547754962.876840) can0 1CEBFF00#020FD58D20E37A31
(1547754962.884572) can0 0CF00400#F0FF7D0000FFFFFF
(1547754962.894564) can0 18EFFA00#6401FF0000FFFFFF
(1547754962.895135) can0 0CEFFF00#6406007DFFFFFFFF
(1547754962.895707) can0 0CF00300#FF0000FF06FFFFFF
(1547754962.904563) can0 0CF00400#F0FF7D0000FFFFFF
(1547754962.914552) can0 0CF00300#FF0000FF06FFFFFF
(1547754962.915148) can0 0CEFFF00#6406007DFFFFFFFF
(1547754962.924598) can0 0CF00400#F0FF7D0000FFFFFF
(1547754962.927725) can0 1CEBFF00#03F1C044FFFF0401
(1547754962.934559) can0 0CF00300#FF0000FF06FFFFFF
(1547754962.935131) can0 0CEFFF00#6406007DFFFFFFFF
(1547754962.935725) can0 18FEF200#0000FFFFFFFFFFFF
(1547754962.944557) can0 0CF00400#F0FF7D0000FFFFFF
(1547754962.954523) can0 0CF00300#FF0000FF06FFFFFF
(1547754962.955095) can0 0CEFFF00#6406007DFFFFFFFF
(1547754962.955666) can0 18EF0600#640E1706FFFFFFFF
(1547754962.956547) can0 0DEF0603#0101FFFFFFFFFFF5
(1547754962.957094) can0 04EF0006#641510F00000930E
(1547754962.957696) can0 0C000006#30FFFFFFF8FFFFFF
(1547754962.964544) can0 0CF00400#F0FF7D0000FFFFFF
(1547754962.974514) can0 0CF00300#FF0000FF06FFFFFF
(1547754962.975109) can0 0CEFFF00#6406007DFFFFFFFF
(1547754962.975659) can0 18EEFF00#56F5290400000220
(1547754962.976234) can0 18EFFF00#64100B0B0000007D
(1547754962.976808) can0 0DEF0647#0104FFFFFFFFFFF1
(1547754962.977339) can0 04EF0006#641510F00000930E
(1547754962.977905) can0 0DEF0603#0101FFFFFFFFFFF5
(1547754962.978510) can0 18FFFB06#00057DF8FFFFFFFF
(1547754962.979031) can0 0CFFFE06#5C271D271DFFFFFF
(1547754962.979434) can0 18EAFF47#00EE00
(1547754962.980008) can0 1CEBFF00#04204E0001FAC9FA
(1547754962.984510) can0 0CF00400#F0FF7D0000FFFFFF
(1547754962.994500) can0 0CF00300#FF0000FF06FFFFFF
(1547754962.995069) can0 0CEFFF00#6406007DFFFFFFFF
(1547754962.995678) can0 18FEEE00#5443FFFFFFFFFFFF
(1547754962.996500) can0 0DEF0603#0101FFFFFFFFFFF5
(1547754962.997099) can0 04EF0006#641510F00000930E
(1547754963.004551) can0 0CF00400#F0FF7D0000FFFFFF
(1547754963.014502) can0 0CF00300#FF0000FF06FFFFFF
(1547754963.015072) can0 0CEFFF00#6406007DFFFFFFFF
(1547754963.016526) can0 0DEF0603#0101FFFFFFFFFFF5
(1547754963.017071) can0 04EF0006#641510F00000930E
(1547754963.017646) can0 0CFE4947#FFFFFFFFFFFFFFFF
(1547754963.018248) can0 0CFE4347#FFFFFFFFFFFFFFFF
(1547754963.018847) can0 0CFE4447#0000FFFF3FFFFFFF
(1547754963.024538) can0 0CF00400#F0FF7D0000FFFFFF
(1547754963.025138) can0 18FEDF00#7D261DFFFFFFFFFF
(1547754963.027944) can0 18EEFF00#56F5290400000220
(1547754963.028563) can0 1CEBFF00#05C05D0000FFFFFF
(1547754963.034492) can0 0CF00300#FF0000FF06FFFFFF
(1547754963.035109) can0 0CEFFF00#6406007DFFFFFFFF
(1547754963.035685) can0 18FEF200#0000FFFFFFFFFFFF
(1547754963.036507) can0 0DEF0603#0101FFFFFFFFFFF5
(1547754963.037083) can0 04EF0006#641510F00000930E
(1547754963.044532) can0 0CF00400#F0FF7D0000FFFFFF
(1547754963.054476) can0 0CF00300#FF0000FF06FFFFFF
(1547754963.055048) can0 0CEFFF00#6406007DFFFFFFFF
(1547754963.055621) can0 18EF0600#640E2100FFFFFFFF
(1547754963.056524) can0 0DEF0603#0101FFFFFFFFFFF5
(1547754963.057072) can0 04EF0006#641510F00000930E
(1547754963.057648) can0 18FEF147#FF0000FFFFFFFFFF
(1547754963.058246) can0 18F00503#FFFFFFFFFFFFFFFF
(1547754963.064520) can0 0CF00400#F0FF7D0000FFFFFF
(1547754963.074491) can0 0CF00300#FF0000FF06FFFFFF
(1547754963.075062) can0 0CEFFF00#6406007DFFFFFFFF
(1547754963.075635) can0 18EFFF00#64100B0B0000007D
(1547754963.076213) can0 18FEF700#FFFFFFFFFFFFA300
(1547754963.076770) can0 0DEF0647#0104FFFFFFFFFFF1
(1547754963.077322) can0 04EF0006#641510F00000930E
(1547754963.077942) can0 0DEF0603#0101FFFFFFFFFFF5
(1547754963.084511) can0 0CF00400#F0FF7D0000FFFFFF
(1547754963.094456) can0 0CF00300#FF0000FF06FFFFFF
(1547754963.095028) can0 0CEFFF00#6406007DFFFFFFFF
(1547754963.096476) can0 0DEF0603#0101FFFFFFFFFFF5
(1547754963.097026) can0 04EF0006#641510F00000930E
(1547754963.097604) can0 0CFE4947#FFFFFFFFFFFFFFFF
(1547754963.098204) can0 0CFE4347#FFFFFFFFFFFFFFFF
(1547754963.098804) can0 0CFE4447#0000FFFF3FFFFFFF
(1547754963.099376) can0 0CFFFE06#5C271D271DFFFFFF
(1547754963.104459) can0 0CF00400#F0FF7D0000FFFFFF
(1547754963.114402) can0 0CF00300#FF0000FF06FFFFFF
(1547754963.115046) can0 0CEFFF00#6406007DFFFFFFFF
(1547754963.116425) can0 0DEF0603#0101FFFFFFFFFFF5
(1547754963.117019) can0 04EF0006#641510F00000930E
(1547754963.124466) can0 0CF00400#F0FF7D0000FFFFFF
(1547754963.130113) can0 18EEFF47#4D74300400340220
(1547754963.130683) can0 18EEFF06#4D743004000E0020
(1547754963.131258) can0 18EEFF03#4D74300400030220
(1547754963.134462) can0 0CF00300#FF0000FF06FFFFFF
(1547754963.135058) can0 0CEFFF00#6406007DFFFFFFFF
(1547754963.135630) can0 18FEF200#0000FFFFFFFFFFFF
(1547754963.136459) can0 0DEF0603#0101FFFFFFFFFFF5
(1547754963.137030) can0 04EF0006#641510F00000930E
(1547754963.137608) can0 18FEF147#FF0000FFFFFFFFFF
(1547754963.138163) can0 18F00503#FFFFFFFFFFFFFFFF
(1547754963.144436) can0 0CF00400#F0FF7D0000FFFFFF
(1547754963.154453) can0 0CF00300#FF0000FF06FFFFFF
(1547754963.155025) can0 0CEFFF00#6406007DFFFFFFFF
(1547754963.155596) can0 18EF0600#640E2B00FFFFFFFF
(1547754963.156472) can0 0DEF0603#0101FFFFFFFFFFF5
(1547754963.157021) can0 04EF0006#641510F00000930E
(1547754963.164495) can0 0CF00400#F0FF7DE604FFFFFF
(1547754963.174487) can0 0CF00300#FF0000FF06FFFFFF
(1547754963.175062) can0 0CEFFF00#6406F87CFFFFFFFF
(1547754963.175661) can0 18EFFF00#641000000000007D
(1547754963.176237) can0 18FED500#FFFFFCFFFFFFFFFF
(1547754963.176837) can0 0DEF0647#0104FFFFFFFFFFF1
(1547754963.177406) can0 0DEF0603#0101FFFFFFFFFFF5
(1547754963.178194) can0 04EF0006#641510F00000930E
(1547754963.178792) can0 0CFFFE06#5C271D271DFFFFFF
(1547754963.184494) can0 0CF00400#F0FF7DA805FFFFFF
(1547754963.194433) can0 0CF00300#FF0000FF06FFFFFF
(1547754963.195044) can0 0CEFFF00#6406F77CFFFFFFFF
(1547754963.196819) can0 0DEF0603#0101FFFFFFFFFFF5
(1547754963.198046) can0 04EF0006#641510F00000930E
(1547754963.204515) can0 0CF00400#F0FF7DAA05FFFFFF
(1547754963.214487) can0 0CF00300#FF0000FF06FFFFFF
(1547754963.215058) can0 0CEFFF00#6406F77CFFFFFFFF
(1547754963.215631) can0 18FDB300#FFFF1A29FFFFFFFF
(1547754963.216809) can0 0DEF0603#0101FFFFFFFFFFF5
(1547754963.218037) can0 04EF0006#641510F00000930E
(1547754963.218606) can0 0CFE4947#FFFFFFFFFFFFFFFF
(1547754963.219207) can0 0CFE4347#FFFFFFFFFFFFFFFF
(1547754963.219806) can0 0CFE4447#0000FFFF3FFFFFFF
(1547754963.224531) can0 0CF00400#F0FF7DAA05FFFFFF
(1547754963.234503) can0 0CF00300#FF0000FF06FFFFFF
(1547754963.235073) can0 0CEFFF00#6406F77CFFFFFFFF
(1547754963.235648) can0 18FEF200#0000FFFFFFFFFFFF
(1547754963.236798) can0 0DEF0603#0101FFFFFFFFFFF5
(1547754963.238052) can0 04EF0006#641510F00000930E
(1547754963.244495) can0 0CF00400#F0FF7DAA05FFFFFF
(1547754963.254464) can0 0CF00300#FF0000FF06FFFFFF
(1547754963.255039) can0 0CEFFF00#6406F77CFFFFFFFF
(1547754963.255611) can0 18EF0600#640E3500FFFFFFFF
(1547754963.256789) can0 0DEF0603#0101FFFFFFFFFFF5
(1547754963.258017) can0 04EF0006#641510F00000930E
(1547754963.258610) can0 18FEF147#FF0000FFFFFFFFFF
(1547754963.259189) can0 18F00503#FFFFFFFFFFFFFFFF
(1547754963.264424) can0 0CF00400#F0FF7DAA05FFFFFF
(1547754963.274433) can0 0CF00300#FF0000FF06FFFFFF
(1547754963.275009) can0 0CEFFF00#6406F77CFFFFFFFF
(1547754963.275606) can0 18EFFF00#641000000000007D
(1547754963.276182) can0 18FEDF00#80261DFFFFFFFFFF
(1547754963.276779) can0 0DEF0647#0104FFFFFFFFFFF1
(1547754963.277322) can0 0DEF0603#0101FFFFFFFFFFF5
(1547754963.278513) can0 04EF0006#641510F00000930E
(1547754963.284479) can0 0CF00400#F0FF7D3A05FFFFFF
(1547754963.294449) can0 0CF00300#FF0000FF06FFFFFF
(1547754963.295022) can0 0CEFFF00#6406F87CFFFFFFFF
(1547754963.295597) can0 18FEEF00#FFFFFF15FFFFFFFA
(1547754963.297072) can0 0DEF0603#0101FFFFFFFFFFF5
(1547754963.298299) can0 04EF0006#641510F00000930E
(1547754963.298897) can0 0CFE4947#FFFFFFFFFFFFFFFF
(1547754963.299444) can0 0CFFFF47#5DFFFFF3FFFFFFFF
(1547754963.304537) can0 0CF00400#F0FF7D2A05FFFFFF
(1547754963.314441) can0 0CF00300#FF0000FF06FFFFFF
(1547754963.315011) can0 0CEFFF00#6406F87CFFFFFFFF
(1547754963.324458) can0 0CF00400#F0FF7D2A05FFFFFF
(1547754963.334480) can0 0CF00300#FF0000FF06FFFFFF
(1547754963.335054) can0 0CEFFF00#6406F87CFFFFFFFF
(1547754963.335653) can0 18FEF200#0000FFFFFFFFFFFF
(1547754963.344449) can0 0CF00400#F0FF7D2A05FFFFFF
(1547754963.354396) can0 0CF00300#FF0000FF06FFFFFF
(1547754963.354968) can0 0CEFFF00#6406F87CFFFFFFFF
(1547754963.355542) can0 18EF0600#640E3F00FFFFFFFF
(1547754963.364439) can0 0CF00400#F0FF7D2A05FFFFFF
(1547754963.374410) can0 0CF00300#FF0000FF06FFFFFF
(1547754963.374983) can0 0CEFFF00#6406F87CFFFFFFFF
(1547754963.375581) can0 18EFFF00#641000000000007D
(1547754963.376158) can0 18FEF600#FF0043FF00FFFFFF
(1547754963.384396) can0 0CF00400#F0FF7DA206FFFFFF
(1547754963.394405) can0 0CF00300#FF0000FF06FFFFFF
(1547754963.394974) can0 0CEFFF00#6406F67CFFFFFFFF
(1547754963.404424) can0 0CF00400#F0FF7DB606FFFFFF
(1547754963.414396) can0 0CF00300#FF0000FF06FFFFFF
(1547754963.414963) can0 0CEFFF00#6406F57CFFFFFFFF
(1547754963.424413) can0 0CF00400#F0FF7DB606FFFFFF
(1547754963.424975) can0 18FFFA00#022C0000180C0000
(1547754963.434386) can0 0CF00300#FF0000FF06FFFFFF
(1547754963.434954) can0 0CEFFF00#6406F57CFFFFFFFF
(1547754963.435529) can0 18FEF200#0000FFFFFFFFFFFF
(1547754963.444407) can0 0CF00400#F0FF7DB606FFFFFF
(1547754963.454375) can0 0CF00300#FF0000FF06FFFFFF
(1547754963.454920) can0 0CEFFF00#6406F57CFFFFFFFF
(1547754963.455458) can0 18EF0600#640E4900FFFFFFFF
(1547754963.456068) can0 18FEF500#C8FFFFFFFF3DFFFF
(1547754963.464395) can0 0CF00400#F0FF7DB606FFFFFF
(1547754963.474363) can0 0CF00300#FF0000FF06FFFFFF
(1547754963.474934) can0 0CEFFF00#6406F57CFFFFFFFF
(1547754963.475510) can0 18EFFF00#641000000000007D
(1547754963.484383) can0 0CF00400#F0FF7DB404FFFFFF
(1547754963.494352) can0 0CF00300#FF0000FF06FFFFFF
(1547754963.494922) can0 0CEFFF00#6406F97CFFFFFFFF
(1547754963.495473) can0 18FE6900#8225AE27FFFF60FE
(1547754963.504373) can0 0CF00400#F0FF7D6604FFFFFF
(1547754963.514319) can0 0CF00300#FF0000FF06FFFFFF
(1547754963.514889) can0 0CEFFF00#6406F97CFFFFFFFF
(1547754963.524361) can0 0CF00400#F0FF7D6404FFFFFF
(1547754963.524961) can0 18FEDF00#81001DFFFFFFFFFF
(1547754963.534359) can0 0CF00300#FF0000FF06FFFFFF
(1547754963.534931) can0 0CEFFF00#6406F97CFFFFFFFF
(1547754963.535503) can0 18FEF200#0000FFFFFFFFFFFF
(1547754963.544380) can0 0CF00400#F0FF7DE207FFFFFF
(1547754963.554322) can0 0CF00300#FF0000FF06FFFFFF
(1547754963.554893) can0 0CEFFF00#6406F37CFFFFFFFF
(1547754963.555468) can0 18EF0600#640E5306FFFFFFFF
(1547754963.564369) can0 0CF00400#FEFF7D1208FFFFFF
(1547754963.574340) can0 0CF00300#FF0064FF06FFFFFF
(1547754963.574910) can0 0CEFFF00#64068C7DFFFFFFFF
(1547754963.575508) can0 18EFFF00#641000000000007D
(1547754963.584386) can0 0CF00400#FEFFB8B406FFFFFF
(1547754963.594328) can0 0CF00300#FF0064FF06FFFFFF
(1547754963.594900) can0 0CEFFF00#64068C7DFFFFFFFF
(1547754963.604399) can0 0CF00400#FEFFB70006FFFFFF
(1547754963.614294) can0 0CF00300#FF0064FF06FFFFFF
(1547754963.614864) can0 0CEFFF00#64068C7DFFFFFFFF
(1547754963.615437) can0 18FD7C00#F880F0F000CF03FC
(1547754963.624365) can0 0CF00400#FEFFB64C05FFFFFF
(1547754963.634310) can0 0CF00300#FF0064FF06FFFFFF
(1547754963.634880) can0 0CEFFF00#64068C7DFFFFFFFF
(1547754963.635478) can0 18FEF200#1500FFFFFFFFFFFF
(1547754963.644326) can0 0CF00400#FEFFB67605FFFFFF
(1547754963.654294) can0 0CF00300#FF0064FF06FFFFFF
(1547754963.654871) can0 0CEFFF00#64068C7DFFFFFFFF
(1547754963.655443) can0 18EF0600#640E5D06FFFFFFFF
(1547754963.664395) can0 0CF00400#FEFFB6E206FFFFFF
(1547754963.674276) can0 0CF00300#FF0064FF06FFFFFF
(1547754963.674821) can0 0CEFFF00#64068C7DFFFFFFFF
(1547754963.675414) can0 18EFFF00#641000000000007D
(1547754963.684361) can0 0CF00400#FEFFB78A07FFFFFF
(1547754963.694304) can0 0CF00300#FF0064FF06FFFFFF
(1547754963.694878) can0 0CEFFF00#64068C7DFFFFFFFF
(1547754963.704345) can0 0CF00400#FEFFB7A407FFFFFF
(1547754963.714244) can0 0CF00300#FF0064FF06FFFFFF
(1547754963.714815) can0 0CEFFF00#64068C7DFFFFFFFF
(1547754963.715388) can0 18FDB300#FFFF0E29FFFFFFFF
(1547754963.715989) can0 1CEFFF00#64070000FFFFFFFF
(1547754963.724315) can0 0CF00400#FEFFB78207FFFFFF
(1547754963.734286) can0 0CF00300#FF0064FF06FFFFFF
(1547754963.734854) can0 0CEFFF00#64068C7DFFFFFFFF
(1547754963.735454) can0 18FEF200#1F00FFFFFFFFFFFF
(1547754963.744304) can0 0CF00400#FEFFB72607FFFFFF
(1547754963.754251) can0 0CF00300#FF0064FF06FFFFFF
(1547754963.754821) can0 0CEFFF00#64068C7DFFFFFFFF
(1547754963.755417) can0 18EF0600#640E6706FFFFFFFF
(1547754963.764320) can0 0CF00400#FEFFB7B006FFFFFF
(1547754963.774237) can0 0CF00300#FF0064FF06FFFFFF
(1547754963.774809) can0 0CEFFF00#64068C7DFFFFFFFF
(1547754963.775407) can0 18EFFF00#641000000000007D
(1547754963.776012) can0 18FEDF00#81201CFFFFFFFFFF
(1547754963.784270) can0 0CF00400#FEFFB75006FFFFFF
(1547754963.794265) can0 0CF00300#FF0064FF06FFFFFF
(1547754963.794807) can0 0CEFFF00#64068C7DFFFFFFFF
(1547754963.795407) can0 18FEEF00#FFFFFF42FFFFFFFA
(1547754963.804433) can0 0CF00400#FEFFB7B805FFFFFF
(1547754963.814253) can0 0CF00300#FF0064FF06FFFFFF
(1547754963.814824) can0 0CEFFF00#64068C7DFFFFFFFF
(1547754963.824273) can0 0CF00400#FEFFB64205FFFFFF
(1547754963.834293) can0 0CF00300#FF0064FF06FFFFFF
(1547754963.834863) can0 0CEFFF00#64068C7DFFFFFFFF
(1547754963.835437) can0 18FEF200#1500FFFFFFFFFFFF
(1547754963.844234) can0 0CF00400#FEFFB68409FFFFFF
(1547754963.854207) can0 0CF00300#FF0064FF06FFFFFF
(1547754963.854778) can0 0CEFFF00#64068C7DFFFFFFFF
(1547754963.855351) can0 18EF0600#640E7106FFFFFFFF
(1547754963.864247) can0 0CF00400#FEFFB9140CFFFFFF
(1547754963.874227) can0 0CF00300#FF0064FF06FFFFFF
(1547754963.874818) can0 0CEFFF00#64068C7DFFFFFFFF
(1547754963.875416) can0 18EFFF00#641000000000007D
(1547754963.875967) can0 18FEF600#FF0042FF00FFFFFF
(1547754963.884243) can0 0CF00400#FEFFBA8A0CFFFFFF
(1547754963.894186) can0 18EFFA00#6401FF0000FFFFFF
(1547754963.894757) can0 0CEFFF00#64068C7DFFFFFFFF
(1547754963.895333) can0 0CF00300#FF0064FF06FFFFFF
(1547754963.904229) can0 0CF00400#FEFFBB1C0CFFFFFF
(1547754963.914200) can0 0CF00300#FF0064FF06FFFFFF
(1547754963.914748) can0 0CEFFF00#64068C7DFFFFFFFF
(1547754963.924368) can0 0CF00400#FEFFBB8A0AFFFFFF
(1547754963.934192) can0 0CF00300#FF0064FF06FFFFFF
(1547754963.934765) can0 0CEFFF00#64068C7DFFFFFFFF
(1547754963.935365) can0 18FEF200#2D00FFFFFFFFFFFF
(1547754963.944210) can0 0CF00400#FEFFB95A0BFFFFFF
(1547754963.954203) can0 0CF00300#FF0064FF06FFFFFF
(1547754963.954778) can0 0CEFFF00#64068C7DFFFFFFFF
(1547754963.955352) can0 18EF0600#640E7B06FFFFFFFF
(1547754963.964225) can0 0CF00400#FEFFBA3C0FFFFFFF
(1547754963.974193) can0 0CF00300#FF0064FF06FFFFFF
(1547754963.974770) can0 0CEFFF00#64068C7DFFFFFFFF
(1547754963.975341) can0 18EFFF00#641000000000007D
(1547754963.984239) can0 0CF00400#FEFFBC9A0DFFFFFF
(1547754963.994301) can0 0CF00300#FF0064FF06FFFFFF
(1547754963.994859) can0 0CEFFF00#64068C7DFFFFFFFF
(1547754963.995436) can0 18FEEE00#5443FFFFFFFFFFFF
(1547754964.004236) can0 0CF00400#FEFFBBDA0EFFFFFF
(1547754964.014181) can0 0CF00300#FF0064FF06FFFFFF
(1547754964.014750) can0 0CEFFF00#64068C7DFFFFFFFF
(1547754964.024185) can0 0CF00400#FEFFBCC40DFFFFFF
(1547754964.024759) can0 18FEDF00#85201CFFFFFFFFFF
(1547754964.034185) can0 0CF00300#FF0064FF06FFFFFF
(1547754964.034723) can0 0CEFFF00#64068C7DFFFFFFFF
(1547754964.035330) can0 18FEF200#3D00FFFFFFFFFFFF
(1547754964.044180) can0 0CF00400#FEFFBB5C11FFFFFF
(1547754964.054150) can0 0CF00300#FF0064FF06FFFFFF
(1547754964.054695) can0 0CEFFF00#64068C7DFFFFFFFF
(1547754964.055292) can0 18EF0600#640E8506FFFFFFFF
(1547754964.064145) can0 0CF00400#FEFFBE3810FFFFFF
(1547754964.074187) can0 0CF00300#FF0064FF06FFFFFF
(1547754964.074761) can0 0CEFFF00#64068C7DFFFFFFFF
(1547754964.075334) can0 18EFFF00#641000000000007D
(1547754964.075936) can0 18FEF700#FFFFFFFFFFFFCB00
(1547754964.084333) can0 0CF00400#FEFFBDFC10FFFFFF
(1547754964.094129) can0 0CF00300#FF0064FF06FFFFFF
(1547754964.094701) can0 0CEFFF00#64068C7DFFFFFFFF
(1547754964.104148) can0 0CF00400#FEFFBEFE11FFFFFF
(1547754964.114096) can0 0CF00300#FF0064FF06FFFFFF
(1547754964.114665) can0 0CEFFF00#64068C7DFFFFFFFF
(1547754964.124139) can0 0CF00400#FEFFBEDE12FFFFFF
(1547754964.134211) can0 0CF00300#FF0064FF06FFFFFF
(1547754964.134806) can0 0CEFFF00#64068C7DFFFFFFFF
(1547754964.135377) can0 18FEF200#5500FFFFFFFFFFFF
(1547754964.144405) can0 0CF00400#FEFFBFCA13FFFFFF
(1547754964.154101) can0 0CF00300#FF0064FF06FFFFFF
(1547754964.154671) can0 0CEFFF00#64068C7DFFFFFFFF
(1547754964.155242) can0 18EF0600#640E8F06FFFFFFFF
(1547754964.164119) can0 0CF00400#FEFFBFD014FFFFFF
(1547754964.174091) can0 0CF00300#FF0064FF06FFFFFF
(1547754964.174659) can0 0CEFFF00#64068C7DFFFFFFFF
(1547754964.175234) can0 18EFFF00#641000000000007D
(1547754964.175801) can0 18FED500#FFFFFCFFFFFFFFFF
(1547754964.184086) can0 0CF00400#FEFFBFB215FFFFFF
(1547754964.194154) can0 0CF00300#FF0064FF06FFFFFF
(1547754964.194724) can0 0CEFFF00#64068C7DFFFFFFFF
(1547754964.204176) can0 0CF00400#FEFFBFA816FFFFFF
(1547754964.214095) can0 0CF00300#FF0064FF06FFFFFF
(1547754964.214666) can0 0CEFFF00#64068C7DFFFFFFFF
(1547754964.215237) can0 18FDB300#FFFF1A29FFFFFFFF
(1547754964.224090) can0 0CF00400#FEFFC0A217FFFFFF
(1547754964.234185) can0 0CF00300#FF0064FF06FFFFFF
(1547754964.234779) can0 0CEFFF00#6406907DFFFFFFFF
(1547754964.235353) can0 18FEF200#6C00FFFFFFFFFFFF
(1547754964.244154) can0 0CF00400#FEFFC17818FFFFFF
(1547754964.254125) can0 0CF00300#FF0064FF06FFFFFF
(1547754964.254694) can0 0CEFFF00#6406937DFFFFFFFF
(1547754964.255266) can0 18EF0600#640E9906FFFFFFFF
(1547754964.264064) can0 0CF00400#FEFFC36619FFFFFF
(1547754964.274036) can0 0CF00300#FF0064FF06FFFFFF
(1547754964.274609) can0 0CEFFF00#6406957DFFFFFFFF
(1547754964.275209) can0 18EFFF00#641000000000007D
(1547754964.275786) can0 18FEDF00#8A201CFFFFFFFFFF
(1547754964.284135) can0 0CF00400#FEFFC45A1AFFFFFF
(1547754964.294278) can0 0CF00300#FF0064FF06FFFFFF
(1547754964.294849) can0 0CEFFF00#6406997DFFFFFFFF
(1547754964.295425) can0 18FEEF00#FFFFFF5CFFFFFFFA
(1547754964.304124) can0 0CF00400#FEFFC5441BFFFFFF
(1547754964.314047) can0 0CF00300#FF0064FF06FFFFFF
(1547754964.314616) can0 0CEFFF00#64069C7DFFFFFFFF
(1547754964.324165) can0 0CF00400#F8FFC71E1CFFFFFF
(1547754964.334181) can0 0CF00300#FF0064FF06FFFFFF
(1547754964.334754) can0 0CEFFF00#64069F7DFFFFFFFF
(1547754964.335329) can0 18FEF200#5200FFFFFFFFFFFF
(1547754964.344179) can0 0CF00400#F8FFC81E1DFFFFFF
(1547754964.354274) can0 0CF00300#FF0064FF06FFFFFF
(1547754964.354846) can0 0CEFFF00#6406A17DFFFFFFFF
(1547754964.355421) can0 18EF0600#640EA306FFFFFFFF
(1547754964.364019) can0 0CF00400#F8FFC9C81DFFFFFF
(1547754964.374063) can0 0CF00300#FF005BFF06FFFFFF
(1547754964.374634) can0 0CEFFF00#6406A27DFFFFFFFF
(1547754964.375209) can0 18EFFF00#641001010003007D
(1547754964.375785) can0 18FEF600#FF0040FF00FFFFFF
(1547754964.384137) can0 0CF00400#F0FFCA501EFFFFFF
(1547754964.393980) can0 0CF00300#FF0040FF06FFFFFF
(1547754964.394550) can0 0CEFFF00#6406767DFFFFFFFF
(1547754964.404001) can0 0CF00400#F0FFB9E01EFFFFFF
(1547754964.413996) can0 0CF00300#FF001FFF06FFFFFF
(1547754964.414566) can0 0CEFFF00#6406377DFFFFFFFF
(1547754964.424115) can0 0CF00400#F0FFA15C1FFFFFFF
(1547754964.424711) can0 18FFFA00#022C0000180C0081
(1547754964.433958) can0 0CF00300#FF0005FF06FFFFFF
(1547754964.434530) can0 0CEFFF00#6406FA7CFFFFFFFF
(1547754964.435105) can0 18FEF200#0B00FFFFFFFFFFFF
(1547754964.443978) can0 0CF00400#F0FF8AAC1FFFFFFF
(1547754964.453925) can0 0CF00300#FF0000FF06FFFFFF
(1547754964.454495) can0 0CEFFF00#6406D97CFFFFFFFF
(1547754964.455067) can0 18EF0600#640EAD06FFFFFFFF
(1547754964.455644) can0 18FEF500#C8FFFFFFFF3CFFFF
(1547754964.458347) can0 18EEFF47#4D74300400340220
(1547754964.458915) can0 18EEFF06#4D743004000E0020
(1547754964.459493) can0 18EEFF03#4D74300400030220
(1547754964.463942) can0 0CF00400#F1FF7DBC1FFFFFFF
(1547754964.473915) can0 0CF00300#FF0000FF06FFFFFF
(1547754964.474460) can0 0CEFFF00#6406D97CFFFFFFFF
(1547754964.475057) can0 18EFFF00#641001011003057D
(1547754964.483932) can0 0CF00400#F1FF7D801FFFFFFF
(1547754964.493877) can0 0CF00300#FF0000FF06FFFFFF
(1547754964.494451) can0 0CEFFF00#6406D97CFFFFFFFF
(1547754964.495022) can0 18FE6900#1825B027FFFF60FE
(1547754964.503895) can0 0CF00400#F1FF7D221FFFFFFF
(1547754964.513893) can0 0CF00300#FF0000FF06FFFFFF
(1547754964.514441) can0 0CEFFF00#6406DA7CFFFFFFFF
(1547754964.523910) can0 0CF00400#F1FF7DBC1EFFFFFF
(1547754964.524487) can0 18FEDF00#8CF01CFFFFFFFFFF
(1547754964.529158) can0 18EEFF17#0C6E240400130220
(1547754964.533882) can0 0CF00300#FF0008FF06FFFFFF
(1547754964.534458) can0 0CEFFF00#6406DA7CFFFFFFFF
(1547754964.535053) can0 18FEF200#0000FFFFFFFFFFFF
(1547754964.543901) can0 0CF00400#F1FF7D4A1EFFFFFF
(1547754964.553898) can0 0CF00300#FF0013FF06FFFFFF
(1547754964.554444) can0 0CEFFF00#6406F97CFFFFFFFF
(1547754964.555043) can0 18EF0600#640EB706FFFFFFFF
(1547754964.563889) can0 0CF00400#F1FF89E21DFFFFFF
(1547754964.573836) can0 0CF00300#FF0017FF06FFFFFF
(1547754964.574410) can0 0CEFFF00#6406FF7CFFFFFFFF
(1547754964.574982) can0 18EFFF00#64100101EC02037D
(1547754964.584204) can0 0CF00400#F1FF8B861DFFFFFF
(1547754964.593875) can0 0CF00300#FF001FFF06FFFFFF
(1547754964.594451) can0 0CEFFF00#6406137DFFFFFFFF
(1547754964.603838) can0 0CF00400#F1FF93361DFFFFFF
(1547754964.613871) can0 0CF00300#FF0020FF06FFFFFF
(1547754964.614441) can0 0CEFFF00#6406137DFFFFFFFF
(1547754964.614987) can0 18FD7C00#F880F1F500CF03FD
(1547754964.623910) can0 0CF00400#F0FF93FE1CFFFFFF
(1547754964.633860) can0 0CF00300#FF004EFF06FFFFFF
(1547754964.634432) can0 0CEFFF00#6406717DFFFFFFFF
(1547754964.635029) can0 18FEF200#3C00FFFFFFFFFFFF
(1547754964.643879) can0 0CF00400#F0FFB7D81CFFFFFF
(1547754964.653850) can0 0CF00300#FF004FFF06FFFFFF
(1547754964.654421) can0 0CEFFF00#6406777DFFFFFFFF
(1547754964.654993) can0 18EF0600#640EC106FFFFFFFF
(1547754964.663970) can0 0CF00400#F0FFB9C21CFFFFFF
(1547754964.673964) can0 0CF00300#FF0050FF06FFFFFF
(1547754964.674561) can0 0CEFFF00#64067A7DFFFFFFFF
(1547754964.675134) can0 18EFFF00#64100101E802037D
(1547754964.683860) can0 0CF00400#F0FFBAB21CFFFFFF
(1547754964.693831) can0 0CF00300#FF004DFF06FFFFFF
(1547754964.694374) can0 0CEFFF00#64067B7DFFFFFFFF
(1547754964.703826) can0 0CF00400#F0FFBB041DFFFFFF
(1547754964.713946) can0 0CF00300#FF003EFF06FFFFFF
(1547754964.714517) can0 0CEFFF00#6406677DFFFFFFFF
(1547754964.715089) can0 18FDB300#FFFF2629FFFFFFFF
(1547754964.715701) can0 1CEFFF00#64070000FFFFFFFF
(1547754964.719466) can0 0DEF0603#0101FFFFFFFFFFF5
(1547754964.723864) can0 0CF00400#F0FFB37A1DFFFFFF
(1547754964.733857) can0 0CF00300#FF002EFF06FFFFFF
(1547754964.734429) can0 0CEFFF00#6406427DFFFFFFFF
(1547754964.735029) can0 18FEF200#2E00FFFFFFFFFFFF
(1547754964.739357) can0 0DEF0647#0104FFFFFFFFFFF1
(1547754964.739976) can0 0DEF0603#0101FFFFFFFFFFF5
(1547754964.740352) can0 18EAFF47#00EE00
(1547754964.740951) can0 0CFFFE06#5CFFFFFFFFFFFFFF
(1547754964.743856) can0 0CF00400#F0FFA5C61DFFFFFF
(1547754964.754024) can0 0CF00300#FF0021FF06FFFFFF
(1547754964.754620) can0 0CEFFF00#6406297DFFFFFFFF
(1547754964.755193) can0 18EF0600#640ECB06FFFFFFFF
(1547754964.759474) can0 0DEF0603#0101FFFFFFFFFFF5
(1547754964.763798) can0 0CF00400#F0FF9B121EFFFFFF
(1547754964.773761) can0 0CF00300#FF0013FF06FFFFFF
(1547754964.774337) can0 0CEFFF00#64060D7DFFFFFFFF
(1547754964.774910) can0 18EFFF00#64100101F802067D
(1547754964.775484) can0 18FEDF00#8B201CFFFFFFFFFF
(1547754964.776233) can0 18EEFF00#56F5290400000220
(1547754964.779459) can0 0DEF0603#0101FFFFFFFFFFF5
(1547754964.780058) can0 0CFE4947#FFFFFFFFFFFFFFFF
(1547754964.780633) can0 0CFE4347#FFFFFFFFFFFFFFFF
(1547754964.781231) can0 0CFE4447#0000FFFF3FFFFFFF
(1547754964.783732) can0 0CF00400#F0FF91341EFFFFFF
(1547754964.793856) can0 0CF00300#FF000CFF06FFFFFF
(1547754964.794426) can0 0CEFFF00#6406F87CFFFFFFFF
(1547754964.794999) can0 18FEEF00#FFFFFF64FFFFFFFA
(1547754964.799427) can0 0DEF0603#0101FFFFFFFFFFF5
(1547754964.803774) can0 0CF00400#F1FF89301EFFFFFF
(1547754964.809595) can0 18EAFF17#00EE00
(1547754964.813721) can0 0CF00300#FF0000FF06FFFFFF
(1547754964.814292) can0 0CEFFF00#6406DA7CFFFFFFFF
(1547754964.819417) can0 0DEF0603#0101FFFFFFFFFFF5
(1547754964.819986) can0 18FEF147#FF0000FFFFFFFFFF
(1547754964.820586) can0 18F00503#FFFFFFFFFFFFFFFF
(1547754964.823765) can0 0CF00400#F1FF7D041EFFFFFF
(1547754964.828582) can0 18EEFF00#56F5290400000220
(1547754964.829688) can0 1CFFFF17#22FFFF3CFFFFFFFF
(1547754964.833759) can0 0CF00300#FF0000FF06FFFFFF
(1547754964.834306) can0 0CEFFF00#6406DA7CFFFFFFFF
(1547754964.834905) can0 18FEF200#0000FFFFFFFFFFFF
(1547754964.839328) can0 0DEF0647#0104FFFFFFFFFFF1
(1547754964.839926) can0 0DEF0603#0101FFFFFFFFFFF5
(1547754964.843756) can0 0CF00400#F1FF7DCC1DFFFFFF
(1547754964.853724) can0 0CF00300#FF000FFF06FFFFFF
(1547754964.854295) can0 0CEFFF00#6406E67CFFFFFFFF
(1547754964.854869) can0 18EF0600#640ED506FFFFFFFF
(1547754964.859419) can0 0DEF0603#0101FFFFFFFFFFF5
(1547754964.860018) can0 0CFE4947#FFFFFFFFFFFFFFFF
(1547754964.860618) can0 0CFE4347#FFFFFFFFFFFFFFFF
(1547754964.861217) can0 0CFE4447#0000FFFF3FFFFFFF
(1547754964.861840) can0 0CFFFE06#5CFFFFFFFFFFFFFF
(1547754964.863767) can0 0CF00400#F1FF826A1DFFFFFF
(1547754964.873665) can0 0CF00300#FF0015FF06FFFFFF
(1547754964.874309) can0 0CEFFF00#6406027DFFFFFFFF
(1547754964.874884) can0 18EFFF00#64100101E702057D
(1547754964.875412) can0 18FEF600#FF003FFF00FFFFFF
(1547754964.879364) can0 0DEF0603#0101FFFFFFFFFFF5
(1547754964.883785) can0 0CF00400#F1FF8C0A1DFFFFFF
(1547754964.893681) can0 18EFFA00#6401FF0000FFFFFF
(1547754964.894251) can0 0CEFFF00#6406117DFFFFFFFF
(1547754964.894822) can0 0CF00300#FF001BFF06FFFFFF
(1547754964.899374) can0 0DEF0603#0101FFFFFFFFFFF5
(1547754964.899972) can0 18FEF147#FF0000FFFFFFFFFF
(1547754964.900574) can0 18F00503#FFFFFFFFFFFFFFFF
(1547754964.903726) can0 0CF00400#F1FF92B61CFFFFFF
(1547754964.913720) can0 0CF00300#FF0021FF06FFFFFF
(1547754964.914291) can0 0CEFFF00#6406197DFFFFFFFF
(1547754964.919363) can0 0DEF0603#0101FFFFFFFFFFF5
(1547754964.923964) can0 0CF00400#F0FF95701CFFFFFF
(1547754964.933760) can0 0CF00300#FF003BFF06FFFFFF
(1547754964.934331) can0 0CEFFF00#64064A7DFFFFFFFF
(1547754964.934930) can0 18FEF200#2F00FFFFFFFFFFFF
(1547754964.939278) can0 0DEF0647#0104FFFFFFFFFFF1
(1547754964.939878) can0 0DEF0603#0101FFFFFFFFFFF5
(1547754964.940504) can0 0CFFFE06#5CFFFFFFFFFFFFFF
(1547754964.943755) can0 0CF00400#F0FFA8301CFFFFFF
(1547754964.953723) can0 0CF00300#FF003CFF06FFFFFF
(1547754964.954295) can0 0CEFFF00#6406517DFFFFFFFF
(1547754964.954868) can0 18EF0600#640EDF06FFFFFFFF
(1547754964.959844) can0 0DEF0603#0101FFFFFFFFFFF5
(1547754964.960992) can0 0C000006#30FFFFFFF8FFFFFF
(1547754964.961547) can0 04EF0006#641510F00000930E
(1547754964.963817) can0 0CF00400#F0FFAA261CFFFFFF
(1547754964.969481) can0 18EA0017#09FF00
(1547754964.973841) can0 0CF00300#FF003CFF06FFFFFF
(1547754964.974411) can0 0CEFFF00#6406517DFFFFFFFF
(1547754964.974983) can0 18EFFF00#64100101D802037D
(1547754964.976559) can0 18FF0900#454355FFFFFFFFFF
(1547754964.979834) can0 0DEF0603#0101FFFFFFFFFFF5
(1547754964.981057) can0 04EF0006#641510F00000930E
(1547754964.981607) can0 0CFE4947#FFFFFFFFFFFFFFFF
(1547754964.982205) can0 18FFFB06#0005E1F8FFFFFFFF
(1547754964.982781) can0 0CFE4347#FFFFFFFFFFFFFFFF
(1547754964.983381) can0 0CFE4447#0000FFFF3FFFFFFF
(1547754964.983930) can0 0CF00400#F0FFAA241CFFFFFF
(1547754964.984507) can0 0CFFFE06#5C271D271DFFFFFF
(1547754964.993651) can0 0CF00300#FF003BFF06FFFFFF
(1547754964.994228) can0 0CEFFF00#6406517DFFFFFFFF
(1547754964.994806) can0 18FEEE00#5443FFFFFFFFFFFF
(1547754964.999824) can0 0DEF0603#0101FFFFFFFFFFF5
(1547754965.001049) can0 04EF0006#641510F00000930E
(1547754965.003700) can0 0CF00400#F0FFAA441CFFFFFF
(1547754965.013971) can0 0CF00300#FF0037FF06FFFFFF
(1547754965.014540) can0 0CEFFF00#64064C7DFFFFFFFF
(1547754965.019815) can0 0DEF0603#0101FFFFFFFFFFF5
(1547754965.021036) can0 04EF0006#641510F00000930E
(1547754965.021584) can0 18FEF147#FF0000FFFFFFFFFF
(1547754965.022187) can0 18F00503#FFFFFFFFFFFFFFFF
(1547754965.023686) can0 0CF00400#F0FFA8861CFFFFFF
(1547754965.024263) can0 18FEDF00#8B201CFFFFFFFFFF
(1547754965.033685) can0 0CF00300#FF0033FF06FFFFFF
(1547754965.034256) can0 0CEFFF00#6406437DFFFFFFFF
(1547754965.034829) can0 18FEF200#2D00FFFFFFFFFFFF
(1547754965.039708) can0 0DEF0647#0104FFFFFFFFFFF1
(1547754965.040304) can0 0DEF0603#0101FFFFFFFFFFF5
(1547754965.041478) can0 04EF0006#641510F00000930E
(1547754965.043702) can0 0CF00400#F0FFA5BA1CFFFFFF
(1547754965.053677) can0 0CF00300#FF002EFF06FFFFFF
(1547754965.054244) can0 0CEFFF00#64063B7DFFFFFFFF
(1547754965.054819) can0 18EF0600#640EE900FFFFFFFF
(1547754965.060095) can0 0DEF0603#0101FFFFFFFFFFF5
(1547754965.061292) can0 04EF0006#641510F00000930E
(1547754965.061866) can0 0CFE4947#FFFFFFFFFFFFFFFF
(1547754965.062468) can0 0CFFFF47#5DFFFFF3FFFFFFFF
(1547754965.063067) can0 0CFE4347#0000FFFF3FFFFFFF
(1547754965.063664) can0 0CFE4447#0000FFFF3FFFFFFF
(1547754965.064167) can0 0CF00400#F0FFA2E61CFFFFFF
(1547754965.073590) can0 0CF00300#FF0029FF06FFFFFF
(1547754965.074210) can0 0CEFFF00#6406327DFFFFFFFF
(1547754965.074734) can0 18EFFF00#64100101E702057D
(1547754965.075338) can0 18FEF700#FFFFFFFFFFFFED00
(1547754965.080013) can0 0DEF0603#0101FFFFFFFFFFF5
(1547754965.081222) can0 04EF0006#641510F00000930E
(1547754965.083730) can0 0CF00400#F0FF9E141DFFFFFF
(1547754965.093706) can0 0CF00300#FF0021FF06FFFFFF
(1547754965.094277) can0 0CEFFF00#6406257DFFFFFFFF
(1547754965.100052) can0 0DEF0603#0101FFFFFFFFFFF5
(1547754965.101248) can0 04EF0006#641510F00000930E
(1547754965.101830) can0 0CFFFE06#5C271D271DFFFFFF
(1547754965.102407) can0 18FEF147#FF0000FFFFFFFFFF
(1547754965.103006) can0 18FFFB06#0005B4F8FFFFFFFF
(1547754965.103603) can0 18F00503#7DFFFFFFFFFFFFFF
(1547754965.104155) can0 0CF00400#F0FF99481DFFFFFF
(1547754965.113581) can0 0CF00300#FF0019FF06FFFFFF
(1547754965.114201) can0 0CEFFF00#6406137DFFFFFFFF
(1547754965.120007) can0 0DEF0603#0101FFFFFFFFFFF5
(1547754965.121200) can0 04EF0006#641510F00000930E
(1547754965.123670) can0 0CF00400#F0FF93541DFFFFFF
(1547754965.133691) can0 0CF00300#FF0000FF06FFFFFF
(1547754965.134265) can0 0CEFFF00#64060C7DFFFFFFFF
(1547754965.134863) can0 18FEF200#1100FFFFFFFFFFFF
(1547754965.139716) can0 0DEF0647#0104FFFFFFFFFFF1
(1547754965.140313) can0 0DEF0603#0101FFFFFFFFFFF5
(1547754965.141387) can0 04EF0006#641510F00000930E
(1547754965.141986) can0 18FFFF06#73FFFFFFFFFFFFFF
(1547754965.143012) can0 18EEFF47#4D74300400340220
(1547754965.143609) can0 18EEFF06#4D743004000E0020
(1547754965.144162) can0 0CF00400#FEFF90481DFFFFFF
(1547754965.144735) can0 18EEFF03#4D74300400030220
(1547754965.145284) can0 18EEFF17#0C6E240400130220
(1547754965.153560) can0 0CF00300#FF0011FF06FFFFFF
(1547754965.154181) can0 0CEFFF00#6406DD7CFFFFFFFF
(1547754965.154706) can0 18EF0600#640EF300FFFFFFFF
(1547754965.159998) can0 0DEF0603#0101FFFFFFFFFFF5
(1547754965.161203) can0 04EF0006#641510F00000930E
(1547754965.163627) can0 0CF00400#FEFF7E1E1DFFFFFF
(1547754965.173599) can0 0CF00300#FF001CFF06FFFFFF
(1547754965.174171) can0 0CEFFF00#6406067DFFFFFFFF
(1547754965.174745) can0 18EFFF00#64100101E402057D
(1547754965.175319) can0 18FED500#FFFFFDFFFFFFFFFF
(1547754965.179996) can0 0DEF0603#0101FFFFFFFFFFF5
(1547754965.181185) can0 04EF0006#641510F00000930E
(1547754965.181767) can0 0CFE4947#FFFFFFFFFFFFFFFF
(1547754965.182331) can0 1CFDDF47#FDFFFFFFFFFFFFFF
(1547754965.182935) can0 0CFE4347#0000FFFF3FFFFFFF
(1547754965.183498) can0 0CFE4447#0000FFFF3FFFFFFF
(1547754965.184063) can0 0CF00400#FEFF8EC21CFFFFFF
(1547754965.184634) can0 0CFFFE06#5C271D271DFFFFFF
(1547754965.193593) can0 0CF00300#FF0026FF06FFFFFF
(1547754965.194164) can0 0CEFFF00#6406187DFFFFFFFF
(1547754965.199962) can0 0DEF0603#0101FFFFFFFFFFF5
(1547754965.201174) can0 04EF0006#641510F00000930E
(1547754965.203571) can0 0CF00400#FEFF94661CFFFFFF
(1547754965.213598) can0 0CF00300#FF002FFF06FFFFFF
(1547754965.214169) can0 0CEFFF00#6406227DFFFFFFFF
(1547754965.214747) can0 18FDB300#FFFF2629FFFFFFFF
(1547754965.219969) can0 0DEF0603#0101FFFFFFFFFFF5
(1547754965.221165) can0 04EF0006#641510F00000930E
(1547754965.221744) can0 18FEF147#FF0000FFFFFFFFFF
(1547754965.222342) can0 18F00647#FFCFFFFFFFFFFFFF
(1547754965.222936) can0 18FFFB06#000596F8FFFFFFFF
(1547754965.223541) can0 18F00503#7DFFFFFFFFFFFFFF
(1547754965.224099) can0 0CF00400#F0FF98441CFFFFFF
(1547754965.233695) can0 0CF00300#FF0030FF06FFFFFF
(1547754965.234283) can0 0CEFFF00#6406397DFFFFFFFF
(1547754965.234893) can0 18FEF200#2800FFFFFFFFFFFF
(1547754965.239618) can0 0DEF0647#0104FFFFFFFFFFF1
(1547754965.240240) can0 0DEF0603#0101FFFFFFFFFFF5
(1547754965.241301) can0 04EF0006#641511F07319930E
(1547754965.243551) can0 0CF00400#F0FFA12C1CFFFFFF
(1547754965.253491) can0 0CF00300#FF0029FF06FFFFFF
(1547754965.254057) can0 0CEFFF00#64063B7DFFFFFFFF
(1547754965.254662) can0 18EF0600#640EFD00FFFFFFFF
(1547754965.259964) can0 0DEF0603#0101FFFFFFFFFFF5
(1547754965.261135) can0 04EF0006#641512F01119930E
(1547754965.261715) can0 0CFE4947#FFFFFFFFFFFFFFFF
(1547754965.262312) can0 0CFE4347#0000FFFF3FFFFFFF
(1547754965.262907) can0 0CFE4447#0000FFFF3FFFFFFF
(1547754965.263609) can0 0CF00400#F0FFA22E1CFFFFFF
(1547754965.273758) can0 0CF00300#FF0028FF06FFFFFF
(1547754965.274353) can0 0CEFFF00#64063A7DFFFFFFFF
(1547754965.274920) can0 18EFFF00#64100101D702037D
(1547754965.275483) can0 18FEDF00#8B201CFFFFFFFFFF
(1547754965.279909) can0 0DEF0603#0101FFFFFFFFFFF5
(1547754965.281108) can0 04EF0006#641513F01119930E
(1547754965.283563) can0 0CF00400#F0FFA24A1CFFFFFF
(1547754965.293516) can0 0CF00300#FF0026FF06FFFFFF
(1547754965.294094) can0 0CEFFF00#6406367DFFFFFFFF
(1547754965.294674) can0 18FEEF00#FFFFFF64FFFFFFFA
(1547754965.299943) can0 0DEF0603#0101FFFFFFFFFFF5
(1547754965.301115) can0 04EF0006#641514F00B19930E
(1547754965.301694) can0 0CFFFE06#5C271D271DFFFFFF
(1547754965.302261) can0 18FEF147#FF0000FFFFFFFFFF
(1547754965.302865) can0 18F00503#7DFFFFFFFFFFFFFF
(1547754965.303592) can0 0CF00400#F0FFA0681CFFFFFF
(1547754965.313522) can0 0CF00300#FF0025FF06FFFFFF
(1547754965.314108) can0 0CEFFF00#6406327DFFFFFFFF
(1547754965.319931) can0 0DEF0603#0101FFFFFFFFFFF5
(1547754965.321127) can0 04EF0006#641515F0C118930E
(1547754965.323582) can0 0CF00400#F0FF9E7E1CFFFFFF
(1547754965.329328) can0 18EA4717#09FF00
(1547754965.329729) can0 18EA0617#09FF00
(1547754965.330122) can0 18EA0317#09FF00
(1547754965.333524) can0 0CF00300#FF0023FF06FFFFFF
(1547754965.334098) can0 0CEFFF00#64062E7DFFFFFFFF
(1547754965.334677) can0 18FEF200#2300FFFFFFFFFFFF
(1547754965.339599) can0 0DEF0647#0104FFFFFFFFFFF1
(1547754965.340196) can0 0DEF0603#0101FFFFFFFFFFF5
(1547754965.341241) can0 04EF0006#641516F02F19930E
(1547754965.341845) can0 18FF0947#434355FFFFFFFFFF
(1547754965.342398) can0 18FF0906#454943FFFFFFFFFF
(1547754965.342991) can0 18FF0903#505452FFFFFFFFFF
(1547754965.343553) can0 0CF00400#F0FF9D981CFFFFFF
(1547754965.344152) can0 18FFFB06#0005B2F8FFFFFFFF
(1547754965.344741) can0 18FECA06#00FF00000000FFFF
(1547754965.345377) can0 18FECA47#00FF00000000FFFF
(1547754965.346567) can0 18FECA03#00FF00000000FFFF
(1547754965.353667) can0 0CF00300#FF0021FF06FFFFFF
(1547754965.354234) can0 0CEFFF00#64062A7DFFFFFFFF
(1547754965.354841) can0 18EF0600#640E0700FFFFFFFF
(1547754965.359913) can0 0DEF0603#0101FFFFFFFFFFF5
(1547754965.361107) can0 04EF0006#641517F02D19930E
(1547754965.363637) can0 0CF00400#F0FF9BB61CFFFFFF
(1547754965.373477) can0 0CF00300#FF001FFF06FFFFFF
(1547754965.374054) can0 0CEFFF00#6406267DFFFFFFFF
(1547754965.374632) can0 18EFFF00#64100101E102057D
(1547754965.375203) can0 18FEF600#FF003FFF00FFFFFF
(1547754965.379881) can0 0DEF0603#0101FFFFFFFFFFF5
(1547754965.381075) can0 04EF0006#641518F03019930E
(1547754965.381653) can0 0CFE4947#FFFFFFFFFFFFFFFF
(1547754965.382251) can0 0CFE4347#0000FFFF3FFFFFFF
(1547754965.382845) can0 0CFE4447#0000FFFF3FFFFFFF
(1547754965.383407) can0 0CFFFE06#5C271D271DFFFFFF
(1547754965.383983) can0 0CF00400#F0FF9AC61CFFFFFF
(1547754965.393497) can0 0CF00300#FF001FFF06FFFFFF
(1547754965.394068) can0 0CEFFF00#6406227DFFFFFFFF
(1547754965.399869) can0 0DEF0603#0101FFFFFFFFFFF5
(1547754965.401065) can0 04EF0006#641519F0EB18930E
(1547754965.403566) can0 0CF00400#F0FF98C41CFFFFFF
(1547754965.410813) can0 18FECA17#00FF00000000FFFF
(1547754965.413512) can0 0CF00300#FF001EFF06FFFFFF
(1547754965.414081) can0 0CEFFF00#6406217DFFFFFFFF
(1547754965.419883) can0 0DEF0603#0101FFFFFFFFFFF5
(1547754965.421055) can0 04EF0006#64151AF0EB18930E
(1547754965.421635) can0 18FEF147#FF0000FFFFFFFFFF
(1547754965.422229) can0 18F00503#7DFFFFFFFFFFFFFF
(1547754965.423478) can0 0CF00400#FEFF98C81CFFFFFF
(1547754965.424053) can0 18FFFA00#022C0000180C0081
(1547754965.433477) can0 0CF00300#FF0013FF06FFFFFF
(1547754965.434049) can0 0CEFFF00#6406E47CFFFFFFFF
(1547754965.434627) can0 18FEF200#0200FFFFFFFFFFFF
(1547754965.439549) can0 0DEF0647#0104FFFFFFFFFFF1
(1547754965.440145) can0 0DEF0603#0101FFFFFFFFFFF5
(1547754965.441319) can0 04EF0006#64151BF0F218930E
(1547754965.443519) can0 0CF00400#FEFF80C21CFFFFFF
(1547754965.453437) can0 0CF00300#FF0017FF06FFFFFF
(1547754965.454016) can0 0CEFFF00#64060D7DFFFFFFFF
(1547754965.454592) can0 18EF0600#640E1100FFFFFFFF
(1547754965.455163) can0 18FEF500#C8FFFFFFFF3BFFFF
(1547754965.459060) can0 18EAFF06#E5FE00
(1547754965.460059) can0 0DEF0603#0101FFFFFFFFFFF5
(1547754965.461235) can0 04EF0006#64151CF0EB18930E
(1547754965.461806) can0 0CFE4947#FFFFFFFFFFFFFFFF
(1547754965.462386) can0 18FFFB06#00057DF8FFFFFFFF
(1547754965.462953) can0 0CFE4347#0000FFFF3FFFFFFF
(1547754965.463534) can0 0CF00400#FEFF90AE1CFFFFFF
(1547754965.464110) can0 0CFE4447#0000FFFF3FFFFFFF
(1547754965.464680) can0 18FEE706#CC0A0000FFFFFFFF
(1547754965.473390) can0 0CF00300#FF0019FF06FFFFFF
(1547754965.473962) can0 0CEFFF00#6406137DFFFFFFFF
(1547754965.474533) can0 18EFFF00#64100101DC02057D
(1547754965.475877) can0 18FEE500#CD0A0000FFFFFFFF
(1547754965.479979) can0 0DEF0603#0101FFFFFFFFFFF5
(1547754965.481173) can0 04EF0006#64151DF0E818930E
(1547754965.483549) can0 0CF00400#FEFF93941CFFFFFF
(1547754965.489398) can0 1CFFFF17#22FFFF3CFFFFFFFF
(1547754965.493543) can0 0CF00300#FF001CFF06FFFFFF
(1547754965.494120) can0 0CEFFF00#6406197DFFFFFFFF
(1547754965.494697) can0 18FE6900#0225B227FFFF60FE
(1547754965.499968) can0 0DEF0603#0101FFFFFFFFFFF5
(1547754965.501164) can0 04EF0006#64151EF07F18930E
(1547754965.501765) can0 0CFFFE06#5C271D271DFFFFFF
(1547754965.502286) can0 18FEF147#FF0000FFFFFFFFFF
(1547754965.502889) can0 18F00503#7DFFFFFFFFFFFFFF
(1547754965.503494) can0 0CF00400#FEFF95701CFFFFFF
(1547754965.513421) can0 0CF00300#FF0020FF06FFFFFF
(1547754965.514008) can0 0CEFFF00#6406207DFFFFFFFF
(1547754965.519956) can0 0DEF0603#0101FFFFFFFFFFF5
(1547754965.521132) can0 04EF0006#64151FF0C718930E
(1547754965.523432) can0 0CF00400#FEFF984C1CFFFFFF
(1547754965.524025) can0 18FEDF00#8B361CFFFFFFFFFF
(1547754965.533452) can0 0CF00300#FF0021FF06FFFFFF
(1547754965.533999) can0 0CEFFF00#6406257DFFFFFFFF
(1547754965.534603) can0 18FEF200#1E00FFFFFFFFFFFF
(1547754965.539499) can0 0DEF0647#0104FFFFFFFFFFF1
(1547754965.540172) can0 0DEF0603#0101FFFFFFFFFFF5
(1547754965.541370) can0 04EF0006#641510F00B19930E
(1547754965.543444) can0 0CF00400#FEFF992E1CFFFFFF
(1547754965.553386) can0 0CF00300#FF0024FF06FFFFFF
(1547754965.553938) can0 0CEFFF00#6406297DFFFFFFFF
(1547754965.554510) can0 18EF0600#640E1B00FFFFFFFF
(1547754965.559938) can0 0DEF0603#0101FFFFFFFFFFF5
(1547754965.561133) can0 04EF0006#641511F01119930E
(1547754965.563403) can0 0CF00400#F0FF9B281CFFFFFF
(1547754965.573378) can0 0CF00300#FF0024FF06FFFFFF
(1547754965.573954) can0 0CEFFF00#64062F7DFFFFFFFF
(1547754965.574532) can0 18EFFF00#64100101D502037D
(1547754965.579959) can0 0DEF0603#0101FFFFFFFFFFF5
(1547754965.581157) can0 04EF0006#641512F01119930E
(1547754965.581760) can0 0CFE4947#FFFFFFFFFFFFFFFF
(1547754965.582309) can0 18FFFB06#0005A9F8FFFFFFFF
(1547754965.582881) can0 0CFFFF47#5DFFFFF3FFFFFFFF
(1547754965.583482) can0 0CFE4347#0000FFFF3FFFFFFF
(1547754965.584008) can0 0CF00400#F0FF9D241CFFFFFF
(1547754965.584587) can0 0CFE4447#0000FFFF3FFFFFFF
(1547754965.585206) can0 0CFFFE06#5C271D271DFFFFFF
(1547754965.593370) can0 0CF00300#FF0024FF06FFFFFF
(1547754965.593952) can0 0CEFFF00#64062F7DFFFFFFFF
(1547754965.599949) can0 0DEF0603#0101FFFFFFFFFFF5
(1547754965.601148) can0 04EF0006#641513F00B19930E
(1547754965.603446) can0 0CF00400#F0FF9D2A1CFFFFFF
(1547754965.613346) can0 0CF00300#FF0023FF06FFFFFF
(1547754965.613915) can0 0CEFFF00#64062E7DFFFFFFFF
(1547754965.614488) can0 18FD7C00#F880F1F000CF03FD
(1547754965.619942) can0 0DEF0603#0101FFFFFFFFFFF5
(1547754965.621136) can0 04EF0006#641514F01119930E
(1547754965.621738) can0 18FEF147#FF0000FFFFFFFFFF
(1547754965.622310) can0 18FFFB06#001BFFFFFFFFFFFF
(1547754965.622913) can0 18F00503#7DFFFFFFFFFFFFFF
(1547754965.623534) can0 0CF00400#F0FF9D421CFFFFFF
(1547754965.633386) can0 0CF00300#FF0021FF06FFFFFF
(1547754965.633982) can0 0CEFFF00#64062A7DFFFFFFFF
(1547754965.634581) can0 18FEF200#2000FFFFFFFFFFFF
(1547754965.639434) can0 0DEF0647#0104FFFFFFFFFFF1
(1547754965.640029) can0 0DEF0603#0101FFFFFFFFFFF5
(1547754965.641277) can0 04EF0006#641515F07319930E
(1547754965.643403) can0 0CF00400#F0FF9B561CFFFFFF
(1547754965.653350) can0 0CF00300#FF0021FF06FFFFFF
(1547754965.653921) can0 0CEFFF00#6406287DFFFFFFFF
(1547754965.654494) can0 18EF0600#640E2500FFFFFFFF
(1547754965.659927) can0 0DEF0603#0101FFFFFFFFFFF5
(1547754965.661127) can0 04EF0006#641516F0D018930E
(1547754965.661731) can0 0CFE4947#FFFFFFFFFFFFFFFF
(1547754965.662302) can0 18FE6847#3CFFFFFFFFFFFFFF
(1547754965.662876) can0 0CFE4347#0000FFFF3FFFFFFF
(1547754965.663474) can0 18FFFF06#73FFFFFFFFFFFFFF
(1547754965.663980) can0 0CF00400#F0FF9B581CFFFFFF
(1547754965.664560) can0 0CFE4447#0000FFFF3FFFFFFF
(1547754965.673527) can0 0CF00300#FF0020FF06FFFFFF
(1547754965.674094) can0 0CEFFF00#6406277DFFFFFFFF
(1547754965.674623) can0 18EFFF00#64100101D802057D
(1547754965.679852) can0 0DEF0603#0101FFFFFFFFFFF5
(1547754965.681117) can0 04EF0006#641517F0C618930E
(1547754965.683444) can0 0CF00400#F0FF9A5E1CFFFFFF
(1547754965.693391) can0 0CF00300#FF0020FF06FFFFFF
(1547754965.693959) can0 0CEFFF00#6406267DFFFFFFFF
(1547754965.699908) can0 0DEF0603#0101FFFFFFFFFFF5
(1547754965.701107) can0 04EF0006#641518F0C618930E
(1547754965.701706) can0 0CFFFF47#5EFFFFFFFFFFFFFF
(1547754965.702254) can0 18FEF147#FF0000FFFFFFFFFF
(1547754965.702807) can0 0CFFFE06#5C271D271DFFFFFF
(1547754965.703381) can0 18FEFC47#FFFFFFFFFFFFFFFF
(1547754965.703956) can0 0CF00400#F0FF9A621CFFFFFF
(1547754965.704485) can0 18EF0047#F220610FFFFFFFFF
(1547754965.705083) can0 18F00647#FFCFFFFFFFFFFFFF
(1547754965.705661) can0 1CFDDF47#FDFFFFFFFFFFFFFF
(1547754965.706288) can0 18FFFB06#0005A7F8FFFFFFFF
(1547754965.706931) can0 18F00503#7DFFFFFFFFFFFFFF
(1547754965.713757) can0 0CF00300#FF0020FF06FFFFFF
(1547754965.714324) can0 0CEFFF00#6406257DFFFFFFFF
(1547754965.714901) can0 18FDB300#FFFF2629FFFFFFFF
(1547754965.715498) can0 1CEFFF00#64070000FFFFFFFF
(1547754965.719898) can0 0DEF0603#0101FFFFFFFFFFF5
(1547754965.721097) can0 04EF0006#641519F07319930E
(1547754965.723401) can0 0CF00400#F0FF995A1CFFFFFF
(1547754965.733417) can0 0CF00300#FF0020FF06FFFFFF
(1547754965.733991) can0 0CEFFF00#6406267DFFFFFFFF
(1547754965.734568) can0 18FEF200#1F00FFFFFFFFFFFF
(1547754965.739437) can0 0DEF0647#0104FFFFFFFFFFF1
(1547754965.740038) can0 0DEF0603#0101FFFFFFFFFFF5
(1547754965.741212) can0 04EF0006#64151AF0D018930E
(1547754965.743362) can0 0CF00400#F0FF9A5E1CFFFFFF
(1547754965.753383) can0 0CF00300#FF001FFF06FFFFFF
(1547754965.753957) can0 0CEFFF00#6406257DFFFFFFFF
(1547754965.754529) can0 18EF0600#640E2F00FFFFFFFF
(1547754965.759904) can0 0DEF0603#0101FFFFFFFFFFF5
(1547754965.761076) can0 04EF0006#64151BF0C618930E
(1547754965.763429) can0 0CF00400#F0FF99681CFFFFFF
(1547754965.773325) can0 0CF00300#FF001FFF06FFFFFF
(1547754965.773896) can0 0CEFFF00#6406237DFFFFFFFF
(1547754965.774467) can0 18EFFF00#64100101D802057D
(1547754965.775045) can0 18FEDF00#8B201CFFFFFFFFFF
(1547754965.779867) can0 0DEF0603#0101FFFFFFFFFFF5
(1547754965.781066) can0 04EF0006#64151CF0C118930E
(1547754965.781665) can0 0CFE4947#FFFFFFFFFFFFFFFF
(1547754965.782235) can0 0CFE4347#0000FFFF3FFFFFFF
(1547754965.782834) can0 0CFE4447#0000FFFF3FFFFFFF
(1547754965.783341) can0 0CF00400#F0FF99621CFFFFFF
(1547754965.783889) can0 0CFFFE06#5C271D271DFFFFFF
(1547754965.793383) can0 0CF00300#FF001FFF06FFFFFF
(1547754965.793956) can0 0CEFFF00#6406237DFFFFFFFF
(1547754965.794503) can0 18FEEF00#FFFFFF63FFFFFFFA
(1547754965.799809) can0 0DEF0603#0101FFFFFFFFFFF5
(1547754965.801051) can0 04EF0006#64151DF07319930E
(1547754965.803405) can0 0CF00400#F0FF995A1CFFFFFF
(1547754965.813269) can0 0CF00300#FF001FFF06FFFFFF
(1547754965.813844) can0 0CEFFF00#6406247DFFFFFFFF
(1547754965.819817) can0 0DEF0603#0101FFFFFFFFFFF5
(1547754965.821039) can0 04EF0006#64151EF0D018930E
(1547754965.821641) can0 18FEF147#FF0000FFFFFFFFFF
(1547754965.822213) can0 18FFFB06#0005A4F8FFFFFFFF
(1547754965.822814) can0 18F00503#7DFFFFFFFFFFFFFF
(1547754965.823362) can0 0CF00400#F0FF99561CFFFFFF
(1547754965.833309) can0 0CF00300#FF0020FF06FFFFFF
(1547754965.833885) can0 0CEFFF00#6406247DFFFFFFFF
(1547754965.834483) can0 18FEF200#1E00FFFFFFFFFFFF
(1547754965.839342) can0 0DEF0647#0104FFFFFFFFFFF1
(1547754965.839930) can0 0DEF0603#0101FFFFFFFFFFF5
(1547754965.841154) can0 04EF0006#64151FF0C918930E
(1547754965.843385) can0 0CF00400#F0FF994A1CFFFFFF
(1547754965.853277) can0 0CF00300#FF0020FF06FFFFFF
(1547754965.853855) can0 0CEFFF00#6406257DFFFFFFFF
(1547754965.854410) can0 18EF0600#640E3900FFFFFFFF
(1547754965.859823) can0 0DEF0603#0101FFFFFFFFFFF5
(1547754965.861023) can0 04EF0006#641510F00B19930E
(1547754965.861626) can0 0CFE4947#FFFFFFFFFFFFFFFF
(1547754965.862193) can0 0CFE4347#0000FFFF3FFFFFFF
(1547754965.862800) can0 0CFE4447#0000FFFF3FFFFFFF
(1547754965.863369) can0 0CF00400#F0FF993A1CFFFFFF
(1547754965.873219) can0 0CF00300#FF0021FF06FFFFFF
(1547754965.873844) can0 0CEFFF00#6406277DFFFFFFFF
(1547754965.874414) can0 18EFFF00#64100101D402057D
(1547754965.874947) can0 18FEF600#FF003EFF00FFFFFF
(1547754965.879750) can0 0DEF0603#0101FFFFFFFFFFF5
(1547754965.880945) can0 04EF0006#641511F0CC18930E
(1547754965.883336) can0 0CF00400#F0FF9A3E1CFFFFFF
(1547754965.893338) can0 18EFFA00#6401FF0000FFFFFF
(1547754965.893941) can0 0CEFFF00#6406267DFFFFFFFF
(1547754965.894539) can0 0CF00300#FF0020FF06FFFFFF
(1547754965.899787) can0 0DEF0603#0101FFFFFFFFFFF5
(1547754965.900985) can0 04EF0006#641512F0CC18930E
(1547754965.901534) can0 0CFFFE06#5C271D271DFFFFFF
(1547754965.902112) can0 18FEF147#FF0000FFFFFFFFFF
(1547754965.902710) can0 18F00503#7DFFFFFFFFFFFFFF
(1547754965.903309) can0 0CF00400#F0FF9A421CFFFFFF
(1547754965.913196) can0 0CF00300#FF0020FF06FFFFFF
(1547754965.913810) can0 0CEFFF00#6406257DFFFFFFFF
(1547754965.919780) can0 0DEF0603#0101FFFFFFFFFFF5
(1547754965.920976) can0 04EF0006#641513F07319930E
(1547754965.923303) can0 0CF00400#F0FF99361CFFFFFF
(1547754965.933524) can0 0CF00300#FF0021FF06FFFFFF
(1547754965.934095) can0 0CEFFF00#6406277DFFFFFFFF
(1547754965.934671) can0 18FEF200#1F00FFFFFFFFFFFF
(1547754965.939321) can0 0DEF0647#0104FFFFFFFFFFF1
(1547754965.939920) can0 0DEF0603#0101FFFFFFFFFFF5
(1547754965.941091) can0 04EF0006#641514F00719930E
(1547754965.941691) can0 18FFFB06#0005A4F8FFFFFFFF
(1547754965.943268) can0 0CF00400#F0FF9A321CFFFFFF
(1547754965.953211) can0 0CF00300#FF0021FF06FFFFFF
(1547754965.953788) can0 0CEFFF00#6406277DFFFFFFFF
(1547754965.954335) can0 18EF0600#640E4300FFFFFFFF
(1547754965.959786) can0 0DEF0603#0101FFFFFFFFFFF5
(1547754965.960934) can0 0C000006#30FFFFFFF8FFFFFF
(1547754965.961472) can0 04EF0006#641515F00719930E
(1547754965.963257) can0 0CF00400#F0FF9A321CFFFFFF
(1547754965.973276) can0 0CF00300#FF0021FF06FFFFFF
(1547754965.973852) can0 0CEFFF00#6406277DFFFFFFFF
(1547754965.974425) can0 18EFFF00#64100101D302057D
(1547754965.979751) can0 0DEF0603#0101FFFFFFFFFFF5
(1547754965.980946) can0 04EF0006#641516F00719930E
(1547754965.981549) can0 0CFE4947#FFFFFFFFFFFFFFFF
(1547754965.982122) can0 0CFE4347#0000FFFF3FFFFFFF
(1547754965.982723) can0 0CFE4447#0000FFFF3FFFFFFF
(1547754965.983320) can0 0CFFFE06#5C271D271DFFFFFF
(1547754965.983839) can0 0CF00400#F0FF9A281CFFFFFF
(1547754965.993188) can0 0CF00300#FF0022FF06FFFFFF
(1547754965.993790) can0 0CEFFF00#6406287DFFFFFFFF
(1547754965.994334) can0 18FEEE00#5443FFFFFFFFFFFF
(1547754965.999707) can0 0DEF0603#0101FFFFFFFFFFF5
(1547754966.000894) can0 04EF0006#641517F01119930E
(1547754966.003210) can0 0CF00400#F0FF9B261CFFFFFF
(1547754966.013282) can0 0CF00300#FF0021FF06FFFFFF
(1547754966.013855) can0 0CEFFF00#6406287DFFFFFFFF
(1547754966.019730) can0 0DEF0603#0101FFFFFFFFFFF5
(1547754966.020926) can0 04EF0006#641518F00B19930E
(1547754966.021528) can0 18FEF147#FF0000FFFFFFFFFF
(1547754966.022129) can0 18F00503#7DFFFFFFFFFFFFFF
(1547754966.023478) can0 0CF00400#F0FF9B2C1CFFFFFF
(1547754966.024050) can0 18FEDF00#8B201CFFFFFFFFFF
(1547754966.033222) can0 0CF00300#FF0021FF06FFFFFF
(1547754966.033798) can0 0CEFFF00#6406277DFFFFFFFF
(1547754966.034370) can0 18FEF200#1F00FFFFFFFFFFFF
(1547754966.039271) can0 0DEF0647#0104FFFFFFFFFFF1
(1547754966.039945) can0 0DEF0603#0101FFFFFFFFFFF5
(1547754966.041144) can0 04EF0006#641519F01119930E
(1547754966.043190) can0 0CF00400#F0FF9A2C1CFFFFFF
(1547754966.053164) can0 0CF00300#FF0021FF06FFFFFF
(1547754966.053739) can0 0CEFFF00#6406277DFFFFFFFF
(1547754966.054309) can0 18EF0600#640E4D00FFFFFFFF
(1547754966.059736) can0 0DEF0603#0101FFFFFFFFFFF5
(1547754966.060908) can0 04EF0006#64151AF01119930E
(1547754966.061506) can0 0CFE4947#FFFFFFFFFFFFFFFF
(1547754966.062080) can0 18FFFB06#0005A7F8FFFFFFFF
(1547754966.062664) can0 0CFFFF47#5DFFFFF3FFFFFFFF
(1547754966.063257) can0 0CFE4347#0000FFFF3FFFFFFF
(1547754966.063776) can0 0CF00400#F0FF9A221CFFFFFF
(1547754966.064345) can0 0CFE4447#0000FFFF3FFFFFFF
(1547754966.073196) can0 0CF00300#FF0021FF06FFFFFF
(1547754966.073772) can0 0CEFFF00#6406287DFFFFFFFF
(1547754966.074317) can0 18EFFF00#64100101D202057D
(1547754966.074951) can0 18FEF700#FFFFFFFFFFFFFA00
(1547754966.079673) can0 0DEF0603#0101FFFFFFFFFFF5
(1547754966.080894) can0 04EF0006#64151BF00B19930E
(1547754966.083200) can0 0CF00400#F0FF9B201CFFFFFF
(1547754966.093141) can0 0CF00300#FF0022FF06FFFFFF
(1547754966.093741) can0 0CEFFF00#6406297DFFFFFFFF
(1547754966.099716) can0 0DEF0603#0101FFFFFFFFFFF5
(1547754966.100885) can0 04EF0006#64151CF00B19930E
(1547754966.101487) can0 0CFFFE06#5C271D271DFFFFFF
(1547754966.102035) can0 18FEF147#FF0000FFFFFFFFFF
(1547754966.102638) can0 18F00503#7DFFFFFFFFFFFFFF
(1547754966.103333) can0 0CF00400#F0FF9B1C1CFFFFFF
(1547754966.113287) can0 0CF00300#FF0022FF06FFFFFF
(1547754966.113855) can0 0CEFFF00#64062A7DFFFFFFFF
(1547754966.119706) can0 0DEF0603#0101FFFFFFFFFFF5
(1547754966.120951) can0 04EF0006#64151DF00419930E
(1547754966.123179) can0 0CF00400#F0FF9B0E1CFFFFFF
(1547754966.133148) can0 0CF00300#FF0023FF06FFFFFF
(1547754966.133747) can0 0CEFFF00#64062C7DFFFFFFFF
(1547754966.134319) can0 18FEF200#2000FFFFFFFFFFFF
(1547754966.139245) can0 0DEF0647#0104FFFFFFFFFFF1
(1547754966.139844) can0 0DEF0603#0101FFFFFFFFFFF5
(1547754966.141068) can0 04EF0006#64151EF00219930E
(1547754966.141645) can0 18FFFF06#73FFFFFFFFFFFFFF
(1547754966.143166) can0 0CF00400#F0FF9C141CFFFFFF
(1547754966.153139) can0 0CF00300#FF0022FF06FFFFFF
(1547754966.153713) can0 0CEFFF00#64062B7DFFFFFFFF
(1547754966.154287) can0 18EF0600#640E5700FFFFFFFF
(1547754966.159686) can0 0DEF0603#0101FFFFFFFFFFF5
(1547754966.160933) can0 04EF0006#64151FF00919930E
(1547754966.163158) can0 0CF00400#F0FF9B1E1CFFFFFF
(1547754966.169080) can0 1CFFFF17#22FFFF3CFFFFFFFF
(1547754966.173156) can0 0CF00300#FF0022FF06FFFFFF
(1547754966.173726) can0 0CEFFF00#64062A7DFFFFFFFF
(1547754966.174240) can0 18EFFF00#64100101D102057D
(1547754966.174840) can0 18FED500#FFFFFDFFFFFFFFFF
(1547754966.179674) can0 0DEF0603#0101FFFFFFFFFFF5
(1547754966.180852) can0 04EF0006#641510F00419930E
(1547754966.181447) can0 0CFE4947#FFFFFFFFFFFFFFFF
(1547754966.182045) can0 1CFDDF47#FDFFFFFFFFFFFFFF
(1547754966.182648) can0 0CFE4347#0000FFFF3FFFFFFF
(1547754966.183195) can0 0CF00400#F0FF9B1A1CFFFFFF
(1547754966.183770) can0 0CFE4447#0000FFFF3FFFFFFF
(1547754966.184338) can0 18FFFB06#0005A9F8FFFFFFFF
(1547754966.184879) can0 0CFFFE06#5C271D271DFFFFFF
(1547754966.193085) can0 0CF00300#FF0022FF06FFFFFF
(1547754966.193660) can0 0CEFFF00#64062B7DFFFFFFFF
(1547754966.199665) can0 0DEF0603#0101FFFFFFFFFFF5
(1547754966.200911) can0 04EF0006#641511F00419930E
(1547754966.203240) can0 0CF00400#F0FF9B181CFFFFFF
(1547754966.213057) can0 0CF00300#FF0022FF06FFFFFF
(1547754966.213657) can0 0CEFFF00#64062B7DFFFFFFFF
(1547754966.214228) can0 18FDB300#FFFF3229FFFFFFFF
(1547754966.219658) can0 0DEF0603#0101FFFFFFFFFFF5
(1547754966.220876) can0 04EF0006#641512F00419930E
(1547754966.221480) can0 18FEF147#FF0000FFFFFFFFFF
(1547754966.222077) can0 18F00647#FFCFFFFFFFFFFFFF
(1547754966.222653) can0 18F00503#7DFFFFFFFFFFFFFF
(1547754966.223199) can0 0CF00400#F0FF9B181CFFFFFF
(1547754966.233093) can0 0CF00300#FF0022FF06FFFFFF
(1547754966.233696) can0 0CEFFF00#64062B7DFFFFFFFF
(1547754966.234295) can0 18FEF200#2000FFFFFFFFFFFF
(1547754966.239160) can0 0DEF0647#0104FFFFFFFFFFF1
(1547754966.239752) can0 0DEF0603#0101FFFFFFFFFFF5
(1547754966.241016) can0 04EF0006#641513F00419930E
(1547754966.243195) can0 0CF00400#F0FF9B141CFFFFFF
(1547754966.253086) can0 0CF00300#FF0023FF06FFFFFF
(1547754966.253664) can0 0CEFFF00#64062C7DFFFFFFFF
(1547754966.254259) can0 18EF0600#640E6100FFFFFFFF
(1547754966.259660) can0 0DEF0603#0101FFFFFFFFFFF5
(1547754966.260882) can0 04EF0006#641514F00919930E
(1547754966.261433) can0 0CFE4947#FFFFFFFFFFFFFFFF
(1547754966.262031) can0 0CFE4347#0000FFFF3FFFFFFF
(1547754966.262633) can0 0CFE4447#0000FFFF3FFFFFFF
(1547754966.263204) can0 0CF00400#F0FF9C0A1CFFFFFF
(1547754966.273097) can0 0CF00300#FF0023FF06FFFFFF
(1547754966.273701) can0 0CEFFF00#64062D7DFFFFFFFF
(1547754966.274275) can0 18EFFF00#64100101D002057D
(1547754966.274818) can0 18FEDF00#8A201CFFFFFFFFFF
(1547754966.279591) can0 0DEF0603#0101FFFFFFFFFFF5
(1547754966.280805) can0 04EF0006#641515F00219930E
(1547754966.283198) can0 0CF00400#F0FF9C121CFFFFFF
(1547754966.293206) can0 0CF00300#FF0023FF06FFFFFF
(1547754966.293802) can0 0CEFFF00#64062C7DFFFFFFFF
(1547754966.294350) can0 18FEEF00#FFFFFF64FFFFFFFA
(1547754966.299628) can0 0DEF0603#0101FFFFFFFFFFF5
(1547754966.300847) can0 04EF0006#641516F00919930E
(1547754966.301377) can0 0CFFFE06#5C271D271DFFFFFF
(1547754966.301971) can0 18FEF147#FF0000FFFFFFFFFF
(1547754966.302575) can0 18FFFB06#0005AFF8FFFFFFFF
(1547754966.303147) can0 0CF00400#F0FF9C1A1CFFFFFF
(1547754966.303682) can0 18F00503#7DFFFFFFFFFFFFFF
(1547754966.313068) can0 0CF00300#FF0023FF06FFFFFF
(1547754966.313646) can0 0CEFFF00#64062B7DFFFFFFFF
(1547754966.319577) can0 0DEF0603#0101FFFFFFFFFFF5
(1547754966.320797) can0 04EF0006#641517F00419930E
(1547754966.323142) can0 0CF00400#F0FF9B0E1CFFFFFF
(1547754966.333388) can0 0CF00300#FF0023FF06FFFFFF
(1547754966.333932) can0 0CEFFF00#64062D7DFFFFFFFF
(1547754966.334532) can0 18FEF200#2100FFFFFFFFFFFF
(1547754966.339160) can0 0DEF0647#0104FFFFFFFFFFF1
(1547754966.339754) can0 0DEF0603#0101FFFFFFFFFFF5
(1547754966.340953) can0 04EF0006#641518F00219930E
(1547754966.343083) can0 0CF00400#F0FF9C0C1CFFFFFF
(1547754966.353053) can0 0CF00300#FF0023FF06FFFFFF
(1547754966.353624) can0 0CEFFF00#64062D7DFFFFFFFF
(1547754966.354172) can0 18EF0600#640E6B00FFFFFFFF
(1547754966.359624) can0 0DEF0603#0101FFFFFFFFFFF5
(1547754966.360845) can0 04EF0006#641519F00219930E
(1547754966.363046) can0 0CF00400#F0FF9C0E1CFFFFFF
(1547754966.373115) can0 0CF00300#FF0023FF06FFFFFF
(1547754966.373692) can0 0CEFFF00#64062D7DFFFFFFFF
(1547754966.374237) can0 18EFFF00#64100101D002057D
(1547754966.374837) can0 18FEF600#FF003EFF00FFFFFF
(1547754966.379590) can0 0DEF0603#0101FFFFFFFFFFF5
(1547754966.380808) can0 04EF0006#64151AF00219930E
(1547754966.381386) can0 0CFE4947#FFFFFFFFFFFFFFFF
(1547754966.381984) can0 0CFE4347#0000FFFF3FFFFFFF
(1547754966.382584) can0 0CFE4447#0000FFFF3FFFFFFF
(1547754966.383115) can0 0CFFFE06#5C271D271DFFFFFF
(1547754966.383694) can0 0CF00400#F0FF9C041CFFFFFF
(1547754966.393082) can0 0CF00300#FF0024FF06FFFFFF
(1547754966.393653) can0 0CEFFF00#64062F7DFFFFFFFF
(1547754966.399579) can0 0DEF0603#0101FFFFFFFFFFF5
(1547754966.400824) can0 04EF0006#64151BF01319930E
(1547754966.403027) can0 0CF00400#F0FF9D041CFFFFFF
(1547754966.412971) can0 0CF00300#FF0024FF06FFFFFF
(1547754966.413544) can0 0CEFFF00#64062F7DFFFFFFFF
(1547754966.419570) can0 0DEF0603#0101FFFFFFFFFFF5
(1547754966.420814) can0 04EF0006#64151CF01319930E
(1547754966.421390) can0 18FEF147#FF0000FFFFFFFFFF
(1547754966.421989) can0 18FFFB06#0005B1F8FFFFFFFF
(1547754966.422588) can0 18F00503#7DFFFFFFFFFFFFFF
(1547754966.423337) can0 0CF00400#F0FF9D0E1CFFFFFF
(1547754966.423911) can0 18FFFA00#022C0000180C0081
(1547754966.433034) can0 0CF00300#FF0023FF06FFFFFF
(1547754966.433611) can0 0CEFFF00#64062E7DFFFFFFFF
(1547754966.434207) can0 18FEF200#2100FFFFFFFFFFFF
(1547754966.439094) can0 0DEF0647#0104FFFFFFFFFFF1
(1547754966.439729) can0 0DEF0603#0101FFFFFFFFFFF5
(1547754966.440953) can0 04EF0006#64151DF00219930E
(1547754966.443057) can0 0CF00400#F0FF9D121CFFFFFF
(1547754966.452996) can0 0CF00300#FF0023FF06FFFFFF
(1547754966.453574) can0 0CEFFF00#64062D7DFFFFFFFF
(1547754966.454148) can0 18EF0600#640E7500FFFFFFFF
(1547754966.454723) can0 18FEF500#C8FFFFFFFF3BFFFF
(1547754966.459568) can0 0DEF0603#0101FFFFFFFFFFF5
(1547754966.460794) can0 04EF0006#64151EF00919930E
(1547754966.461374) can0 0CFE4947#FFFFFFFFFFFFFFFF
(1547754966.461944) can0 0CFE4347#0000FFFF3FFFFFFF
(1547754966.462542) can0 0CFE4447#0000FFFF3FFFFFFF
(1547754966.463076) can0 0CF00400#F0FF9C0C1CFFFFFF
(1547754966.473024) can0 0CF00300#FF0024FF06FFFFFF
(1547754966.473639) can0 0CEFFF00#64062E7DFFFFFFFF
(1547754966.474213) can0 18EFFF00#64100101D002057D
(1547754966.478596) can0 18EAFF06#E5FE00
(1547754966.479571) can0 0DEF0603#0101FFFFFFFFFFF5
(1547754966.480836) can0 04EF0006#64151FF00219930E
(1547754966.483038) can0 0CF00400#F0FF9D0C1CFFFFFF
(1547754966.492983) can0 0CF00300#FF0024FF06FFFFFF
(1547754966.493556) can0 0CEFFF00#64062E7DFFFFFFFF
(1547754966.494103) can0 18FE6900#E224B427FFFF60FE
(1547754966.499526) can0 0DEF0603#0101FFFFFFFFFFF5
(1547754966.500749) can0 04EF0006#641510F00219930E
(1547754966.501328) can0 0CFFFE06#5C271D271DFFFFFF
(1547754966.501896) can0 18FEF147#FF0000FFFFFFFFFF
(1547754966.502499) can0 18FEE706#CC0A0000FFFFFFFF
(1547754966.503072) can0 18F00503#7DFFFFFFFFFFFFFF
(1547754966.503607) can0 0CF00400#F0FF9D0A1CFFFFFF
(1547754966.513152) can0 0CF00300#FF0024FF06FFFFFF
(1547754966.513769) can0 0CEFFF00#64062F7DFFFFFFFF
(1547754966.519475) can0 0DEF0603#0101FFFFFFFFFFF5
(1547754966.520723) can0 04EF0006#641511F00219930E
(1547754966.522994) can0 0CF00400#F0FF9DFE1BFFFFFF
(1547754966.523562) can0 18FEDF00#8A201CFFFFFFFFFF
(1547754966.528210) can0 18FEE500#CD0A0000FFFFFFFF
(1547754966.532989) can0 0CF00300#FF0025FF06FFFFFF
(1547754966.533559) can0 0CEFFF00#6406317DFFFFFFFF
(1547754966.534132) can0 18FEF200#2300FFFFFFFFFFFF
(1547754966.539100) can0 0DEF0647#0104FFFFFFFFFFF1
(1547754966.539754) can0 0DEF0603#0101FFFFFFFFFFF5
(1547754966.540980) can0 04EF0006#641512F00C19930E
(1547754966.541556) can0 18FFFB06#0005B1F8FFFFFFFF
(1547754966.543008) can0 0CF00400#F0FF9E021CFFFFFF
(1547754966.552976) can0 0CF00300#FF0024FF06FFFFFF
(1547754966.553549) can0 0CEFFF00#6406307DFFFFFFFF
(1547754966.554122) can0 18EF0600#640E7F00FFFFFFFF
(1547754966.559519) can0 0DEF0603#0101FFFFFFFFFFF5
(1547754966.560743) can0 04EF0006#641513F01319930E
(1547754966.563045) can0 0CF00400#F0FF9D0C1CFFFFFF
(1547754966.572938) can0 0CF00300#FF0024FF06FFFFFF
(1547754966.573517) can0 0CEFFF00#64062F7DFFFFFFFF
(1547754966.574089) can0 18EFFF00#64100101D102057D
(1547754966.579489) can0 0DEF0603#0101FFFFFFFFFFF5
(1547754966.580733) can0 04EF0006#641514F00219930E
(1547754966.581310) can0 0CFE4947#FFFFFFFFFFFFFFFF
(1547754966.581885) can0 0CFFFF47#5DFFFFF3FFFFFFFF
(1547754966.582484) can0 0CFE4347#0000FFFF3FFFFFFF
(1547754966.583056) can0 0CF00400#F0FF9D0A1CFFFFFF
(1547754966.583592) can0 0CFE4447#0000FFFF3FFFFFFF
(1547754966.584216) can0 0CFFFE06#5C271D271DFFFFFF
(1547754966.593029) can0 0CF00300#FF0024FF06FFFFFF
(1547754966.593607) can0 0CEFFF00#64062F7DFFFFFFFF
(1547754966.599460) can0 0DEF0603#0101FFFFFFFFFFF5
(1547754966.600723) can0 04EF0006#641515F00219930E
(1547754966.603078) can0 0CF00400#F0FF9D081CFFFFFF
(1547754966.612944) can0 0CF00300#FF0024FF06FFFFFF
(1547754966.613522) can0 0CEFFF00#6406307DFFFFFFFF
(1547754966.614067) can0 18FD7C00#F880F1F000CF03FD
(1547754966.619470) can0 0DEF0603#0101FFFFFFFFFFF5
(1547754966.620688) can0 04EF0006#641516F00219930E
(1547754966.621265) can0 18FEF147#FF0000FFFFFFFFFF
(1547754966.621888) can0 18FFFB06#001BFFFFFFFFFFFF
(1547754966.622489) can0 18F00503#7DFFFFFFFFFFFFFF
(1547754966.623039) can0 0CF00400#F0FF9D081CFFFFFF
(1547754966.632893) can0 0CF00300#FF0024FF06FFFFFF
(1547754966.633510) can0 0CEFFF00#6406307DFFFFFFFF
(1547754966.634082) can0 18FEF200#2300FFFFFFFFFFFF
(1547754966.638965) can0 0DEF0647#0104FFFFFFFFFFF1
(1547754966.639564) can0 0DEF0603#0101FFFFFFFFFFF5
(1547754966.640830) can0 04EF0006#641517F00219930E
(1547754966.642982) can0 0CF00400#F0FF9D041CFFFFFF
(1547754966.652922) can0 0CF00300#FF0025FF06FFFFFF
(1547754966.653503) can0 0CEFFF00#6406317DFFFFFFFF
(1547754966.654073) can0 18EF0600#640E8900FFFFFFFF
(1547754966.659474) can0 0DEF0603#0101FFFFFFFFFFF5
(1547754966.660685) can0 04EF0006#641518F01319930E
(1547754966.661270) can0 0CFE4947#FFFFFFFFFFFFFFFF
(1547754966.661870) can0 18FE6847#3CFFFFFFFFFFFFFF
(1547754966.662445) can0 0CFE4347#0000FFFF3FFFFFFF
(1547754966.663019) can0 0CF00400#F0FF9EFC1BFFFFFF
(1547754966.663552) can0 0CFE4447#0000FFFF3FFFFFFF
(1547754966.664176) can0 18FFFF06#73FFFFFFFFFFFFFF
(1547754966.664771) can0 18FFFB06#0005B1F8FFFFFFFF
(1547754966.672865) can0 0CF00300#FF0025FF06FFFFFF
(1547754966.673438) can0 0CEFFF00#6406327DFFFFFFFF
(1547754966.674013) can0 18EFFF00#64100101D002057D
(1547754966.679464) can0 0DEF0603#0101FFFFFFFFFFF5
(1547754966.680683) can0 04EF0006#641519F00C19930E
(1547754966.682958) can0 0CF00400#F0FF9E021CFFFFFF
(1547754966.693002) can0 0CF00300#FF0025FF06FFFFFF
(1547754966.693579) can0 0CEFFF00#6406327DFFFFFFFF
(1547754966.699453) can0 0DEF0603#0101FFFFFFFFFFF5
(1547754966.700673) can0 04EF0006#64151AF01319930E
(1547754966.701248) can0 0CFFFF47#5EFFFFFFFFFFFFFF
(1547754966.701821) can0 18FEF147#FF0000FFFFFFFFFF
(1547754966.702396) can0 0CFFFE06#5C271D271DFFFFFF
(1547754966.702971) can0 18FEFC47#FFFFFFFFFFFFFFFF
(1547754966.703521) can0 0CF00400#F0FF9E0A1CFFFFFF
(1547754966.704045) can0 18EF0047#F220610FFFFFFFFF
(1547754966.704648) can0 18F00647#FFCFFFFFFFFFFFFF
(1547754966.705248) can0 1CFDDF47#FDFFFFFFFFFFFFFF
(1547754966.705832) can0 18F00503#7DFFFFFFFFFFFFFF
(1547754966.712868) can0 0CF00300#FF0025FF06FFFFFF
(1547754966.713445) can0 0CEFFF00#6406317DFFFFFFFF
(1547754966.714016) can0 18FDB300#FFFF3229FFFFFFFF
(1547754966.714592) can0 1CEFFF00#64070000FFFFFFFF
(1547754966.719442) can0 0DEF0603#0101FFFFFFFFFFF5
(1547754966.720663) can0 04EF0006#64151BF00219930E
(1547754966.722915) can0 0CF00400#F0FF9E021CFFFFFF
(1547754966.732982) can0 0CF00300#FF0025FF06FFFFFF
(1547754966.733559) can0 0CEFFF00#6406327DFFFFFFFF
(1547754966.734131) can0 18FEF200#2400FFFFFFFFFFFF
(1547754966.738984) can0 0DEF0647#0104FFFFFFFFFFF1
(1547754966.739580) can0 0DEF0603#0101FFFFFFFFFFF5
(1547754966.740777) can0 04EF0006#64151CF01319930E
(1547754966.742901) can0 0CF00400#F0FF9E041CFFFFFF
(1547754966.752847) can0 0CF00300#FF0025FF06FFFFFF
(1547754966.753427) can0 0CEFFF00#6406327DFFFFFFFF
(1547754966.753995) can0 18EF0600#640E9300FFFFFFFF
(1547754966.759424) can0 0DEF0603#0101FFFFFFFFFFF5
(1547754966.760667) can0 04EF0006#64151DF01319930E
(1547754966.762869) can0 0CF00400#F0FF9E081CFFFFFF
(1547754966.772863) can0 0CF00300#FF0025FF06FFFFFF
(1547754966.773405) can0 0CEFFF00#6406327DFFFFFFFF
(1547754966.774010) can0 18EFFF00#64100101D102057D
(1547754966.774586) can0 18FEDF00#8A201CFFFFFFFFFF
(1547754966.779408) can0 0DEF0603#0101FFFFFFFFFFF5
(1547754966.780632) can0 04EF0006#64151EF00219930E
(1547754966.781208) can0 0CFE4947#FFFFFFFFFFFFFFFF
(1547754966.781794) can0 18FFFB06#0005B4F8FFFFFFFF
(1547754966.782366) can0 0CFE4347#0000FFFF3FFFFFFF
(1547754966.782945) can0 0CFE4447#0000FFFF3FFFFFFF
(1547754966.783541) can0 0CF00400#F0FF9E021CFFFFFF
(1547754966.784089) can0 0CFFFE06#5C271D271DFFFFFF
(1547754966.792907) can0 0CF00300#FF0026FF06FFFFFF
(1547754966.793463) can0 0CEFFF00#6406337DFFFFFFFF
(1547754966.793990) can0 18FEEF00#FFFFFF64FFFFFFFA
(1547754966.799366) can0 0DEF0603#0101FFFFFFFFFFF5
(1547754966.800633) can0 04EF0006#64151FF01319930E
(1547754966.802863) can0 0CF00400#F0FF9E001CFFFFFF
(1547754966.812805) can0 0CF00300#FF0025FF06FFFFFF
(1547754966.813377) can0 0CEFFF00#6406337DFFFFFFFF
(1547754966.819402) can0 0DEF0603#0101FFFFFFFFFFF5
(1547754966.820622) can0 04EF0006#641510F01319930E
(1547754966.821198) can0 18FEF147#FF0000FFFFFFFFFF
(1547754966.821799) can0 18F00503#7DFFFFFFFFFFFFFF
(1547754966.822971) can0 0CF00400#F0FF9E0A1CFFFFFF
(1547754966.828774) can0 1CFFFF17#22FFFF3CFFFFFFFF
(1547754966.832869) can0 0CF00300#FF0025FF06FFFFFF
(1547754966.833396) can0 0CEFFF00#6406327DFFFFFFFF
(1547754966.834040) can0 18FEF200#2400FFFFFFFFFFFF
(1547754966.838945) can0 0DEF0647#0104FFFFFFFFFFF1
(1547754966.839538) can0 0DEF0603#0101FFFFFFFFFFF5
(1547754966.840736) can0 04EF0006#641511F00219930E
(1547754966.842889) can0 0CF00400#F0FF9E101CFFFFFF
(1547754966.852833) can0 0CF00300#FF0025FF06FFFFFF
(1547754966.853407) can0 0CEFFF00#6406317DFFFFFFFF
(1547754966.853978) can0 18EF0600#640E9D00FFFFFFFF
(1547754966.859383) can0 0DEF0603#0101FFFFFFFFFFF5
(1547754966.860607) can0 04EF0006#641512F00919930E
(1547754966.861178) can0 0CFE4947#FFFFFFFFFFFFFFFF
(1547754966.861780) can0 0CFE4347#0000FFFF3FFFFFFF
(1547754966.862375) can0 0CFE4447#0000FFFF3FFFFFFF
(1547754966.862974) can0 0CF00400#F0FF9E0C1CFFFFFF
(1547754966.872931) can0 0CF00300#FF0025FF06FFFFFF
(1547754966.873547) can0 0CEFFF00#6406327DFFFFFFFF
(1547754966.874104) can0 18EFFF00#64100101D202057D
(1547754966.874649) can0 18FEF600#FF003DFF00FFFFFF
(1547754966.879325) can0 0DEF0603#0101FFFFFFFFFFF5
(1547754966.880547) can0 04EF0006#641513F00219930E
(1547754966.882870) can0 0CF00400#F0FF9E0E1CFFFFFF
(1547754966.892766) can0 18EFFA00#6401FF0000FFFFFF
(1547754966.893337) can0 0CEFFF00#6406327DFFFFFFFF
(1547754966.893913) can0 0CF00300#FF0025FF06FFFFFF
(1547754966.899361) can0 0DEF0603#0101FFFFFFFFFFF5
(1547754966.900584) can0 04EF0006#641514F00219930E
(1547754966.901156) can0 0CFFFE06#5C271D271DFFFFFF
(1547754966.901710) can0 18FEF147#FF0000FFFFFFFFFF
(1547754966.902307) can0 18FFFB06#0005B4F8FFFFFFFF
(1547754966.902905) can0 0CF00400#F0FF9E121CFFFFFF
(1547754966.903436) can0 18F00503#7DFFFFFFFFFFFFFF
(1547754966.913012) can0 0CF00300#FF0025FF06FFFFFF
(1547754966.913627) can0 0CEFFF00#6406317DFFFFFFFF
(1547754966.919306) can0 0DEF0603#0101FFFFFFFFFFF5
(1547754966.920526) can0 04EF0006#641515F00919930E
(1547754966.922827) can0 0CF00400#F0FF9E0A1CFFFFFF
(1547754966.932797) can0 0CF00300#FF0026FF06FFFFFF
(1547754966.933369) can0 0CEFFF00#6406337DFFFFFFFF
(1547754966.933965) can0 18FEF200#2400FFFFFFFFFFFF
(1547754966.938894) can0 0DEF0647#0104FFFFFFFFFFF1
(1547754966.939487) can0 0DEF0603#0101FFFFFFFFFFF5
(1547754966.940690) can0 04EF0006#641516F00219930E
(1547754966.942814) can0 0CF00400#F0FF9E121CFFFFFF
(1547754966.952836) can0 0CF00300#FF0025FF06FFFFFF
(1547754966.953407) can0 0CEFFF00#6406327DFFFFFFFF
(1547754966.953981) can0 18EF0600#640EA700FFFFFFFF
(1547754966.959356) can0 0DEF0603#0101FFFFFFFFFFF5
(1547754966.960527) can0 0C000006#30FFFFFFF8FFFFFF
(1547754966.961076) can0 04EF0006#641517F00919930E
(1547754966.962957) can0 0CF00400#F0FF9E201CFFFFFF
(1547754966.972804) can0 0CF00300#FF0024FF06FFFFFF
(1547754966.973374) can0 0CEFFF00#64062F7DFFFFFFFF
(1547754966.973918) can0 18EFFF00#64100101D302057D
(1547754966.979320) can0 0DEF0603#0101FFFFFFFFFFF5
(1547754966.980494) can0 04EF0006#641518F00B19930E
(1547754966.981067) can0 0CFE4947#FFFFFFFFFFFFFFFF
(1547754966.981668) can0 0CFE4347#0000FFFF3FFFFFFF
(1547754966.982266) can0 0CFE4447#0000FFFF3FFFFFFF
(1547754966.982818) can0 0CF00400#F0FF9D221CFFFFFF
(1547754966.983345) can0 0CFFFE06#5C271D271DFFFFFF
(1547754966.992843) can0 0CF00300#FF0024FF06FFFFFF
(1547754966.993430) can0 0CEFFF00#64062F7DFFFFFFFF
(1547754966.994004) can0 18FEEE00#5443FFFFFFFFFFFF
(1547754966.999227) can0 0DEF0603#0101FFFFFFFFFFF5
(1547754967.000427) can0 04EF0006#641519F00B19930E
(1547754967.002979) can0 0CF00400#F0FF9D241CFFFFFF
(1547754967.012748) can0 0CF00300#FF0024FF06FFFFFF
(1547754967.013299) can0 0CEFFF00#64062F7DFFFFFFFF
(1547754967.019270) can0 0DEF0603#0101FFFFFFFFFFF5
(1547754967.020471) can0 04EF0006#64151AF00B19930E
(1547754967.021047) can0 18FEF147#FF0000FFFFFFFFFF
(1547754967.021665) can0 18FFFB06#0005B2F8FFFFFFFF
(1547754967.022266) can0 18F00503#7DFFFFFFFFFFFFFF
(1547754967.022813) can0 0CF00400#F0FF9D281CFFFFFF
(1547754967.023415) can0 18FEDF00#8B201CFFFFFFFFFF
(1547754967.032694) can0 0CF00300#FF0024FF06FFFFFF
(1547754967.033313) can0 0CEFFF00#64062E7DFFFFFFFF
(1547754967.033870) can0 18FEF200#2300FFFFFFFFFFFF
(1547754967.038764) can0 0DEF0647#0104FFFFFFFFFFF1
(1547754967.039440) can0 0DEF0603#0101FFFFFFFFFFF5
(1547754967.040682) can0 04EF0006#64151BF01119930E
(1547754967.042786) can0 0CF00400#F0FF9D261CFFFFFF
(1547754967.052779) can0 0CF00300#FF0024FF06FFFFFF
(1547754967.053352) can0 0CEFFF00#64062E7DFFFFFFFF
(1547754967.053923) can0 18EF0600#640EB100FFFFFFFF
(1547754967.059276) can0 0DEF0603#0101FFFFFFFFFFF5
(1547754967.060471) can0 04EF0006#64151CF00B19930E
(1547754967.061047) can0 0CFE4947#FFFFFFFFFFFFFFFF
(1547754967.061647) can0 0CFFFF47#5DFFFFF3FFFFFFFF
(1547754967.062224) can0 0CFE4347#0000FFFF3FFFFFFF
(1547754967.062794) can0 0CF00400#F0FF9D201CFFFFFF
(1547754967.063329) can0 0CFE4447#0000FFFF3FFFFFFF
(1547754967.072700) can0 0CF00300#FF0024FF06FFFFFF
(1547754967.073319) can0 0CEFFF00#64062F7DFFFFFFFF
(1547754967.073847) can0 18EFFF00#64100101D402057D
(1547754967.074423) can0 18FEF700#FFFFFFFFFFFF1801
(1547754967.079199) can0 0DEF0603#0101FFFFFFFFFFF5
(1547754967.080436) can0 04EF0006#64151DF00B19930E
(1547754967.082890) can0 0CF00400#F0FF9D2A1CFFFFFF
(1547754967.092906) can0 0CF00300#FF0023FF06FFFFFF
(1547754967.093483) can0 0CEFFF00#64062E7DFFFFFFFF
(1547754967.099227) can0 0DEF0603#0101FFFFFFFFFFF5
(1547754967.100426) can0 04EF0006#64151EF01119930E
(1547754967.101002) can0 0CFFFE06#5C271D271DFFFFFF
(1547754967.101577) can0 18FEF147#FF0000FFFFFFFFFF
(1547754967.102153) can0 18F00503#7DFFFFFFFFFFFFFF
(1547754967.102800) can0 0CF00400#F0FF9D361CFFFFFF
(1547754967.112725) can0 0CF00300#FF0023FF06FFFFFF
(1547754967.113297) can0 0CEFFF00#64062C7DFFFFFFFF
(1547754967.119242) can0 0DEF0603#0101FFFFFFFFFFF5
(1547754967.120417) can0 04EF0006#64151FF00719930E
(1547754967.122694) can0 0CF00400#F0FF9C301CFFFFFF
(1547754967.132717) can0 0CF00300#FF0023FF06FFFFFF
(1547754967.133286) can0 0CEFFF00#64062D7DFFFFFFFF
(1547754967.133859) can0 18FEF200#2100FFFFFFFFFFFF
(1547754967.138758) can0 0DEF0647#0104FFFFFFFFFFF1
(1547754967.139357) can0 0DEF0603#0101FFFFFFFFFFF5
(1547754967.140557) can0 04EF0006#641510F00719930E
(1547754967.141136) can0 18FFFF06#73FFFFFFFFFFFFFF
(1547754967.141732) can0 18FFFB06#0005ACF8FFFFFFFF
(1547754967.142758) can0 0CF00400#F0FF9D2C1CFFFFFF
(1547754967.152681) can0 0CF00300#FF0023FF06FFFFFF
(1547754967.153253) can0 0CEFFF00#64062D7DFFFFFFFF
(1547754967.153822) can0 18EF0600#640EBB00FFFFFFFF
(1547754967.159224) can0 0DEF0603#0101FFFFFFFFFFF5
(1547754967.160421) can0 04EF0006#641511F01119930E
(1547754967.162696) can0 0CF00400#F0FF9D2E1CFFFFFF
(1547754967.172670) can0 0CF00300#FF0023FF06FFFFFF
(1547754967.173240) can0 0CEFFF00#64062D7DFFFFFFFF
(1547754967.173803) can0 18EFFF00#64100101D502057D
(1547754967.174407) can0 18FED500#FFFFFDFFFFFFFFFF
(1547754967.179181) can0 0DEF0603#0101FFFFFFFFFFF5
(1547754967.180378) can0 04EF0006#641512F01119930E
(1547754967.180979) can0 0CFE4947#FFFFFFFFFFFFFFFF
(1547754967.181555) can0 1CFDDF47#FDFFFFFFFFFFFFFF
(1547754967.182127) can0 0CFE4347#0000FFFF3FFFFFFF
(1547754967.182668) can0 0CFE4447#0000FFFF3FFFFFFF
(1547754967.183220) can0 0CF00400#F0FF9D261CFFFFFF
(1547754967.183813) can0 0CFFFE06#5C271D271DFFFFFF
(1547754967.192701) can0 0CF00300#FF0024FF06FFFFFF
(1547754967.193272) can0 0CEFFF00#64062E7DFFFFFFFF
(1547754967.199170) can0 0DEF0603#0101FFFFFFFFFFF5
(1547754967.200393) can0 04EF0006#641513F00B19930E
(1547754967.202668) can0 0CF00400#F0FF9D221CFFFFFF
(1547754967.212614) can0 0CF00300#FF0023FF06FFFFFF
(1547754967.213186) can0 0CEFFF00#64062E7DFFFFFFFF
(1547754967.213760) can0 18FDB300#FFFF3229FFFFFFFF
(1547754967.219138) can0 0DEF0603#0101FFFFFFFFFFF5
(1547754967.220383) can0 04EF0006#641514F00B19930E
(1547754967.220958) can0 18FEF147#FF0000FFFFFFFFFF
(1547754967.221558) can0 18F00647#FFCFFFFFFFFFFFFF
(1547754967.222156) can0 18F00503#7DFFFFFFFFFFFFFF
(1547754967.222983) can0 0CF00400#F0FF9D2C1CFFFFFF
(1547754967.232654) can0 0CF00300#FF0023FF06FFFFFF
(1547754967.233227) can0 0CEFFF00#64062D7DFFFFFFFF
(1547754967.233802) can0 18FEF200#2100FFFFFFFFFFFF
(1547754967.238703) can0 0DEF0647#0104FFFFFFFFFFF1
(1547754967.239297) can0 0DEF0603#0101FFFFFFFFFFF5
(1547754967.240498) can0 04EF0006#641515F01119930E
(1547754967.242625) can0 0CF00400#F0FF9D301CFFFFFF
(1547754967.252627) can0 0CF00300#FF0023FF06FFFFFF
(1547754967.253201) can0 0CEFFF00#64062C7DFFFFFFFF
(1547754967.253803) can0 18EF0600#640EC500FFFFFFFF
(1547754967.259179) can0 0DEF0603#0101FFFFFFFFFFF5
(1547754967.260372) can0 04EF0006#641516F00719930E
(1547754967.260946) can0 0CFE4947#FFFFFFFFFFFFFFFF
(1547754967.261494) can0 18FFFB06#0005AFF8FFFFFFFF
(1547754967.262095) can0 0CFE4347#0000FFFF3FFFFFFF
(1547754967.262694) can0 0CFE4447#0000FFFF3FFFFFFF
(1547754967.263229) can0 0CF00400#F0FF9C281CFFFFFF
(1547754967.272690) can0 0CF00300#FF0023FF06FFFFFF
(1547754967.273311) can0 0CEFFF00#64062D7DFFFFFFFF
(1547754967.273863) can0 18EFFF00#64100101D502057D
(1547754967.274417) can0 18FEDF00#8B201CFFFFFFFFFF
(1547754967.278989) can0 0DEF0603#0101FFFFFFFFFFF5
(1547754967.280185) can0 04EF0006#641517F01119930E
(1547754967.282641) can0 0CF00400#F0FF9D2A1CFFFFFF
(1547754967.292612) can0 0CF00300#FF0023FF06FFFFFF
(1547754967.293161) can0 0CEFFF00#64062D7DFFFFFFFF
(1547754967.293739) can0 18FEEF00#FFFFFF64FFFFFFFA
(1547754967.299112) can0 0DEF0603#0101FFFFFFFFFFF5
(1547754967.300237) can0 04EF0006#641518F01119930E
(1547754967.300855) can0 0CFFFE06#5C271D271DFFFFFF
(1547754967.301436) can0 18FEF147#FF0000FFFFFFFFFF
(1547754967.302031) can0 18F00503#80FFFFFFFFFFFFFF
(1547754967.302681) can0 0CF00400#F0FF9D281CFFFFFF
(1547754967.312857) can0 0CF00300#FF0024FF06FFFFFF
(1547754967.313462) can0 0CEFFF00#64062D7DFFFFFFFF
(1547754967.319102) can0 0DEF0603#0101FFFFFFFFFFF5
(1547754967.320275) can0 04EF0006#641519F01119930E
(1547754967.322627) can0 0CF00400#F0FF9D1E1CFFFFFF
(1547754967.332643) can0 0CF00300#FF0024FF06FFFFFF
(1547754967.333218) can0 0CEFFF00#64062F7DFFFFFFFF
(1547754967.333790) can0 18FEF200#2300FFFFFFFFFFFF
(1547754967.338696) can0 0DEF0647#0104FFFFFFFFFFF1
(1547754967.339288) can0 0DEF0603#0101FFFFFFFFFFF5
(1547754967.340464) can0 04EF0006#64151AF00419930E
(1547754967.342643) can0 0CF00400#F0FF9D201CFFFFFF
(1547754967.352632) can0 0CF00300#FF0024FF06FFFFFF
(1547754967.353207) can0 0CEFFF00#64062E7DFFFFFFFF
(1547754967.353782) can0 18EF0600#640ECF00FFFFFFFF
(1547754967.359083) can0 0DEF0603#0101FFFFFFFFFFF5
(1547754967.360279) can0 04EF0006#64151BF00B19930E
(1547754967.362680) can0 0CF00400#F0FF9D2C1CFFFFFF
(1547754967.372597) can0 0CF00300#FF0023FF06FFFFFF
(1547754967.373172) can0 0CEFFF00#64062C7DFFFFFFFF
(1547754967.373748) can0 18EFFF00#64100101D502057D
(1547754967.374320) can0 18FEF600#FF003DFF00FFFFFF
(1547754967.379047) can0 0DEF0603#0101FFFFFFFFFFF5
(1547754967.380242) can0 04EF0006#64151CF01119930E
(1547754967.380817) can0 0CFE4947#FFFFFFFFFFFFFFFF
(1547754967.381419) can0 18FFFB06#0005AFF8FFFFFFFF
(1547754967.381992) can0 0CFE4347#0000FFFF3FFFFFFF
(1547754967.382547) can0 0CFE4447#0000FFFF3FFFFFFF
(1547754967.383120) can0 0CF00400#F0FF9C281CFFFFFF
(1547754967.383722) can0 0CFFFE06#5C271D271DFFFFFF
(1547754967.392686) can0 0CF00300#FF0023FF06FFFFFF
(1547754967.393263) can0 0CEFFF00#64062D7DFFFFFFFF
(1547754967.398991) can0 0DEF0603#0101FFFFFFFFFFF5
(1547754967.400232) can0 04EF0006#64151DF01119930E
(1547754967.402731) can0 0CF00400#F0FF9D241CFFFFFF
(1547754967.412551) can0 0CF00300#FF0023FF06FFFFFF
(1547754967.413128) can0 0CEFFF00#64062D7DFFFFFFFF
(1547754967.419051) can0 0DEF0603#0101FFFFFFFFFFF5
(1547754967.420248) can0 04EF0006#64151EF00B19930E
(1547754967.420847) can0 18FEF147#FF0000FFFFFFFFFF
(1547754967.421424) can0 18F00503#80FFFFFFFFFFFFFF
(1547754967.422599) can0 0CF00400#F0FF9D241CFFFFFF
(1547754967.423196) can0 18FFFA00#022C0000180C0081
(1547754967.432593) can0 0CF00300#FF0024FF06FFFFFF
(1547754967.433167) can0 0CEFFF00#64062D7DFFFFFFFF
(1547754967.433743) can0 18FEF200#2100FFFFFFFFFFFF
(1547754967.438646) can0 0DEF0647#0104FFFFFFFFFFF1
(1547754967.439239) can0 0DEF0603#0101FFFFFFFFFFF5
(1547754967.440387) can0 04EF0006#64151FF00B19930E
(1547754967.442582) can0 0CF00400#F0FF9D1E1CFFFFFF
(1547754967.452594) can0 0CF00300#FF0024FF06FFFFFF
(1547754967.453158) can0 0CEFFF00#64062F7DFFFFFFFF
(1547754967.453759) can0 18EF0600#640ED900FFFFFFFF
(1547754967.454331) can0 18FEF500#C8FFFFFFFF3BFFFF
(1547754967.459057) can0 0DEF0603#0101FFFFFFFFFFF5
(1547754967.460279) can0 04EF0006#641510F00419930E
(1547754967.460854) can0 0CFE4947#FFFFFFFFFFFFFFFF
(1547754967.461251) can0 18EA0006#E3FE00
(1547754967.461827) can0 0CFE4347#0000FFFF3FFFFFFF
(1547754967.462427) can0 0CFE4447#0000FFFF3FFFFFFF
(1547754967.462952) can0 0CF00400#F0FF9D161CFFFFFF
(1547754967.472529) can0 0CF00300#FF0024FF06FFFFFF
(1547754967.473078) can0 0CEFFF00#6406307DFFFFFFFF
(1547754967.473648) can0 18EFFF00#64100101D302057D
(1547754967.475047) can0 1CEC0600#1022000505E3FE00
(1547754967.476947) can0 1CEC0006#110501FFFFE3FE00
(1547754967.479095) can0 0DEF0603#0101FFFFFFFFFFF5
(1547754967.480318) can0 04EF0006#641511F00919930E
(1547754967.482595) can0 0CF00400#F0FF9D1E1CFFFFFF
(1547754967.488520) can0 1CFFFF17#22FFFF3CFFFFFFFF
(1547754967.492640) can0 0CF00300#FF0023FF06FFFFFF
(1547754967.493211) can0 0CEFFF00#64062F7DFFFFFFFF
(1547754967.493763) can0 18FE6900#C424B627FFFF60FE
(1547754967.498164) can0 18EAFF06#E5FE00
(1547754967.499085) can0 0DEF0603#0101FFFFFFFFFFF5
(1547754967.500333) can0 04EF0006#641512F00419930E
(1547754967.500883) can0 0CFFFE06#5C271D271DFFFFFF
(1547754967.501457) can0 18FEF147#FF0000FFFFFFFFFF
(1547754967.502058) can0 18FFFB06#0005AFF8FFFFFFFF
(1547754967.502628) can0 0CF00400#F0FF9D2A1CFFFFFF
(1547754967.503180) can0 18FEE706#CC0A0000FFFFFFFF
(1547754967.503807) can0 18F00503#80FFFFFFFFFFFFFF
(1547754967.512461) can0 0CF00300#FF0023FF06FFFFFF
(1547754967.513028) can0 0CEFFF00#64062D7DFFFFFFFF
(1547754967.518954) can0 0DEF0603#0101FFFFFFFFFFF5
(1547754967.520199) can0 04EF0006#641513F01119930E
(1547754967.522538) can0 0CF00400#F0FF9D241CFFFFFF
(1547754967.523112) can0 18FEDF00#8A201CFFFFFFFFFF
(1547754967.527837) can0 18FEE500#CD0A0000FFFFFFFF
(1547754967.532607) can0 0CF00300#FF0023FF06FFFFFF
(1547754967.533183) can0 0CEFFF00#64062D7DFFFFFFFF
(1547754967.533788) can0 18FEF200#2100FFFFFFFFFFFF
(1547754967.538584) can0 0DEF0647#0104FFFFFFFFFFF1
(1547754967.539230) can0 0DEF0603#0101FFFFFFFFFFF5
(1547754967.540430) can0 04EF0006#641514F00B19930E
(1547754967.542531) can0 0CF00400#F0FF9D281CFFFFFF
(1547754967.552478) can0 0CF00300#FF0023FF06FFFFFF
(1547754967.553047) can0 0CEFFF00#64062D7DFFFFFFFF
(1547754967.553623) can0 18EF0600#640EE300FFFFFFFF
(1547754967.558973) can0 0DEF0603#0101FFFFFFFFFFF5
(1547754967.560193) can0 04EF0006#641515F01119930E
(1547754967.562522) can0 0CF00400#F0FF9D2C1CFFFFFF
(1547754967.572565) can0 0CF00300#FF0023FF06FFFFFF
(1547754967.573164) can0 0CEFFF00#64062C7DFFFFFFFF
(1547754967.573712) can0 18EFFF00#64100101D502057D
(1547754967.575011) can0 1CEB0600#01201CDD6842DCA0
(1547754967.578960) can0 0DEF0603#0101FFFFFFFFFFF5
(1547754967.580161) can0 04EF0006#641516F01119930E
(1547754967.580758) can0 0CFE4947#FFFFFFFFFFFFFFFF
(1547754967.581338) can0 0CFFFF47#5DFFFFF3FFFFFFFF
(1547754967.581936) can0 0CFE4347#0000FFFF3FFFFFFF
(1547754967.582532) can0 0CFE4447#0000FFFF3FFFFFFF
(1547754967.583082) can0 0CF00400#F0FF9C261CFFFFFF
(1547754967.583658) can0 0CFFFE06#5C271D271DFFFFFF
(1547754967.592435) can0 0CF00300#FF0024FF06FFFFFF
(1547754967.592977) can0 0CEFFF00#64062D7DFFFFFFFF
(1547754967.598905) can0 0DEF0603#0101FFFFFFFFFFF5
(1547754967.600149) can0 04EF0006#641517F00B19930E
(1547754967.602477) can0 0CF00400#F0FF9D221CFFFFFF
(1547754967.612423) can0 0CF00300#FF0023FF06FFFFFF
(1547754967.612995) can0 0CEFFF00#64062D7DFFFFFFFF
(1547754967.613568) can0 18FD7C00#F880F1F000CF03FC
(1547754967.618945) can0 0DEF0603#0101FFFFFFFFFFF5
(1547754967.620140) can0 04EF0006#641518F00B19930E
(1547754967.620740) can0 18FEF147#FF0000FFFFFFFFFF
(1547754967.621312) can0 18FFFB06#0005B2F8FFFFFFFF
(1547754967.621939) can0 18FFFB06#001BFFFFFFFFFFFF
(1547754967.622536) can0 18F00503#80FFFFFFFFFFFFFF
(1547754967.623064) can0 0CF00400#F0FF9D2C1CFFFFFF
(1547754967.628190) can0 1CEB0600#020FD58D20E37A31
(1547754967.632488) can0 0CF00300#FF0023FF06FFFFFF
(1547754967.633057) can0 0CEFFF00#64062C7DFFFFFFFF
(1547754967.633613) can0 18FEF200#2100FFFFFFFFFFFF
(1547754967.638478) can0 0DEF0647#0104FFFFFFFFFFF1
(1547754967.639129) can0 0DEF0603#0101FFFFFFFFFFF5
(1547754967.640277) can0 04EF0006#641519F01119930E
(1547754967.642482) can0 0CF00400#F0FF9C301CFFFFFF
(1547754967.652422) can0 0CF00300#FF0023FF06FFFFFF
(1547754967.652998) can0 0CEFFF00#64062B7DFFFFFFFF
(1547754967.653517) can0 18EF0600#640EED00FFFFFFFF
(1547754967.658955) can0 0DEF0603#0101FFFFFFFFFFF5
(1547754967.660129) can0 04EF0006#64151AF00719930E
(1547754967.660728) can0 0CFE4947#FFFFFFFFFFFFFFFF
(1547754967.661303) can0 18FE6847#3CFFFFFFFFFFFFFF
(1547754967.661878) can0 0CFE4347#0000FFFF3FFFFFFF
(1547754967.662451) can0 18FFFF06#73FFFFFFFFFFFFFF
(1547754967.662981) can0 0CF00400#F0FF9C281CFFFFFF
(1547754967.663561) can0 0CFE4447#0000FFFF3FFFFFFF
(1547754967.672576) can0 0CF00300#FF0023FF06FFFFFF
(1547754967.673148) can0 0CEFFF00#64062C7DFFFFFFFF
(1547754967.673677) can0 18EFFF00#64100101D402057D
(1547754967.675124) can0 1CEB0600#03F1C044FFFF0401
(1547754967.678904) can0 0DEF0603#0101FFFFFFFFFFF5
(1547754967.680120) can0 04EF0006#64151BF01119930E
(1547754967.682495) can0 0CF00400#F0FF9C281CFFFFFF
(1547754967.692391) can0 0CF00300#FF0023FF06FFFFFF
(1547754967.692982) can0 0CEFFF00#64062C7DFFFFFFFF
(1547754967.698880) can0 0DEF0603#0101FFFFFFFFFFF5
(1547754967.700075) can0 04EF0006#64151CF01119930E
(1547754967.700676) can0 0CFFFF47#5EFFFFFFFFFFFFFF
(1547754967.701232) can0 18FEF147#FF0000FFFFFFFFFF
(1547754967.701802) can0 0CFFFE06#5C271D271DFFFFFF
(1547754967.702381) can0 18FEFC47#FFFFFFFFFFFFFFFF
(1547754967.702947) can0 0CF00400#F0FF9C281CFFFFFF
(1547754967.703487) can0 18EF0047#F220610FFFFFFFFF
(1547754967.704089) can0 18F00647#FFCFFFFFFFFFFFFF
(1547754967.704681) can0 1CFDDF47#FDFFFFFFFFFFFFFF
(1547754967.705286) can0 18F00503#80FFFFFFFFFFFFFF
(1547754967.712772) can0 0CF00300#FF0023FF06FFFFFF
(1547754967.713349) can0 0CEFFF00#64062C7DFFFFFFFF
(1547754967.713919) can0 18FDB300#FFFF3E29FFFFFFFF
(1547754967.714499) can0 1CEFFF00#64070000FFFFFFFF
(1547754967.718870) can0 0DEF0603#0101FFFFFFFFFFF5
(1547754967.720065) can0 04EF0006#64151DF01119930E
(1547754967.722393) can0 0CF00400#F0FF9C1E1CFFFFFF
(1547754967.727539) can0 1CEB0600#04204E0001FAC9FA
(1547754967.732435) can0 0CF00300#FF0024FF06FFFFFF
(1547754967.733010) can0 0CEFFF00#64062F7DFFFFFFFF
(1547754967.733591) can0 18FEF200#2300FFFFFFFFFFFF
(1547754967.738485) can0 0DEF0647#0104FFFFFFFFFFF1
(1547754967.739077) can0 0DEF0603#0101FFFFFFFFFFF5
(1547754967.740257) can0 04EF0006#64151EF00419930E
(1547754967.740833) can0 18FFFB06#0005AFF8FFFFFFFF
(1547754967.742430) can0 0CF00400#F0FF9D201CFFFFFF
(1547754967.752403) can0 0CF00300#FF0023FF06FFFFFF
(1547754967.752975) can0 0CEFFF00#64062D7DFFFFFFFF
(1547754967.753550) can0 18EF0600#640EF700FFFFFFFF
(1547754967.758875) can0 0DEF0603#0101FFFFFFFFFFF5
(1547754967.760072) can0 04EF0006#64151FF00B19930E
(1547754967.762419) can0 0CF00400#F0FF9D2A1CFFFFFF
(1547754967.772365) can0 0CF00300#FF0023FF06FFFFFF
(1547754967.772966) can0 0CEFFF00#64062C7DFFFFFFFF
(1547754967.773520) can0 18EFFF00#64100101D402057D
(1547754967.774090) can0 18FEDF00#8A201CFFFFFFFFFF
(1547754967.774865) can0 1CEB0600#05C05D0000FFFFFF
(1547754967.778837) can0 0DEF0603#0101FFFFFFFFFFF5
(1547754967.780035) can0 04EF0006#641510F01119930E
(1547754967.780636) can0 0CFE4947#FFFFFFFFFFFFFFFF
(1547754967.781215) can0 0CFE4347#0000FFFF3FFFFFFF
(1547754967.781785) can0 1CEC0006#13220005FFE3FE00
(1547754967.782363) can0 0CFE4447#0000FFFF3FFFFFFF
(1547754967.782937) can0 0CF00400#F0FF9C261CFFFFFF
(1547754967.783490) can0 0CFFFE06#5C271D271DFFFFFF
(1547754967.792420) can0 0CF00300#FF0023FF06FFFFFF
(1547754967.793011) can0 0CEFFF00#64062C7DFFFFFFFF
(1547754967.793616) can0 18FEEF00#FFFFFF63FFFFFFFA
(1547754967.798830) can0 0DEF0603#0101FFFFFFFFFFF5
(1547754967.800026) can0 04EF0006#641511F00B19930E
(1547754967.802503) can0 0CF00400#F0FF9C221CFFFFFF
(1547754967.812324) can0 0CF00300#FF0023FF06FFFFFF
(1547754967.812893) can0 0CEFFF00#64062D7DFFFFFFFF
(1547754967.818821) can0 0DEF0603#0101FFFFFFFFFFF5
(1547754967.820016) can0 04EF0006#641512F00B19930E
(1547754967.820616) can0 18FEF147#FF0000FFFFFFFFFF
(1547754967.821195) can0 18F00503#80FFFFFFFFFFFFFF
(1547754967.822369) can0 0CF00400#F0FF9D241CFFFFFF
(1547754967.832363) can0 0CF00300#FF0023FF06FFFFFF
(1547754967.832937) can0 0CEFFF00#64062C7DFFFFFFFF
(1547754967.833508) can0 18FEF200#2100FFFFFFFFFFFF
(1547754967.838411) can0 0DEF0647#0104FFFFFFFFFFF1
(1547754967.839004) can0 0DEF0603#0101FFFFFFFFFFF5
(1547754967.840156) can0 04EF0006#641513F00B19930E
(1547754967.842382) can0 0CF00400#F0FF9C1E1CFFFFFF
(1547754967.852354) can0 0CF00300#FF0024FF06FFFFFF
(1547754967.852925) can0 0CEFFF00#64062E7DFFFFFFFF
(1547754967.853498) can0 18EF0600#640E0100FFFFFFFF
(1547754967.858822) can0 0DEF0603#0101FFFFFFFFFFF5
(1547754967.860047) can0 04EF0006#641514F00419930E
(1547754967.860617) can0 0CFE4947#FFFFFFFFFFFFFFFF
(1547754967.861196) can0 18FFFB06#000587F8FFFFFFFF
(1547754967.861799) can0 0CFE4347#0000FFFF3FFFFFFF
(1547754967.862371) can0 0CFE4447#0000FFFF3FFFFFFF
(1547754967.862930) can0 0CF00400#F0FF9D161CFFFFFF
(1547754967.872303) can0 0CF00300#FF0024FF06FFFFFF
(1547754967.872892) can0 0CEFFF00#64062F7DFFFFFFFF
(1547754967.873457) can0 18EFFF00#64100101D302057D
(1547754967.874024) can0 18FEF600#FF003CFF00FFFFFF
(1547754967.875024) can0 1CECFF00#20220005FFE3FE00
(1547754967.878813) can0 0DEF0603#0101FFFFFFFFFFF5
(1547754967.880037) can0 04EF0006#641515F00919930E
(1547754967.882361) can0 0CF00400#F0FF9D1C1CFFFFFF
(1547754967.892408) can0 18EFFA00#6401FF0000FFFFFF
(1547754967.892978) can0 0CEFFF00#64062F7DFFFFFFFF
(1547754967.893581) can0 0CF00300#FF0023FF06FFFFFF
(1547754967.898802) can0 0DEF0603#0101FFFFFFFFFFF5
(1547754967.900026) can0 04EF0006#641516F00419930E
(1547754967.900598) can0 0CFFFE06#5C271D271DFFFFFF
(1547754967.901152) can0 18FEF147#FF0000FFFFFFFFFF
(1547754967.901778) can0 18F00503#80FFFFFFFFFFFFFF
(1547754967.902349) can0 0CF00400#F0FF9D261CFFFFFF
(1547754967.912283) can0 0CF00300#FF0023FF06FFFFFF
(1547754967.912871) can0 0CEFFF00#64062C7DFFFFFFFF
(1547754967.918768) can0 0DEF0603#0101FFFFFFFFFFF5
(1547754967.919964) can0 04EF0006#641517F00B19930E
(1547754967.922319) can0 0CF00400#F0FF9C1E1CFFFFFF
(1547754967.927494) can0 1CEBFF00#01201CEC6842EAA0
(1547754967.932420) can0 0CF00300#FF0024FF06FFFFFF
(1547754967.932990) can0 0CEFFF00#64062E7DFFFFFFFF
(1547754967.933592) can0 18FEF200#2100FFFFFFFFFFFF
(1547754967.938417) can0 0DEF0647#0104FFFFFFFFFFF1
(1547754967.939013) can0 0DEF0603#0101FFFFFFFFFFF5
(1547754967.940162) can0 04EF0006#641518F00419930E
(1547754967.942343) can0 0CF00400#F0FF9D1E1CFFFFFF
(1547754967.952285) can0 0CF00300#FF0023FF06FFFFFF
(1547754967.952858) can0 0CEFFF00#64062E7DFFFFFFFF
(1547754967.953431) can0 18EF0600#640E0B00FFFFFFFF
(1547754967.958799) can0 0DEF0603#0101FFFFFFFFFFF5
(1547754967.960003) can0 0C000006#30FFFFFFF8FFFFFF
(1547754967.960579) can0 04EF0006#641519F00419930E
(1547754967.962382) can0 0CF00400#F0FF9D241CFFFFFF
(1547754967.972375) can0 0CF00300#FF0023FF06FFFFFF
(1547754967.972949) can0 0CEFFF00#64062D7DFFFFFFFF
(1547754967.973522) can0 18EFFF00#64100101D302057D
(1547754967.975021) can0 1CEBFF00#020FE38D20F17A31
(1547754967.978768) can0 0DEF0603#0101FFFFFFFFFFF5
(1547754967.979970) can0 04EF0006#64151AF00B19930E
(1547754967.980569) can0 0CFE4947#FFFFFFFFFFFFFFFF
(1547754967.981142) can0 0CFE4347#0000FFFF3FFFFFFF
(1547754967.981746) can0 0CFE4447#0000FFFF3FFFFFFF
(1547754967.982314) can0 0CFFFE06#5C271D271DFFFFFF
(1547754967.982893) can0 0CF00400#F0FF9D201CFFFFFF
(1547754967.992314) can0 0CF00300#FF0024FF06FFFFFF
(1547754967.992887) can0 0CEFFF00#64062D7DFFFFFFFF
(1547754967.993417) can0 18FEEE00#5443FFFFFFFFFFFF
(1547754967.998714) can0 0DEF0603#0101FFFFFFFFFFF5
(1547754967.999911) can0 04EF0006#64151BF00B19930E
(1547754968.002282) can0 0CF00400#F0FF9D1E1CFFFFFF
(1547754968.012252) can0 0CF00300#FF0023FF06FFFFFF
(1547754968.012827) can0 0CEFFF00#64062F7DFFFFFFFF
(1547754968.018774) can0 0DEF0603#0101FFFFFFFFFFF5
(1547754968.020012) can0 04EF0006#64151CF00419930E
(1547754968.020574) can0 18FEF147#FF0000FFFFFFFFFF
(1547754968.021170) can0 18F00503#80FFFFFFFFFFFFFF
(1547754968.022573) can0 0CF00400#F0FF9D261CFFFFFF
(1547754968.023171) can0 18FEDF00#8B201CFFFFFFFFFF
(1547754968.028170) can0 1CEBFF00#03FAC044FFFF0401
(1547754968.032293) can0 0CF00300#FF0023FF06FFFFFF
(1547754968.032871) can0 0CEFFF00#64062C7DFFFFFFFF
(1547754968.033444) can0 18FEF200#2100FFFFFFFFFFFF
(1547754968.038344) can0 0DEF0647#0104FFFFFFFFFFF1
(1547754968.038991) can0 0DEF0603#0101FFFFFFFFFFF5
(1547754968.040143) can0 04EF0006#64151DF00B19930E
(1547754968.042291) can0 0CF00400#F0FF9C2A1CFFFFFF
(1547754968.052233) can0 0CF00300#FF0023FF06FFFFFF
(1547754968.052833) can0 0CEFFF00#64062C7DFFFFFFFF
(1547754968.053381) can0 18EF0600#640E1500FFFFFFFF
(1547754968.058762) can0 0DEF0603#0101FFFFFFFFFFF5
(1547754968.059931) can0 04EF0006#64151EF01119930E
(1547754968.060483) can0 0CFE4947#FFFFFFFFFFFFFFFF
(1547754968.061103) can0 18FFFB06#000586F8FFFFFFFF
(1547754968.061679) can0 0CFFFF47#5DFFFFF3FFFFFFFF
(1547754968.062277) can0 0CFE4347#0000FFFF3FFFFFFF
(1547754968.062783) can0 0CF00400#F0FF9C261CFFFFFF
(1547754968.063377) can0 0CFE4447#0000FFFF3FFFFFFF
(1547754968.072398) can0 0CF00300#FF0023FF06FFFFFF
(1547754968.072998) can0 0CEFFF00#64062C7DFFFFFFFF
(1547754968.073499) can0 18EFFF00#64100101D302057D
(1547754968.074077) can0 18FEF700#FFFFFFFFFFFF1801
(1547754968.075195) can0 1CEBFF00#04204E0001FAC9FA
(1547754968.078723) can0 0DEF0603#0101FFFFFFFFFFF5
(1547754968.079919) can0 04EF0006#64151FF00B19930E
(1547754968.082270) can0 0CF00400#F0FF9C281CFFFFFF
(1547754968.092239) can0 0CF00300#FF0023FF06FFFFFF
(1547754968.092812) can0 0CEFFF00#64062C7DFFFFFFFF
(1547754968.098715) can0 0DEF0603#0101FFFFFFFFFFF5
(1547754968.099909) can0 04EF0006#641510F01119930E
(1547754968.100510) can0 0CFFFE06#5C271D271DFFFFFF
(1547754968.101030) can0 18FEF147#FF0000FFFFFFFFFF
(1547754968.101660) can0 18F00503#80FFFFFFFFFFFFFF
(1547754968.102431) can0 0CF00400#F0FF9C2A1CFFFFFF
(1547754968.112453) can0 0CF00300#FF0023FF06FFFFFF
(1547754968.113052) can0 0CEFFF00#64062C7DFFFFFFFF
(1547754968.118705) can0 0DEF0603#0101FFFFFFFFFFF5
(1547754968.119900) can0 04EF0006#641511F01119930E
(1547754968.122272) can0 0CF00400#F0FF9C1E1CFFFFFF
(1547754968.127400) can0 1CEBFF00#05C05D0000FFFFFF
(1547754968.132241) can0 0CF00300#FF0024FF06FFFFFF
(1547754968.132818) can0 0CEFFF00#64062E7DFFFFFFFF
(1547754968.133392) can0 18FEF200#2100FFFFFFFFFFFF
(1547754968.138319) can0 0DEF0647#0104FFFFFFFFFFF1
(1547754968.138917) can0 0DEF0603#0101FFFFFFFFFFF5
(1547754968.140063) can0 04EF0006#641512F00419930E
(1547754968.140664) can0 18FFFF06#73FFFFFFFFFFFFFF
(1547754968.142237) can0 0CF00400#F0FF9D221CFFFFFF
(1547754968.152232) can0 0CF00300#FF0023FF06FFFFFF
(1547754968.152808) can0 0CEFFF00#64062D7DFFFFFFFF
(1547754968.153384) can0 18EF0600#640E1F00FFFFFFFF
(1547754968.158709) can0 0DEF0603#0101FFFFFFFFFFF5
(1547754968.159903) can0 04EF0006#641513F00B19930E
(1547754968.162336) can0 0CF00400#F0FF9D2C1CFFFFFF
(1547754968.168104) can0 1CFFFF17#22FFFF3CFFFFFFFF
(1547754968.172228) can0 0CF00300#FF0023FF06FFFFFF
(1547754968.172796) can0 0CEFFF00#64062B7DFFFFFFFF
(1547754968.173349) can0 18EFFF00#64100101D402057D
(1547754968.173946) can0 18FED500#FFFFFDFFFFFFFFFF
(1547754968.178698) can0 0DEF0603#0101FFFFFFFFFFF5
(1547754968.179869) can0 04EF0006#641514F01119930E
(1547754968.180470) can0 0CFE4947#FFFFFFFFFFFFFFFF
(1547754968.181045) can0 1CFDDF47#FDFFFFFFFFFFFFFF
(1547754968.181620) can0 0CFE4347#0000FFFF3FFFFFFF
(1547754968.182146) can0 18FFFB06#000587F8FFFFFFFF
(1547754968.182722) can0 0CF00400#F0FF9C281CFFFFFF
(1547754968.183346) can0 0CFE4447#0000FFFF3FFFFFFF
(1547754968.183918) can0 0CFFFE06#5C271D271DFFFFFF
(1547754968.192245) can0 0CF00300#FF0023FF06FFFFFF
(1547754968.192813) can0 0CEFFF00#64062C7DFFFFFFFF
(1547754968.198663) can0 0DEF0603#0101FFFFFFFFFFF5
(1547754968.199858) can0 04EF0006#641515F01119930E
(1547754968.202462) can0 0CF00400#F0FF9C241CFFFFFF
(1547754968.212158) can0 0CF00300#FF0023FF06FFFFFF
(1547754968.212754) can0 0CEFFF00#64062C7DFFFFFFFF
(1547754968.213327) can0 18FDB300#FFFF4C29FFFFFFFF
(1547754968.218678) can0 0DEF0603#0101FFFFFFFFFFF5
(1547754968.219873) can0 04EF0006#641516F00B19930E
(1547754968.220449) can0 18FEF147#FF0000FFFFFFFFFF
(1547754968.221049) can0 18F00647#FFCFFFFFFFFFFFFF
(1547754968.221651) can0 18F00503#80FFFFFFFFFFFFFF
(1547754968.222247) can0 0CF00400#F0FF9C241CFFFFFF
(1547754968.232151) can0 0CF00300#FF0023FF06FFFFFF
(1547754968.232795) can0 0CEFFF00#64062C7DFFFFFFFF
(1547754968.233368) can0 18FEF200#2100FFFFFFFFFFFF
(1547754968.238199) can0 0DEF0647#0104FFFFFFFFFFF1
(1547754968.238818) can0 0DEF0603#0101FFFFFFFFFFF5
(1547754968.239988) can0 04EF0006#641517F00B19930E
(1547754968.242218) can0 0CF00400#F0FF9C201CFFFFFF
(1547754968.252184) can0 0CF00300#FF0024FF06FFFFFF
(1547754968.252727) can0 0CEFFF00#64062D7DFFFFFFFF
(1547754968.253299) can0 18EF0600#640E2900FFFFFFFF
(1547754968.258660) can0 0DEF0603#0101FFFFFFFFFFF5
(1547754968.259830) can0 04EF0006#641518F00B19930E
(1547754968.260428) can0 0CFE4947#FFFFFFFFFFFFFFFF
(1547754968.261003) can0 0CFE4347#0000FFFF3FFFFFFF
(1547754968.261605) can0 0CFE4447#0000FFFF3FFFFFFF
(1547754968.262226) can0 0CF00400#F0FF9D181CFFFFFF
(1547754968.272128) can0 0CF00300#FF0024FF06FFFFFF
(1547754968.272723) can0 0CEFFF00#64062F7DFFFFFFFF
(1547754968.273295) can0 18EFFF00#64100101D202057D
(1547754968.273826) can0 18FEDF00#8B201CFFFFFFFFFF
(1547754968.278599) can0 0DEF0603#0101FFFFFFFFFFF5
(1547754968.279847) can0 04EF0006#641519F00419930E
(1547754968.282191) can0 0CF00400#F0FF9D1E1CFFFFFF
(1547754968.292238) can0 0CF00300#FF0023FF06FFFFFF
(1547754968.292808) can0 0CEFFF00#64062E7DFFFFFFFF
(1547754968.293410) can0 18FEEF00#FFFFFF64FFFFFFFA
(1547754968.298632) can0 0DEF0603#0101FFFFFFFFFFF5
(1547754968.299853) can0 04EF0006#64151AF00419930E
(1547754968.300429) can0 0CFFFE06#5C271D271DFFFFFF
(1547754968.300999) can0 18FEF147#FF0000FFFFFFFFFF
(1547754968.301593) can0 18FFFB06#000587F8FFFFFFFF
(1547754968.302192) can0 18F00503#80FFFFFFFFFFFFFF
(1547754968.302733) can0 0CF00400#F0FF9D281CFFFFFF
(1547754968.312080) can0 0CF00300#FF0023FF06FFFFFF
(1547754968.312712) can0 0CEFFF00#64062C7DFFFFFFFF
(1547754968.318578) can0 0DEF0603#0101FFFFFFFFFFF5
(1547754968.319747) can0 04EF0006#64151BF01119930E
(1547754968.322161) can0 0CF00400#F0FF9C201CFFFFFF
(1547754968.332257) can0 0CF00300#FF0023FF06FFFFFF
(1547754968.332828) can0 0CEFFF00#64062D7DFFFFFFFF
(1547754968.333371) can0 18FEF200#2100FFFFFFFFFFFF
(1547754968.338178) can0 0DEF0647#0104FFFFFFFFFFF1
(1547754968.338799) can0 0DEF0603#0101FFFFFFFFFFF5
(1547754968.339925) can0 04EF0006#64151CF00B19930E
(1547754968.342152) can0 0CF00400#F0FF9D201CFFFFFF
(1547754968.352098) can0 0CF00300#FF0023FF06FFFFFF
(1547754968.352669) can0 0CEFFF00#64062D7DFFFFFFFF
(1547754968.353218) can0 18EF0600#640E3300FFFFFFFF
(1547754968.358599) can0 0DEF0603#0101FFFFFFFFFFF5
(1547754968.359794) can0 04EF0006#64151DF00B19930E
(1547754968.362123) can0 0CF00400#F0FF9D221CFFFFFF
(1547754968.372141) can0 0CF00300#FF0023FF06FFFFFF
(1547754968.372737) can0 0CEFFF00#64062C7DFFFFFFFF
(1547754968.373314) can0 18EFFF00#64100101D202057D
(1547754968.373888) can0 18FEF600#FF003CFF00FFFFFF
(1547754968.378587) can0 0DEF0603#0101FFFFFFFFFFF5
(1547754968.379785) can0 04EF0006#64151EF00B19930E
(1547754968.380363) can0 0CFE4947#FFFFFFFFFFFFFFFF
(1547754968.380956) can0 0CFE4347#0000FFFF3FFFFFFF
(1547754968.381561) can0 0CFE4447#0000FFFF3FFFFFFF
(1547754968.382090) can0 0CFFFE06#5C271D271DFFFFFF
(1547754968.382642) can0 0CF00400#F0FF9C1C1CFFFFFF
(1547754968.392088) can0 0CF00300#FF0024FF06FFFFFF
(1547754968.392704) can0 0CEFFF00#64062E7DFFFFFFFF
(1547754968.398537) can0 0DEF0603#0101FFFFFFFFFFF5
(1547754968.399784) can0 04EF0006#64151FF00419930E
(1547754968.402125) can0 0CF00400#F0FF9D1A1CFFFFFF
(1547754968.412045) can0 0CF00300#FF0023FF06FFFFFF
(1547754968.412619) can0 0CEFFF00#64062F7DFFFFFFFF
(1547754968.418569) can0 0DEF0603#0101FFFFFFFFFFF5
(1547754968.419813) can0 04EF0006#641510F00419930E
(1547754968.420389) can0 18FEF147#FF0000FFFFFFFFFF
(1547754968.420987) can0 18FFFB06#000587F8FFFFFFFF
(1547754968.421589) can0 18F00503#80FFFFFFFFFFFFFF
(1547754968.422389) can0 0CF00400#F0FF9D241CFFFFFF
