(1547754865.924296) can0 18EEFF47#4D74300400340220
(1547754865.924871) can0 18EEFF06#4D743004000E0020
(1547754865.925419) can0 18EEFF03#4D74300400030220
(1547754865.950812) can0 18EEFF00#56F5290400000220
(1547754865.953035) can0 0CF00400#F0FF000000FFFFFF
(1547754865.953372) can0 18EAFF00#00EE00
(1547754865.962906) can0 0CF00300#FF0000FF00FFFFFF
(1547754865.963506) can0 0CEFFF00#6406007DFFFFFFFF
(1547754865.964078) can0 18FEF200#0000FFFFFFFFFFFF
(1547754865.973125) can0 0CF00400#F0FF7D0000FFFFFF
(1547754865.982997) can0 0CF00300#FF0000FF06FFFFFF
(1547754865.983570) can0 0CEFFF00#6406007DFFFFFFFF
(1547754865.984143) can0 18EF0600#640E0302FFFFFFFF
(1547754865.993040) can0 0CF00400#F0FF7D0000FFFFFF
(1547754866.003036) can0 0CF00300#FF0000FF06FFFFFF
(1547754866.003609) can0 0CEFFF00#6406007DFFFFFFFF
(1547754866.004207) can0 18EFFF00#64100B0B0000007D
(1547754866.004784) can0 18FEDF00#7DFE1CFFFFFFFFFF
(1547754866.005334) can0 1CECFF00#20220005FFE3FE00
(1547754866.012989) can0 0CF00400#F0FF7D0000FFFFFF
(1547754866.022999) can0 0CF00300#FF0000FF06FFFFFF
(1547754866.023574) can0 0CEFFF00#6406007DFFFFFFFF
(1547754866.024148) can0 18FEEF00#FFFFFFFEFFFFFFFA
(1547754866.032991) can0 0CF00400#F0FF7D0000FFFFFF
(1547754866.042965) can0 0CF00300#FF0000FF06FFFFFF
(1547754866.043565) can0 0CEFFF00#6406007DFFFFFFFF
(1547754866.053037) can0 0CF00400#F0FF7D0000FFFFFF
(1547754866.056161) can0 1CEBFF00#01201CDD6842DCA0
(1547754866.063009) can0 0CF00300#FF0000FF06FFFFFF
(1547754866.063579) can0 0CEFFF00#6406007DFFFFFFFF
(1547754866.064179) can0 18FEF200#0000FFFFFFFFFFFF
(1547754866.073026) can0 0CF00400#F0FF7D0000FFFFFF
(1547754866.082995) can0 0CF00300#FF0000FF06FFFFFF
(1547754866.083568) can0 0CEFFF00#6406007DFFFFFFFF
(1547754866.084143) can0 18EF0600#640E0D02FFFFFFFF
(1547754866.093014) can0 0CF00400#F0FF7D0000FFFFFF
(1547754866.102958) can0 0CF00300#FF0000FF06FFFFFF
(1547754866.103558) can0 0CEFFF00#6406007DFFFFFFFF
(1547754866.104110) can0 18EFFF00#64100B0B0000007D
(1547754866.104684) can0 18FEF600#FF0047FF00FFFFFF
(1547754866.105257) can0 1CEBFF00#020FD58D20E37A31
(1547754866.112972) can0 0CF00400#F0FF7D0000FFFFFF
(1547754866.122925) can0 18EFFA00#6401FF0000FFFFFF
(1547754866.123500) can0 0CEFFF00#6406007DFFFFFFFF
(1547754866.124072) can0 0CF00300#FF0000FF06FFFFFF
(1547754866.132961) can0 0CF00400#F0FF7D0000FFFFFF
(1547754866.142920) can0 0CF00300#FF0000FF06FFFFFF
(1547754866.143538) can0 0CEFFF00#6406007DFFFFFFFF
(1547754866.153020) can0 0CF00400#F0FF7D0000FFFFFF
(1547754866.156209) can0 1CEBFF00#03F1C044FFFF0401
(1547754866.162981) can0 0CF00300#FF0000FF06FFFFFF
(1547754866.163555) can0 0CEFFF00#6406007DFFFFFFFF
(1547754866.164152) can0 18FEF200#0000FFFFFFFFFFFF
(1547754866.172977) can0 0CF00400#F0FF7D0000FFFFFF
(1547754866.182921) can0 0CF00300#FF0000FF06FFFFFF
(1547754866.183449) can0 0CEFFF00#6406007DFFFFFFFF
(1547754866.184066) can0 18EF0600#640E1706FFFFFFFF
(1547754866.185573) can0 0DEF0603#0101FFFFFFFFFFF5
(1547754866.186140) can0 04EF0006#641510F00000930E
(1547754866.186718) can0 0C000006#30FFFFFFF8FFFFFF
(1547754866.192991) can0 0CF00400#F0FF7D0000FFFFFF
(1547754866.202911) can0 0CF00300#FF0000FF06FFFFFF
(1547754866.203509) can0 0CEFFF00#6406007DFFFFFFFF
(1547754866.204057) can0 18EEFF00#56F5290400000220
(1547754866.204635) can0 18EFFF00#64100B0B0000007D
(1547754866.205206) can0 1CEBFF00#04204E0001FAC9FA
(1547754866.205749) can0 0DEF0647#0104FFFFFFFFFFF1
(1547754866.206349) can0 04EF0006#641510F00000930E
(1547754866.206936) can0 0DEF0603#0101FFFFFFFFFFF5
(1547754866.207475) can0 18FFFB06#00057DF8FFFFFFFF
(1547754866.208053) can0 0CFFFE06#5C271D271DFFFFFF
(1547754866.208425) can0 18EAFF47#00EE00
(1547754866.212925) can0 0CF00400#F0FF7D0000FFFFFF
(1547754866.222929) can0 0CF00300#FF0000FF06FFFFFF
(1547754866.223500) can0 0CEFFF00#6406007DFFFFFFFF
(1547754866.224049) can0 18FEEE00#5343FFFFFFFFFFFF
(1547754866.225576) can0 0DEF0603#0101FFFFFFFFFFF5
(1547754866.226148) can0 04EF0006#641510F00000930E
(1547754866.232947) can0 0CF00400#F0FF7D0000FFFFFF
(1547754866.242892) can0 0CF00300#FF0000FF06FFFFFF
(1547754866.243490) can0 0CEFFF00#6406007DFFFFFFFF
(1547754866.245543) can0 0DEF0603#0101FFFFFFFFFFF5
(1547754866.246114) can0 04EF0006#641510F00000930E
(1547754866.246663) can0 0CFE4947#FFFFFFFFFFFFFFFF
(1547754866.247263) can0 0CFE4347#FFFFFFFFFFFFFFFF
(1547754866.247864) can0 0CFE4447#0000FFFF3FFFFFFF
(1547754866.252938) can0 0CF00400#F0FF7D0000FFFFFF
(1547754866.253536) can0 18FEDF00#7D261DFFFFFFFFFF
(1547754866.256400) can0 18EEFF00#56F5290400000220
(1547754866.256987) can0 1CEBFF00#05C05D0000FFFFFF
(1547754866.262899) can0 0CF00300#FF0000FF06FFFFFF
(1547754866.263505) can0 0CEFFF00#6406007DFFFFFFFF
(1547754866.264104) can0 18FEF200#0000FFFFFFFFFFFF
(1547754866.265557) can0 0DEF0603#0101FFFFFFFFFFF5
(1547754866.266101) can0 04EF0006#641510F00000930E
(1547754866.272929) can0 0CF00400#F0FF7D0000FFFFFF
(1547754866.282870) can0 0CF00300#FF0000FF06FFFFFF
(1547754866.283446) can0 0CEFFF00#6406007DFFFFFFFF
(1547754866.284018) can0 18EF0600#640E2100FFFFFFFF
(1547754866.285544) can0 0DEF0603#0101FFFFFFFFFFF5
(1547754866.286092) can0 04EF0006#641510F00000930E
(1547754866.286669) can0 18FEF147#FF0000FFFFFFFFFF
(1547754866.287292) can0 18F00503#FFFFFFFFFFFFFFFF
(1547754866.292944) can0 0CF00400#F0FF7D0000FFFFFF
(1547754866.302907) can0 0CF00300#FF0000FF06FFFFFF
(1547754866.303482) can0 0CEFFF00#6406007DFFFFFFFF
(1547754866.304053) can0 18EFFF00#64100B0B0000007D
(1547754866.304632) can0 18FEF700#FFFFFFFFFFFFA200
(1547754866.305428) can0 0DEF0647#0104FFFFFFFFFFF1
(1547754866.306034) can0 0DEF0603#0101FFFFFFFFFFF5
(1547754866.306604) can0 04EF0006#641510F00000930E
(1547754866.312928) can0 0CF00400#F0FF7D0000FFFFFF
(1547754866.322872) can0 0CF00300#FF0000FF06FFFFFF
(1547754866.323445) can0 0CEFFF00#6406007DFFFFFFFF
(1547754866.325526) can0 0DEF0603#0101FFFFFFFFFFF5
(1547754866.326069) can0 04EF0006#641510F00000930E
(1547754866.326646) can0 0CFE4947#FFFFFFFFFFFFFFFF
(1547754866.327244) can0 0CFE4347#FFFFFFFFFFFFFFFF
(1547754866.327845) can0 0CFE4447#0000FFFF3FFFFFFF
(1547754866.328388) can0 0CFFFE06#5C271D271DFFFFFF
(1547754866.332887) can0 0CF00400#F0FF7D0000FFFFFF
(1547754866.342832) can0 0CF00300#FF0000FF06FFFFFF
(1547754866.343437) can0 0CEFFF00#6406007DFFFFFFFF
(1547754866.345431) can0 0DEF0603#0101FFFFFFFFFFF5
(1547754866.346057) can0 04EF0006#641510F00000930E
(1547754866.352935) can0 0CF00400#F0FF7D0000FFFFFF
(1547754866.354083) can0 18EEFF47#4D74300400340220
(1547754866.354655) can0 18EEFF06#4D743004000E0020
(1547754866.355227) can0 18EEFF03#4D74300400030220
(1547754866.362881) can0 0CF00300#FF0000FF06FFFFFF
(1547754866.363452) can0 0CEFFF00#6406007DFFFFFFFF
(1547754866.364049) can0 18FEF200#0000FFFFFFFFFFFF
(1547754866.365502) can0 0DEF0603#0101FFFFFFFFFFF5
(1547754866.366073) can0 04EF0006#641510F00000930E
(1547754866.366625) can0 18FEF147#FF0000FFFFFFFFFF
(1547754866.367217) can0 18F00503#FFFFFFFFFFFFFFFF
(1547754866.372926) can0 0CF00400#F0FF7D0000FFFFFF
(1547754866.382843) can0 0CF00300#FF0000FF06FFFFFF
(1547754866.383442) can0 0CEFFF00#6406007DFFFFFFFF
(1547754866.384016) can0 18EF0600#640E2B00FFFFFFFF
(1547754866.385495) can0 0DEF0603#0101FFFFFFFFFFF5
(1547754866.386011) can0 04EF0006#641510F00000930E
(1547754866.392889) can0 0CF00400#F0FF7D0000FFFFFF
(1547754866.402860) can0 0CF00300#FF0000FF06FFFFFF
(1547754866.403430) can0 0CEFFF00#6406007DFFFFFFFF
(1547754866.404004) can0 18EFFF00#64100B0B0000007D
(1547754866.404582) can0 18FED500#FFFFFCFFFFFFFFFF
(1547754866.405407) can0 0DEF0647#0104FFFFFFFFFFF1
(1547754866.406004) can0 0DEF0603#0101FFFFFFFFFFF5
(1547754866.406554) can0 04EF0006#641510F00000930E
(1547754866.407129) can0 0CFFFE06#5C271D271DFFFFFF
(1547754866.412873) can0 0CF00400#F0FF7D0000FFFFFF
(1547754866.422816) can0 0CF00300#FF0000FF06FFFFFF
(1547754866.423423) can0 0CEFFF00#6406007DFFFFFFFF
(1547754866.425446) can0 0DEF0603#0101FFFFFFFFFFF5
(1547754866.426020) can0 04EF0006#641510F00000930E
(1547754866.432918) can0 0CF00400#F0FF7D8C05FFFFFF
(1547754866.442865) can0 0CF00300#FF0000FF06FFFFFF
(1547754866.443437) can0 0CEFFF00#6406F77CFFFFFFFF
(1547754866.444035) can0 18FDB300#FFFFD428FFFFFFFF
(1547754866.445860) can0 0DEF0603#0101FFFFFFFFFFF5
(1547754866.447086) can0 04EF0006#641510F00000930E
(1547754866.447661) can0 0CFE4947#FFFFFFFFFFFFFFFF
(1547754866.448259) can0 0CFE4347#FFFFFFFFFFFFFFFF
(1547754866.448835) can0 0CFE4447#0000FFFF3FFFFFFF
(1547754866.452906) can0 0CF00400#F0FF7DA605FFFFFF
(1547754866.462929) can0 0CF00300#FF0000FF06FFFFFF
(1547754866.463500) can0 0CEFFF00#6406F77CFFFFFFFF
(1547754866.464101) can0 18FEF200#0000FFFFFFFFFFFF
(1547754866.465854) can0 0DEF0603#0101FFFFFFFFFFF5
(1547754866.467075) can0 04EF0006#641510F00000930E
(1547754866.472900) can0 0CF00400#F0FF7DA605FFFFFF
(1547754866.482869) can0 0CF00300#FF0000FF06FFFFFF
(1547754866.483441) can0 0CEFFF00#6406F77CFFFFFFFF
(1547754866.484017) can0 18EF0600#640E3500FFFFFFFF
(1547754866.485843) can0 0DEF0603#0101FFFFFFFFFFF5
(1547754866.487064) can0 04EF0006#641510F00000930E
(1547754866.487596) can0 18FEF147#FF0000FFFFFFFFFF
(1547754866.488239) can0 18F00503#FFFFFFFFFFFFFFFF
(1547754866.492889) can0 0CF00400#F0FF7DA605FFFFFF
(1547754866.502836) can0 0CF00300#FF0000FF06FFFFFF
(1547754866.503431) can0 0CEFFF00#6406F77CFFFFFFFF
(1547754866.504005) can0 18EFFF00#641000000000007D
(1547754866.504580) can0 18FEDF00#80261DFFFFFFFFFF
(1547754866.505757) can0 0DEF0647#0104FFFFFFFFFFF1
(1547754866.506380) can0 0DEF0603#0101FFFFFFFFFFF5
(1547754866.507578) can0 04EF0006#641510F00000930E
(1547754866.512904) can0 0CF00400#F0FF7DA605FFFFFF
(1547754866.522850) can0 0CF00300#FF0000FF06FFFFFF
(1547754866.523421) can0 0CEFFF00#6406F77CFFFFFFFF
(1547754866.523995) can0 18FEEF00#FFFFFF15FFFFFFFA
(1547754866.526122) can0 0DEF0603#0101FFFFFFFFFFF5
(1547754866.527320) can0 04EF0006#641510F00000930E
(1547754866.527894) can0 0CFE4947#FFFFFFFFFFFFFFFF
(1547754866.528493) can0 0CFFFF47#5DFFFFF3FFFFFFFF
(1547754866.532929) can0 0CF00400#F0FF7DA605FFFFFF
(1547754866.542814) can0 0CF00300#FF0000FF06FFFFFF
(1547754866.543387) can0 0CEFFF00#6406F77CFFFFFFFF
(1547754866.552888) can0 0CF00400#F0FF7D2005FFFFFF
(1547754866.562880) can0 0CF00300#FF0000FF06FFFFFF
(1547754866.563451) can0 0CEFFF00#6406F87CFFFFFFFF
(1547754866.564025) can0 18FEF200#0000FFFFFFFFFFFF
(1547754866.572850) can0 0CF00400#F0FF7D1C05FFFFFF
(1547754866.582819) can0 0CF00300#FF0000FF06FFFFFF
(1547754866.583391) can0 0CEFFF00#6406F87CFFFFFFFF
(1547754866.583968) can0 18EF0600#640E3F00FFFFFFFF
(1547754866.592891) can0 0CF00400#F0FF7D1C05FFFFFF
(1547754866.602808) can0 0CF00300#FF0000FF07FFFFFF
(1547754866.603384) can0 0CEFFF00#6406F87CFFFFFFFF
(1547754866.603982) can0 18EFFF00#641000000000007D
(1547754866.604557) can0 18FEF600#FF0042FF00FFFFFF
(1547754866.612828) can0 0CF00400#F0FF7D1C05FFFFFF
(1547754866.622800) can0 0CF00300#FF0000FF06FFFFFF
(1547754866.623398) can0 0CEFFF00#6406F87CFFFFFFFF
(1547754866.632844) can0 0CF00400#F0FF7D1806FFFFFF
(1547754866.642789) can0 0CF00300#FF0000FF06FFFFFF
(1547754866.643361) can0 0CEFFF00#6406F67CFFFFFFFF
(1547754866.652835) can0 0CF00400#F0FF7DA806FFFFFF
(1547754866.653410) can0 18FFFA00#022C0000180C0000
(1547754866.662803) can0 0CF00300#FF0000FF06FFFFFF
(1547754866.663354) can0 0CEFFF00#6406F57CFFFFFFFF
(1547754866.663951) can0 18FEF200#0000FFFFFFFFFFFF
(1547754866.672848) can0 0CF00400#F0FF7DAA06FFFFFF
(1547754866.682715) can0 0CF00300#FF0000FF06FFFFFF
(1547754866.683341) can0 0CEFFF00#6406F57CFFFFFFFF
(1547754866.683916) can0 18EF0600#640E4900FFFFFFFF
(1547754866.684492) can0 18FEF500#C8FFFFFFFF3DFFFF
(1547754866.692788) can0 0CF00400#F0FF7DAA06FFFFFF
(1547754866.702759) can0 0CF00300#FF0000FF06FFFFFF
(1547754866.703332) can0 0CEFFF00#6406F57CFFFFFFFF
(1547754866.703904) can0 18EFFF00#641000000000007D
(1547754866.712802) can0 0CF00400#F0FF7DAA06FFFFFF
(1547754866.722693) can0 0CF00300#FF0000FF06FFFFFF
(1547754866.723323) can0 0CEFFF00#6406F57CFFFFFFFF
(1547754866.723895) can0 18FE6900#70259227FFFF60FE
(1547754866.732794) can0 0CF00400#F0FF7DAA06FFFFFF
(1547754866.742764) can0 0CF00300#FF0000FF06FFFFFF
(1547754866.743336) can0 0CEFFF00#6406F57CFFFFFFFF
(1547754866.752782) can0 0CF00400#F0FF7D7004FFFFFF
(1547754866.753359) can0 18FEDF00#81FE1CFFFFFFFFFF
(1547754866.762751) can0 0CF00300#FF0000FF06FFFFFF
(1547754866.763305) can0 0CEFFF00#6406F97CFFFFFFFF
(1547754866.763900) can0 18FEF200#0000FFFFFFFFFFFF
(1547754866.772772) can0 0CF00400#F0FF7D5204FFFFFF
(1547754866.782718) can0 0CF00300#FF0000FF06FFFFFF
(1547754866.783291) can0 0CEFFF00#6406F97CFFFFFFFF
(1547754866.783865) can0 18EF0600#640E5306FFFFFFFF
(1547754866.792764) can0 0CF00400#F0FF7D5204FFFFFF
(1547754866.802710) can0 0CF00300#FF0000FF06FFFFFF
(1547754866.803286) can0 0CEFFF00#6406F97CFFFFFFFF
(1547754866.803884) can0 18EFFF00#641000000000007D
(1547754866.812755) can0 0CF00400#F0FF7D0209FFFFFF
(1547754866.822703) can0 0CF00300#FF0000FF06FFFFFF
(1547754866.823277) can0 0CEFFF00#6406F27CFFFFFFFF
(1547754866.832746) can0 0CF00400#FEFF7D4E07FFFFFF
(1547754866.842743) can0 0CF00300#FF0064FF06FFFFFF
(1547754866.843316) can0 0CEFFF00#64068C7DFFFFFFFF
(1547754866.843890) can0 18FD7C00#F880F0F000CF03FC
(1547754866.852785) can0 0CF00400#FEFFB7A206FFFFFF
(1547754866.862730) can0 0CF00300#FF0064FF06FFFFFF
(1547754866.863307) can0 0CEFFF00#64068C7DFFFFFFFF
(1547754866.863880) can0 18FEF200#1A00FFFFFFFFFFFF
(1547754866.872725) can0 0CF00400#FEFFB7DC05FFFFFF
(1547754866.882722) can0 0CF00300#FF0064FF06FFFFFF
(1547754866.883294) can0 0CEFFF00#64068C7DFFFFFFFF
(1547754866.883870) can0 18EF0600#640E5D06FFFFFFFF
(1547754866.892740) can0 0CF00400#FEFFB61605FFFFFF
(1547754866.902686) can0 0CF00300#FF0064FF06FFFFFF
(1547754866.903261) can0 0CEFFF00#64068C7DFFFFFFFF
(1547754866.903860) can0 18EFFF00#641000000000007D
(1547754866.912708) can0 0CF00400#FEFFB6C005FFFFFF
(1547754866.922733) can0 0CF00300#FF0064FF06FFFFFF
(1547754866.923301) can0 0CEFFF00#64068C7DFFFFFFFF
(1547754866.932766) can0 0CF00400#FEFFB6EA06FFFFFF
(1547754866.942686) can0 0CF00300#FF0064FF06FFFFFF
(1547754866.943256) can0 0CEFFF00#64068C7DFFFFFFFF
(1547754866.943832) can0 18FDB300#FFFFC828FFFFFFFF
(1547754866.944405) can0 1CEFFF00#64070000FFFFFFFF
(1547754866.952726) can0 0CF00400#FEFFB77C07FFFFFF
(1547754866.962726) can0 0CF00300#FF0064FF06FFFFFF
(1547754866.963307) can0 0CEFFF00#64068C7DFFFFFFFF
(1547754866.963870) can0 18FEF200#1E00FFFFFFFFFFFF
(1547754866.972723) can0 0CF00400#FEFFB78607FFFFFF
(1547754866.982692) can0 0CF00300#FF0064FF06FFFFFF
(1547754866.983263) can0 0CEFFF00#64068C7DFFFFFFFF
(1547754866.983806) can0 18EF0600#640E6706FFFFFFFF
(1547754866.992714) can0 0CF00400#FEFFB75407FFFFFF
(1547754867.002683) can0 0CF00300#FF0064FF06FFFFFF
(1547754867.003254) can0 0CEFFF00#64068C7DFFFFFFFF
(1547754867.003850) can0 18EFFF00#641000000000007D
(1547754867.004427) can0 18FEDF00#81201CFFFFFFFFFF
(1547754867.012725) can0 0CF00400#FEFFB70007FFFFFF
(1547754867.022645) can0 0CF00300#FF0064FF06FFFFFF
(1547754867.023216) can0 0CEFFF00#64068C7DFFFFFFFF
(1547754867.023793) can0 18FEEF00#FFFFFF44FFFFFFFA
(1547754867.032691) can0 0CF00400#FEFFB7CA06FFFFFF
(1547754867.042763) can0 0CF00300#FF0064FF06FFFFFF
(1547754867.043333) can0 0CEFFF00#64068C7DFFFFFFFF
(1547754867.052680) can0 0CF00400#FEFFB72A06FFFFFF
(1547754867.062775) can0 0CF00300#FF0064FF06FFFFFF
(1547754867.063346) can0 0CEFFF00#64068C7DFFFFFFFF
(1547754867.063921) can0 18FEF200#1900FFFFFFFFFFFF
(1547754867.072720) can0 0CF00400#FEFFB75C05FFFFFF
(1547754867.082690) can0 0CF00300#FF0064FF06FFFFFF
(1547754867.083231) can0 0CEFFF00#64068C7DFFFFFFFF
(1547754867.083816) can0 18EF0600#640E7106FFFFFFFF
(1547754867.092660) can0 0CF00400#FEFFB6CA05FFFFFF
(1547754867.102630) can0 0CF00300#FF0064FF06FFFFFF
(1547754867.103204) can0 0CEFFF00#64068C7DFFFFFFFF
(1547754867.103775) can0 18EFFF00#641000000000007D
(1547754867.104352) can0 18FEF600#FF0042FF00FFFFFF
(1547754867.112651) can0 0CF00400#FEFFB69409FFFFFF
(1547754867.122619) can0 18EFFA00#6401FF0000FFFFFF
(1547754867.123191) can0 0CEFFF00#64068C7DFFFFFFFF
(1547754867.123764) can0 0CF00300#FF0064FF06FFFFFF
(1547754867.132666) can0 0CF00400#FEFFB9280CFFFFFF
(1547754867.142586) can0 0CF00300#FF0064FF06FFFFFF
(1547754867.143159) can0 0CEFFF00#64068C7DFFFFFFFF
(1547754867.152629) can0 0CF00400#FEFFBB860CFFFFFF
(1547754867.162625) can0 0CF00300#FF0064FF06FFFFFF
(1547754867.163198) can0 0CEFFF00#64068C7DFFFFFFFF
(1547754867.163770) can0 18FEF200#3500FFFFFFFFFFFF
(1547754867.172670) can0 0CF00400#FEFFBBF80BFFFFFF
(1547754867.182590) can0 0CF00300#FF0064FF06FFFFFF
(1547754867.183161) can0 0CEFFF00#64068C7DFFFFFFFF
(1547754867.183735) can0 18EF0600#640E7B06FFFFFFFF
(1547754867.192809) can0 0CF00400#FEFFBA1E0AFFFFFF
(1547754867.202576) can0 0CF00300#FF0064FF06FFFFFF
(1547754867.203154) can0 0CEFFF00#64068C7DFFFFFFFF
(1547754867.203750) can0 18EFFF00#641000000000007D
(1547754867.212627) can0 0CF00400#FEFFB93A0BFFFFFF
(1547754867.222598) can0 0CF00300#FF0064FF06FFFFFF
(1547754867.223168) can0 0CEFFF00#64068C7DFFFFFFFF
(1547754867.223739) can0 18FEEE00#5343FFFFFFFFFFFF
(1547754867.232642) can0 0CF00400#FEFFBA2C0FFFFFFF
(1547754867.242585) can0 0CF00300#FF0064FF06FFFFFF
(1547754867.243155) can0 0CEFFF00#64068C7DFFFFFFFF
(1547754867.252602) can0 0CF00400#FEFFBC800DFFFFFF
(1547754867.253205) can0 18FEDF00#82201CFFFFFFFFFF
(1547754867.262722) can0 0CF00300#FF0064FF06FFFFFF
(1547754867.263297) can0 0CEFFF00#64068C7DFFFFFFFF
(1547754867.263870) can0 18FEF200#3A00FFFFFFFFFFFF
(1547754867.272669) can0 0CF00400#FEFFBBC00EFFFFFF
(1547754867.282665) can0 0CF00300#FF0064FF06FFFFFF
(1547754867.283240) can0 0CEFFF00#64068C7DFFFFFFFF
(1547754867.283809) can0 18EF0600#640E8506FFFFFFFF
(1547754867.292579) can0 0CF00400#FEFFBCA80DFFFFFF
(1547754867.302548) can0 0CF00300#FF0064FF06FFFFFF
(1547754867.303117) can0 0CEFFF00#64068C7DFFFFFFFF
(1547754867.303718) can0 18EFFF00#641000000000007D
(1547754867.304293) can0 18FEF700#FFFFFFFFFFFFC900
(1547754867.312587) can0 0CF00400#FEFFBB3E11FFFFFF
(1547754867.322563) can0 0CF00300#FF0064FF06FFFFFF
(1547754867.323134) can0 0CEFFF00#64068C7DFFFFFFFF
(1547754867.332561) can0 0CF00400#FEFFBE5410FFFFFF
(1547754867.342610) can0 0CF00300#FF0064FF06FFFFFF
(1547754867.343182) can0 0CEFFF00#64068C7DFFFFFFFF
(1547754867.352654) can0 0CF00400#FEFFBDCE10FFFFFF
(1547754867.362576) can0 0CF00300#FF0064FF06FFFFFF
(1547754867.363146) can0 0CEFFF00#64068C7DFFFFFFFF
(1547754867.363719) can0 18FEF200#4B00FFFFFFFFFFFF
(1547754867.372569) can0 0CF00400#FEFFBDB811FFFFFF
(1547754867.382514) can0 0CF00300#FF0064FF06FFFFFF
(1547754867.383086) can0 0CEFFF00#64068C7DFFFFFFFF
(1547754867.383663) can0 18EF0600#640E8F06FFFFFFFF
(1547754867.392556) can0 0CF00400#FEFFBE9A12FFFFFF
(1547754867.402603) can0 0CF00300#FF0064FF06FFFFFF
(1547754867.403178) can0 0CEFFF00#64068C7DFFFFFFFF
(1547754867.403802) can0 18EFFF00#641000000000007D
(1547754867.404349) can0 18FED500#FFFFFCFFFFFFFFFF
(1547754867.412621) can0 0CF00400#FEFFBE6413FFFFFF
(1547754867.422519) can0 0CF00300#FF0064FF06FFFFFF
(1547754867.423095) can0 0CEFFF00#64068C7DFFFFFFFF
(1547754867.432514) can0 0CF00400#FEFFBF7C14FFFFFF
(1547754867.442486) can0 0CF00300#FF0064FF06FFFFFF
(1547754867.443057) can0 0CEFFF00#64068C7DFFFFFFFF
(1547754867.443631) can0 18FDB300#FFFFD428FFFFFFFF
(1547754867.452503) can0 0CF00400#FEFFBF6215FFFFFF
(1547754867.462496) can0 0CF00300#FF0064FF06FFFFFF
(1547754867.463071) can0 0CEFFF00#64068C7DFFFFFFFF
(1547754867.463648) can0 18FEF200#6100FFFFFFFFFFFF
(1547754867.472669) can0 0CF00400#FEFFBF3A16FFFFFF
(1547754867.482461) can0 0CF00300#FF0064FF06FFFFFF
(1547754867.483036) can0 0CEFFF00#64068C7DFFFFFFFF
(1547754867.483613) can0 18EF0600#640E9906FFFFFFFF
(1547754867.492450) can0 0CF00400#FEFFC05617FFFFFF
(1547754867.502398) can0 0CF00300#FF0064FF06FFFFFF
(1547754867.503012) can0 0CEFFF00#64068E7DFFFFFFFF
(1547754867.503585) can0 18EFFF00#641000000000007D
(1547754867.504162) can0 18FEDF00#89201CFFFFFFFFFF
(1547754867.512478) can0 0CF00400#FEFFC01A18FFFFFF
(1547754867.522488) can0 0CF00300#FF0064FF06FFFFFF
(1547754867.523077) can0 0CEFFF00#6406917DFFFFFFFF
(1547754867.523701) can0 18FEEF00#FFFFFF5BFFFFFFFA
(1547754867.532425) can0 0CF00400#FEFFC21C19FFFFFF
(1547754867.542395) can0 0CF00300#FF0064FF06FFFFFF
(1547754867.542942) can0 0CEFFF00#6406947DFFFFFFFF
(1547754867.552540) can0 0CF00400#FEFFC3041AFFFFFF
(1547754867.562434) can0 0CF00300#FF0064FF06FFFFFF
(1547754867.562992) can0 0CEFFF00#6406977DFFFFFFFF
(1547754867.563581) can0 18FEF200#7900FFFFFFFFFFFF
(1547754867.572430) can0 0CF00400#FEFFC5F41AFFFFFF
(1547754867.582575) can0 0CF00300#FF0064FF06FFFFFF
(1547754867.583133) can0 0CEFFF00#64069A7DFFFFFFFF
(1547754867.583722) can0 18EF0600#640EA306FFFFFFFF
(1547754867.592419) can0 0CF00400#F8FFC6DA1BFFFFFF
(1547754867.602466) can0 0CF00300#FF0064FF06FFFFFF
(1547754867.603012) can0 0CEFFF00#64069E7DFFFFFFFF
(1547754867.603620) can0 18EFFF00#64100101D002007D
(1547754867.604185) can0 18FEF600#FF0040FF00FFFFFF
(1547754867.612659) can0 0CF00400#F8FFC8D41CFFFFFF
(1547754867.622381) can0 0CF00300#FF0064FF06FFFFFF
(1547754867.622952) can0 0CEFFF00#6406A17DFFFFFFFF
(1547754867.632376) can0 0CF00400#F8FFC99A1DFFFFFF
(1547754867.642407) can0 0CF00300#FF0061FF06FFFFFF
(1547754867.642984) can0 0CEFFF00#6406A27DFFFFFFFF
(1547754867.650433) can0 18EEFF47#4D74300400340220
(1547754867.651005) can0 18EEFF06#4D743004000E0020
(1547754867.651576) can0 18EEFF03#4D74300400030220
(1547754867.652677) can0 0CF00400#F0FFCA261EFFFFFF
(1547754867.653252) can0 18FFFA00#022C0000180C0081
(1547754867.662402) can0 0CF00300#FF0046FF06FFFFFF
(1547754867.662971) can0 0CEFFF00#6406867DFFFFFFFF
(1547754867.663545) can0 18FEF200#4700FFFFFFFFFFFF
(1547754867.672445) can0 0CF00400#F0FFBFBE1EFFFFFF
(1547754867.682389) can0 0CF00300#FF0027FF06FFFFFF
(1547754867.682986) can0 0CEFFF00#6406477DFFFFFFFF
(1547754867.683537) can0 18EF0600#640EAD06FFFFFFFF
(1547754867.684111) can0 18FEF500#C8FFFFFFFF3DFFFF
(1547754867.692613) can0 0CF00400#F0FFA73E1FFFFFFF
(1547754867.702376) can0 0CF00300#FF000BFF06FFFFFF
(1547754867.702952) can0 0CEFFF00#6406087DFFFFFFFF
(1547754867.703501) can0 18EFFF00#641001010A03007D
(1547754867.712348) can0 0CF00400#F0FF8F9C1FFFFFFF
(1547754867.722271) can0 0CF00300#FF0000FF06FFFFFF
(1547754867.722773) can0 0CEFFF00#6406DC7CFFFFFFFF
(1547754867.723418) can0 18FE6900#12259427FFFF60FE
(1547754867.726344) can0 18EEFF17#0C6E240400130220
(1547754867.732343) can0 0CF00400#F1FF7EAC1FFFFFFF
(1547754867.742312) can0 0CF00300#FF0000FF06FFFFFF
(1547754867.742883) can0 0CEFFF00#6406D97CFFFFFFFF
(1547754867.752357) can0 0CF00400#F1FF7D8C1FFFFFFF
(1547754867.752926) can0 18FEDF00#8CBC1CFFFFFFFFFF
(1547754867.762328) can0 0CF00300#FF0000FF06FFFFFF
(1547754867.762897) can0 0CEFFF00#6406D97CFFFFFFFF
(1547754867.763471) can0 18FEF200#0000FFFFFFFFFFFF
(1547754867.772320) can0 0CF00400#F1FF7D241FFFFFFF
(1547754867.782265) can0 0CF00300#FF0000FF06FFFFFF
(1547754867.782837) can0 0CEFFF00#6406DA7CFFFFFFFF
(1547754867.783410) can0 18EF0600#640EB706FFFFFFFF
(1547754867.792285) can0 0CF00400#F1FF7DBA1EFFFFFF
(1547754867.802283) can0 0CF00300#FF0006FF06FFFFFF
(1547754867.802853) can0 0CEFFF00#6406DA7CFFFFFFFF
(1547754867.803429) can0 18EFFF00#64100101F902067D
(1547754867.812450) can0 0CF00400#F1FF7D4A1EFFFFFF
(1547754867.822297) can0 0CF00300#FF0010FF06FFFFFF
(1547754867.822868) can0 0CEFFF00#6406F77CFFFFFFFF
(1547754867.832315) can0 0CF00400#F1FF88E41DFFFFFF
(1547754867.842291) can0 0CF00300#FF0016FF06FFFFFF
(1547754867.842882) can0 0CEFFF00#6406037DFFFFFFFF
(1547754867.843429) can0 18FD7C00#F880F1F500CF03FD
(1547754867.852308) can0 0CF00400#F1FF8D901DFFFFFF
(1547754867.862305) can0 0CF00300#FF001BFF06FFFFFF
(1547754867.862873) can0 0CEFFF00#64060F7DFFFFFFFF
(1547754867.863473) can0 18FEF200#1400FFFFFFFFFFFF
(1547754867.872296) can0 0CF00400#F1FF91401DFFFFFF
(1547754867.882243) can0 0CF00300#FF001DFF06FFFFFF
(1547754867.882812) can0 0CEFFF00#6406167DFFFFFFFF
(1547754867.883411) can0 18EF0600#640EC106FFFFFFFF
(1547754867.892411) can0 0CF00400#F0FF94001DFFFFFF
(1547754867.902410) can0 0CF00300#FF004CFF06FFFFFF
(1547754867.902977) can0 0CEFFF00#64066F7DFFFFFFFF
(1547754867.903552) can0 18EFFF00#64100101EA02037D
(1547754867.911550) can0 0DEF0603#0101FFFFFFFFFFF5
(1547754867.912319) can0 0CF00400#F0FFB6DC1CFFFFFF
(1547754867.922270) can0 0CF00300#FF004AFF06FFFFFF
(1547754867.922843) can0 0CEFFF00#6406757DFFFFFFFF
(1547754867.931437) can0 0DEF0647#0104FFFFFFFFFFF1
(1547754867.932063) can0 0DEF0603#0101FFFFFFFFFFF5
(1547754867.932611) can0 0CF00400#F0FFB81E1DFFFFFF
(1547754867.933210) can0 0CFFFE06#5CFFFFFFFFFFFFFF
(1547754867.933585) can0 18EAFF47#00EE00
(1547754867.942413) can0 0CF00300#FF003EFF06FFFFFF
(1547754867.942983) can0 0CEFFF00#6406617DFFFFFFFF
(1547754867.943558) can0 18FDB300#FFFFD428FFFFFFFF
(1547754867.944131) can0 1CEFFF00#64070000FFFFFFFF
(1547754867.951525) can0 0DEF0603#0101FFFFFFFFFFF5
(1547754867.952320) can0 0CF00400#F0FFB1661DFFFFFF
(1547754867.957294) can0 18EEFF00#56F5290400000220
(1547754867.962266) can0 0CF00300#FF0030FF06FFFFFF
(1547754867.962842) can0 0CEFFF00#6406487DFFFFFFFF
(1547754867.963441) can0 18FEF200#3000FFFFFFFFFFFF
(1547754867.971514) can0 0DEF0603#0101FFFFFFFFFFF5
(1547754867.972137) can0 0CFE4947#FFFFFFFFFFFFFFFF
(1547754867.972687) can0 0CF00400#F0FFA7BA1DFFFFFF
(1547754867.973261) can0 0CFE4347#FFFFFFFFFFFFFFFF
(1547754867.973861) can0 0CFE4447#0000FFFF3FFFFFFF
(1547754867.982468) can0 0CF00300#FF0023FF06FFFFFF
(1547754867.983017) can0 0CEFFF00#64062D7DFFFFFFFF
(1547754867.983630) can0 18EF0600#640ECB06FFFFFFFF
(1547754867.991456) can0 0DEF0603#0101FFFFFFFFFFF5
(1547754867.992224) can0 0CF00400#F0FF9D0A1EFFFFFF
(1547754868.002196) can0 0CF00300#FF0016FF06FFFFFF
(1547754868.002771) can0 0CEFFF00#6406107DFFFFFFFF
(1547754868.003344) can0 18EFFF00#64100101F702037D
(1547754868.003920) can0 18FEDF00#8B201CFFFFFFFFFF
(1547754868.006771) can0 18EAFF17#00EE00
(1547754868.011491) can0 0DEF0603#0101FFFFFFFFFFF5
(1547754868.012090) can0 18FEF147#FF0000FFFFFFFFFF
(1547754868.012643) can0 0CF00400#F0FF92221EFFFFFF
(1547754868.013214) can0 18F00503#FFFFFFFFFFFFFFFF
(1547754868.022218) can0 0CF00300#FF0010FF06FFFFFF
(1547754868.022836) can0 0CEFFF00#6406FF7CFFFFFFFF
(1547754868.023411) can0 18FEEF00#FFFFFF64FFFFFFFA
(1547754868.026863) can0 1CFFFF17#22FFFF3CFFFFFFFF
(1547754868.031381) can0 0DEF0647#0104FFFFFFFFFFF1
(1547754868.032008) can0 0DEF0603#0101FFFFFFFFFFF5
(1547754868.032558) can0 0CF00400#F1FF8B261EFFFFFF
(1547754868.042179) can0 0CF00300#FF0000FF06FFFFFF
(1547754868.042728) can0 0CEFFF00#6406DA7CFFFFFFFF
(1547754868.051499) can0 0DEF0603#0101FFFFFFFFFFF5
(1547754868.052096) can0 0CFE4947#FFFFFFFFFFFFFFFF
(1547754868.052672) can0 0CF00400#F1FF7D021EFFFFFF
(1547754868.053244) can0 0CFE4347#FFFFFFFFFFFFFFFF
(1547754868.053803) can0 0CFE4447#0000FFFF3FFFFFFF
(1547754868.054427) can0 0CFFFE06#5CFFFFFFFFFFFFFF
(1547754868.057043) can0 18EEFF00#56F5290400000220
(1547754868.062171) can0 0CF00300#FF0000FF06FFFFFF
(1547754868.062768) can0 0CEFFF00#6406DA7CFFFFFFFF
(1547754868.063340) can0 18FEF200#0000FFFFFFFFFFFF
(1547754868.071489) can0 0DEF0603#0101FFFFFFFFFFF5
(1547754868.072187) can0 0CF00400#F1FF7DC21DFFFFFF
(1547754868.082132) can0 0CF00300#FF000EFF06FFFFFF
(1547754868.082710) can0 0CEFFF00#6406E67CFFFFFFFF
(1547754868.083280) can0 18EF0600#640ED506FFFFFFFF
(1547754868.091478) can0 0DEF0603#0101FFFFFFFFFFF5
(1547754868.092051) can0 18FEF147#FF0000FFFFFFFFFF
(1547754868.092601) can0 0CF00400#F1FF82661DFFFFFF
(1547754868.093198) can0 18F00503#FFFFFFFFFFFFFFFF
(1547754868.102130) can0 0CF00300#FF0013FF06FFFFFF
(1547754868.102771) can0 0CEFFF00#6406037DFFFFFFFF
(1547754868.103301) can0 18EFFF00#64100101E702057D
(1547754868.103880) can0 18FEF600#FF003FFF00FFFFFF
(1547754868.111467) can0 0DEF0603#0101FFFFFFFFFFF5
(1547754868.112267) can0 0CF00400#F1FF8C0C1DFFFFFF
(1547754868.122161) can0 18EFFA00#6401FF0000FFFFFF
(1547754868.122742) can0 0CEFFF00#6406127DFFFFFFFF
(1547754868.123311) can0 0CF00300#FF001EFF06FFFFFF
(1547754868.126740) can0 18EA0017#09FF00
(1547754868.131362) can0 0DEF0647#0104FFFFFFFFFFF1
(1547754868.131956) can0 0DEF0603#0101FFFFFFFFFFF5
(1547754868.132506) can0 0CF00400#F1FF92B21CFFFFFF
(1547754868.133106) can0 0CFFFE06#5CFFFFFFFFFFFFFF
(1547754868.142154) can0 0CF00300#FF0024FF06FFFFFF
(1547754868.142726) can0 0CEFFF00#6406197DFFFFFFFF
(1547754868.151878) can0 0DEF0603#0101FFFFFFFFFFF5
(1547754868.152496) can0 0CF00400#F0FF956C1CFFFFFF
(1547754868.153096) can0 0C000006#30FFFFFFF8FFFFFF
(1547754868.153606) can0 04EF0006#641510F00000930E
(1547754868.157602) can0 18FF0900#454355FFFFFFFFFF
(1547754868.162135) can0 0CF00300#FF003CFF06FFFFFF
(1547754868.162744) can0 0CEFFF00#64064D7DFFFFFFFF
(1547754868.163340) can0 18FEF200#2F00FFFFFFFFFFFF
(1547754868.171916) can0 0DEF0603#0101FFFFFFFFFFF5
(1547754868.172461) can0 0CF00400#F0FFA9381CFFFFFF
(1547754868.173110) can0 04EF0006#641510F00000930E
(1547754868.173690) can0 0CFE4947#FFFFFFFFFFFFFFFF
(1547754868.174285) can0 18FFFB06#0005C1F8FFFFFFFF
(1547754868.174819) can0 0CFE4347#FFFFFFFFFFFFFFFF
(1547754868.175417) can0 0CFE4447#0000FFFF3FFFFFFF
(1547754868.175998) can0 0CFFFE06#5C271D271DFFFFFF
(1547754868.182110) can0 0CF00300#FF003CFF06FFFFFF
(1547754868.182705) can0 0CEFFF00#6406527DFFFFFFFF
(1547754868.183282) can0 18EF0600#640EDF00FFFFFFFF
(1547754868.191910) can0 0DEF0603#0101FFFFFFFFFFF5
(1547754868.192424) can0 0CF00400#F0FFAB2A1CFFFFFF
(1547754868.193125) can0 04EF0006#641510F00000930E
(1547754868.202277) can0 0CF00300#FF003DFF06FFFFFF
(1547754868.202853) can0 0CEFFF00#6406537DFFFFFFFF
(1547754868.203402) can0 18EFFF00#64100101D802037D
(1547754868.211897) can0 0DEF0603#0101FFFFFFFFFFF5
(1547754868.212471) can0 0CF00400#F0FFAB1E1CFFFFFF
(1547754868.213122) can0 04EF0006#641510F00000930E
(1547754868.213700) can0 18FEF147#FF0000FFFFFFFFFF
(1547754868.214298) can0 18F00503#FFFFFFFFFFFFFFFF
(1547754868.222078) can0 0CF00300#FF003BFF06FFFFFF
(1547754868.222646) can0 0CEFFF00#6406557DFFFFFFFF
(1547754868.223272) can0 18FEEE00#5343FFFFFFFFFFFF
(1547754868.231816) can0 0DEF0647#0104FFFFFFFFFFF1
(1547754868.232387) can0 0CF00400#F0FFAC521CFFFFFF
(1547754868.232935) can0 0DEF0603#0101FFFFFFFFFFF5
(1547754868.233615) can0 04EF0006#641510F00000930E
(1547754868.242386) can0 0CF00300#FF0037FF06FFFFFF
(1547754868.242905) can0 0CEFFF00#64064C7DFFFFFFFF
(1547754868.252127) can0 0CF00400#F0FFA89C1CFFFFFF
(1547754868.252727) can0 0DEF0603#0101FFFFFFFFFFF5
(1547754868.253256) can0 18FEDF00#8B201CFFFFFFFFFF
(1547754868.253778) can0 04EF0006#641510F00000930E
(1547754868.254347) can0 0CFE4947#FFFFFFFFFFFFFFFF
(1547754868.254944) can0 0CFFFF47#5DFFFFF3FFFFFFFF
(1547754868.255545) can0 0CFE4347#0000FFFF3FFFFFFF
(1547754868.256142) can0 0CFE4447#0000FFFF3FFFFFFF
(1547754868.262102) can0 0CF00300#FF0032FF06FFFFFF
(1547754868.262672) can0 0CEFFF00#6406427DFFFFFFFF
(1547754868.263271) can0 18FEF200#2D00FFFFFFFFFFFF
(1547754868.272121) can0 0CF00400#F0FFA5C41CFFFFFF
(1547754868.272692) can0 0DEF0603#0101FFFFFFFFFFF5
(1547754868.273369) can0 04EF0006#641510F00000930E
(1547754868.282095) can0 0CF00300#FF002EFF06FFFFFF
(1547754868.282663) can0 0CEFFF00#64063B7DFFFFFFFF
(1547754868.283235) can0 18EF0600#640EE900FFFFFFFF
(1547754868.292137) can0 0DEF0603#0101FFFFFFFFFFF5
(1547754868.292683) can0 0CF00400#F0FFA2F21CFFFFFF
(1547754868.293357) can0 04EF0006#641510F00000930E
(1547754868.293908) can0 0CFFFE06#5C271D271DFFFFFF
(1547754868.294483) can0 18FEF147#FF0000FFFFFFFFFF
(1547754868.295083) can0 18FFFB06#0005C7F8FFFFFFFF
(1547754868.295680) can0 18F00503#7DFFFFFFFFFFFFFF
(1547754868.302084) can0 0CF00300#FF0029FF06FFFFFF
(1547754868.302611) can0 0CEFFF00#6406307DFFFFFFFF
(1547754868.303190) can0 18EFFF00#64100101E702057D
(1547754868.303756) can0 18FEF700#FFFFFFFFFFFFED00
(1547754868.312091) can0 0CF00400#F0FF9E161DFFFFFF
(1547754868.312664) can0 0DEF0603#0101FFFFFFFFFFF5
(1547754868.313343) can0 04EF0006#641510F00000930E
(1547754868.322140) can0 0CF00300#FF0023FF06FFFFFF
(1547754868.322682) can0 0CEFFF00#6406257DFFFFFFFF
(1547754868.331782) can0 0DEF0647#0104FFFFFFFFFFF1
(1547754868.332328) can0 0CF00400#F0FF992A1DFFFFFF
(1547754868.332925) can0 0DEF0603#0101FFFFFFFFFFF5
(1547754868.333447) can0 04EF0006#641510F00000930E
(1547754868.334076) can0 18FFFF06#73FFFFFFFFFFFFFF
(1547754868.335076) can0 18EEFF47#4D74300400340220
(1547754868.335652) can0 18EEFF06#4D743004000E0020
(1547754868.336175) can0 18EEFF17#0C6E240400130220
(1547754868.336775) can0 18EEFF03#4D74300400030220
(1547754868.342005) can0 0CF00300#FF0020FF06FFFFFF
(1547754868.342577) can0 0CEFFF00#64061E7DFFFFFFFF
(1547754868.352097) can0 0CF00400#F0FF97381DFFFFFF
(1547754868.352668) can0 0DEF0603#0101FFFFFFFFFFF5
(1547754868.353288) can0 04EF0006#641510F00000930E
(1547754868.362142) can0 0CF00300#FF001DFF06FFFFFF
(1547754868.362713) can0 0CEFFF00#6406177DFFFFFFFF
(1547754868.363314) can0 18FEF200#1700FFFFFFFFFFFF
(1547754868.372087) can0 0DEF0603#0101FFFFFFFFFFF5
(1547754868.372658) can0 0CF00400#F0FF943E1DFFFFFF
(1547754868.373307) can0 04EF0006#641510F00000930E
(1547754868.373834) can0 0CFE4947#FFFFFFFFFFFFFFFF
(1547754868.374405) can0 1CFDDF47#FCFFFFFFFFFFFFFF
(1547754868.375031) can0 0CFE4347#0000FFFF3FFFFFFF
(1547754868.375585) can0 0CFE4447#0000FFFF3FFFFFFF
(1547754868.376156) can0 0CFFFE06#5C271D271DFFFFFF
(1547754868.382009) can0 0CF00300#FF001AFF06FFFFFF
(1547754868.382581) can0 0CEFFF00#6406117DFFFFFFFF
(1547754868.383169) can0 18EF0600#640EF300FFFFFFFF
(1547754868.391971) can0 0CF00400#FEFF92321DFFFFFF
(1547754868.392540) can0 0DEF0603#0101FFFFFFFFFFF5
(1547754868.393267) can0 04EF0006#641510F00000930E
(1547754868.401990) can0 0CF00300#FF000CFF06FFFFFF
(1547754868.402593) can0 0CEFFF00#6406DB7CFFFFFFFF
(1547754868.403169) can0 18EFFF00#64100101DF02057D
(1547754868.403767) can0 18FED500#FFFFFDFFFFFFFFFF
(1547754868.412068) can0 0DEF0603#0101FFFFFFFFFFF5
(1547754868.412640) can0 0CF00400#FEFF7D0E1DFFFFFF
(1547754868.413287) can0 04EF0006#641510F00000930E
(1547754868.413861) can0 18FEF147#FF0000FFFFFFFFFF
(1547754868.414417) can0 18F00647#FFCFFFFFFFFFFFFF
(1547754868.414996) can0 18FFFB06#000591F8FFFFFFFF
(1547754868.415613) can0 18F00503#7DFFFFFFFFFFFFFF
(1547754868.422014) can0 0CF00300#FF0016FF06FFFFFF
(1547754868.422585) can0 0CEFFF00#6406027DFFFFFFFF
(1547754868.431729) can0 0DEF0647#0104FFFFFFFFFFF1
(1547754868.432304) can0 0CF00400#FEFF8CE41CFFFFFF
(1547754868.432875) can0 0DEF0603#0101FFFFFFFFFFF5
(1547754868.433432) can0 04EF0006#641510F00000930E
(1547754868.441976) can0 0CF00300#FF001BFF06FFFFFF
(1547754868.442550) can0 0CEFFF00#64060C7DFFFFFFFF
(1547754868.443122) can0 18FDB300#FFFFEC28FFFFFFFF
(1547754868.452026) can0 0DEF0603#0101FFFFFFFFFFF5
(1547754868.452620) can0 0CF00400#FEFF90A01CFFFFFF
(1547754868.453221) can0 04EF0006#641511F0E518930E
(1547754868.453847) can0 0CFE4947#FFFFFFFFFFFFFFFF
(1547754868.454444) can0 0CFE4347#0000FFFF3FFFFFFF
(1547754868.455039) can0 0CFE4447#0000FFFF3FFFFFFF
(1547754868.461991) can0 0CF00300#FF0025FF06FFFFFF
(1547754868.462613) can0 0CEFFF00#64061B7DFFFFFFFF
(1547754868.463165) can0 18FEF200#1900FFFFFFFFFFFF
(1547754868.471963) can0 0CF00400#FEFF96521CFFFFFF
(1547754868.472560) can0 0DEF0603#0101FFFFFFFFFFF5
(1547754868.473257) can0 04EF0006#641512F03419930E
(1547754868.481985) can0 0CF00300#FF0028FF06FFFFFF
(1547754868.482555) can0 0CEFFF00#6406257DFFFFFFFF
(1547754868.483127) can0 18EF0600#640EFD00FFFFFFFF
(1547754868.491965) can0 0CF00400#F0FF99301CFFFFFF
(1547754868.492532) can0 0DEF0603#0101FFFFFFFFFFF5
(1547754868.493246) can0 04EF0006#641513F0C918930E
(1547754868.493804) can0 0CFFFE06#5C271D271DFFFFFF
(1547754868.494382) can0 18FEF147#FF0000FFFFFFFFFF
(1547754868.494980) can0 18F00503#7DFFFFFFFFFFFFFF
(1547754868.502337) can0 0CF00300#FF0029FF06FFFFFF
(1547754868.502958) can0 0CEFFF00#6406397DFFFFFFFF
(1547754868.503528) can0 18EFFF00#64100101D602047D
(1547754868.504101) can0 18FEDF00#8B201CFFFFFFFFFF
(1547754868.512026) can0 0DEF0603#0101FFFFFFFFFFF5
(1547754868.512597) can0 0CF00400#F0FFA1121CFFFFFF
(1547754868.513202) can0 04EF0006#641514F00719930E
(1547754868.521969) can0 0CF00300#FF002AFF06FFFFFF
(1547754868.522544) can0 0CEFFF00#64063D7DFFFFFFFF
(1547754868.523117) can0 18FEEF00#FFFFFF64FFFFFFFA
(1547754868.526590) can0 18EA4717#09FF00
(1547754868.526986) can0 18EA0617#09FF00
(1547754868.527357) can0 18EA0317#09FF00
(1547754868.531719) can0 0DEF0647#0104FFFFFFFFFFF1
(1547754868.532288) can0 0CF00400#F0FFA2121CFFFFFF
(1547754868.532861) can0 0DEF0603#0101FFFFFFFFFFF5
(1547754868.533415) can0 04EF0006#641515F00919930E
(1547754868.533986) can0 18FF0947#434355FFFFFFFFFF
(1547754868.534586) can0 18FF0906#454943FFFFFFFFFF
(1547754868.535186) can0 18FF0903#505452FFFFFFFFFF
(1547754868.535785) can0 18FFFB06#0005BAF8FFFFFFFF
(1547754868.536416) can0 18FECA06#00FF00000000FFFF
(1547754868.537490) can0 18FECA47#00FF00000000FFFF
(1547754868.538689) can0 18FECA03#00FF00000000FFFF
(1547754868.542014) can0 0CF00300#FF0029FF06FFFFFF
(1547754868.542585) can0 0CEFFF00#64063D7DFFFFFFFF
(1547754868.552033) can0 0DEF0603#0101FFFFFFFFFFF5
(1547754868.552602) can0 0CF00400#F0FFA2281CFFFFFF
(1547754868.553278) can0 04EF0006#641516F00919930E
(1547754868.561978) can0 0CF00300#FF0027FF06FFFFFF
(1547754868.562549) can0 0CEFFF00#6406397DFFFFFFFF
(1547754868.563122) can0 18FEF200#2800FFFFFFFFFFFF
(1547754868.571927) can0 0CF00400#F0FFA1441CFFFFFF
(1547754868.572541) can0 0DEF0603#0101FFFFFFFFFFF5
(1547754868.573216) can0 04EF0006#641517F01119930E
(1547754868.573783) can0 0CFE4947#FFFFFFFFFFFFFFFF
(1547754868.574382) can0 0CFE4347#0000FFFF3FFFFFFF
(1547754868.574931) can0 0CFE4447#0000FFFF3FFFFFFF
(1547754868.575557) can0 0CFFFE06#5C271D271DFFFFFF
(1547754868.582032) can0 0CF00300#FF0026FF06FFFFFF
(1547754868.582604) can0 0CEFFF00#6406357DFFFFFFFF
(1547754868.583202) can0 18EF0600#640E0700FFFFFFFF
(1547754868.592003) can0 0DEF0603#0101FFFFFFFFFFF5
(1547754868.592549) can0 0CF00400#F0FFA0601CFFFFFF
(1547754868.593196) can0 04EF0006#641518F07319930E
(1547754868.601973) can0 0CF00300#FF0024FF06FFFFFF
(1547754868.602543) can0 0CEFFF00#6406317DFFFFFFFF
(1547754868.603115) can0 18EFFF00#64100101DA02047D
(1547754868.603646) can0 18FEF600#FF003FFF00FFFFFF
(1547754868.607996) can0 18FECA17#00FF00000000FFFF
(1547754868.611943) can0 0CF00400#F0FF9E781CFFFFFF
(1547754868.612538) can0 0DEF0603#0101FFFFFFFFFFF5
(1547754868.613189) can0 04EF0006#641519F07319930E
(1547754868.613763) can0 18FEF147#FF0000FFFFFFFFFF
(1547754868.614314) can0 18F00503#7DFFFFFFFFFFFFFF
(1547754868.621806) can0 0CF00300#FF0022FF06FFFFFF
(1547754868.622434) can0 0CEFFF00#64062E7DFFFFFFFF
(1547754868.631656) can0 0DEF0647#0104FFFFFFFFFFF1
(1547754868.632203) can0 0CF00400#F0FF9D961CFFFFFF
(1547754868.632802) can0 0DEF0603#0101FFFFFFFFFFF5
(1547754868.633457) can0 04EF0006#64151AF02F19930E
(1547754868.641953) can0 0CF00300#FF0020FF06FFFFFF
(1547754868.642523) can0 0CEFFF00#6406297DFFFFFFFF
(1547754868.651168) can0 18EAFF06#E5FE00
(1547754868.651967) can0 0CF00400#F0FF9BB01CFFFFFF
(1547754868.652543) can0 0DEF0603#0101FFFFFFFFFFF5
(1547754868.653167) can0 18FFFA00#022C0000180C0081
(1547754868.653695) can0 04EF0006#64151BF08B18930E
(1547754868.654242) can0 0CFE4947#FFFFFFFFFFFFFFFF
(1547754868.654843) can0 18FFFB06#0005B0F8FFFFFFFF
(1547754868.655369) can0 0CFE4347#0000FFFF3FFFFFFF
(1547754868.655996) can0 18FEE706#CC0A0000FFFFFFFF
(1547754868.656568) can0 0CFE4447#0000FFFF3FFFFFFF
(1547754868.657169) can0 18FEE500#CC0A0000FFFFFFFF
(1547754868.661942) can0 0CF00300#FF001FFF06FFFFFF
(1547754868.662513) can0 0CEFFF00#6406257DFFFFFFFF
(1547754868.663087) can0 18FEF200#1E00FFFFFFFFFFFF
(1547754868.671913) can0 0CF00400#F0FF99AE1CFFFFFF
(1547754868.672558) can0 0DEF0603#0101FFFFFFFFFFF5
(1547754868.673284) can0 04EF0006#64151CF03019930E
(1547754868.682031) can0 0CF00300#FF001FFF06FFFFFF
(1547754868.682604) can0 0CEFFF00#6406247DFFFFFFFF
(1547754868.683177) can0 18EF0600#640E1100FFFFFFFF
(1547754868.683755) can0 18FEF500#C8FFFFFFFF3BFFFF
(1547754868.686677) can0 1CFFFF17#22FFFF3CFFFFFFFF
(1547754868.691899) can0 0CF00400#F0FF99B21CFFFFFF
(1547754868.692472) can0 0DEF0603#0101FFFFFFFFFFF5
(1547754868.693272) can0 04EF0006#64151DF0E818930E
(1547754868.693847) can0 0CFFFE06#5C271D271DFFFFFF
(1547754868.694424) can0 18FEF147#FF0000FFFFFFFFFF
(1547754868.695023) can0 18F00503#7DFFFFFFFFFFFFFF
(1547754868.701870) can0 0CF00300#FF001EFF06FFFFFF
(1547754868.702445) can0 0CEFFF00#6406237DFFFFFFFF
(1547754868.703017) can0 18EFFF00#64100101DF02057D
(1547754868.711943) can0 0CF00400#F0FF99B01CFFFFFF
(1547754868.712589) can0 0DEF0603#0101FFFFFFFFFFF5
(1547754868.713215) can0 04EF0006#64151EF03019930E
(1547754868.721964) can0 0CF00300#FF000AFF06FFFFFF
(1547754868.722534) can0 0CEFFF00#6406227DFFFFFFFF
(1547754868.723132) can0 18FE6900#00259627FFFF60FE
(1547754868.731603) can0 0DEF0647#0104FFFFFFFFFFF1
(1547754868.732155) can0 0CF00400#FEFF98A21CFFFFFF
(1547754868.732751) can0 0DEF0603#0101FFFFFFFFFFF5
(1547754868.733508) can0 04EF0006#64151FF03019930E
(1547754868.741878) can0 0CF00300#FF0017FF06FFFFFF
(1547754868.742449) can0 0CEFFF00#6406107DFFFFFFFF
(1547754868.751869) can0 0CF00400#FEFF91A01CFFFFFF
(1547754868.752444) can0 0DEF0603#0101FFFFFFFFFFF5
(1547754868.753018) can0 18FEDF00#8B601CFFFFFFFFFF
(1547754868.753572) can0 04EF0006#641510F03419930E
(1547754868.761864) can0 0CF00300#FF0017FF06FFFFFF
(1547754868.762465) can0 0CEFFF00#6406127DFFFFFFFF
(1547754868.763038) can0 18FEF200#1500FFFFFFFFFFFF
(1547754868.771813) can0 0CF00400#FEFF92A21CFFFFFF
(1547754868.772433) can0 0DEF0603#0101FFFFFFFFFFF5
(1547754868.773206) can0 04EF0006#641511F03419930E
(1547754868.773839) can0 0CFE4947#FFFFFFFFFFFFFFFF
(1547754868.774408) can0 18FFFB06#00058DF8FFFFFFFF
(1547754868.774984) can0 0CFFFF47#5DFFFFF3FFFFFFFF
(1547754868.775534) can0 0CFE4347#0000FFFF3FFFFFFF
(1547754868.776183) can0 0CFE4447#0000FFFF3FFFFFFF
(1547754868.776705) can0 0CFFFE06#5C271D271DFFFFFF
(1547754868.781781) can0 0CF00300#FF0019FF06FFFFFF
(1547754868.782355) can0 0CEFFF00#6406117DFFFFFFFF
(1547754868.782936) can0 18EF0600#640E1B00FFFFFFFF
(1547754868.791848) can0 0CF00400#FEFF92861CFFFFFF
(1547754868.792424) can0 0DEF0603#0101FFFFFFFFFFF5
(1547754868.793249) can0 04EF0006#641512F03419930E
(1547754868.801790) can0 0CF00300#FF001DFF06FFFFFF
(1547754868.802395) can0 0CEFFF00#64061C7DFFFFFFFF
(1547754868.802966) can0 18EFFF00#64100101D902057D
(1547754868.811881) can0 0CF00400#FEFF96621CFFFFFF
(1547754868.812512) can0 0DEF0603#0101FFFFFFFFFFF5
(1547754868.813182) can0 04EF0006#641513F02A19930E
(1547754868.813799) can0 18FEF147#FF0000FFFFFFFFFF
(1547754868.814422) can0 18FFFB06#001BFFFFFFFFFFFF
(1547754868.815024) can0 18F00503#7DFFFFFFFFFFFFFF
(1547754868.821849) can0 0CF00300#FF001FFF06FFFFFF
(1547754868.822419) can0 0CEFFF00#6406227DFFFFFFFF
(1547754868.831565) can0 0DEF0647#0104FFFFFFFFFFF1
(1547754868.832108) can0 0CF00400#FEFF98481CFFFFFF
(1547754868.832711) can0 0DEF0603#0101FFFFFFFFFFF5
(1547754868.833364) can0 04EF0006#641514F07319930E
(1547754868.841812) can0 0CF00300#FF0020FF06FFFFFF
(1547754868.842401) can0 0CEFFF00#6406237DFFFFFFFF
(1547754868.843005) can0 18FD7C00#F880F1F400CF03FD
(1547754868.851963) can0 0DEF0603#0101FFFFFFFFFFF5
(1547754868.852564) can0 0CF00400#FEFF99321CFFFFFF
(1547754868.853177) can0 04EF0006#641515F00B19930E
(1547754868.853759) can0 0CFE4947#FFFFFFFFFFFFFFFF
(1547754868.854334) can0 18FE6847#3CFFFFFFFFFFFFFF
(1547754868.854931) can0 0CFE4347#0000FFFF3FFFFFFF
(1547754868.855521) can0 18FFFF06#73FFFFFFFFFFFFFF
(1547754868.856100) can0 0CFE4447#0000FFFF3FFFFFFF
(1547754868.861847) can0 0CF00300#FF0024FF06FFFFFF
(1547754868.862418) can0 0CEFFF00#6406287DFFFFFFFF
(1547754868.863045) can0 18FEF200#1F00FFFFFFFFFFFF
(1547754868.871791) can0 0CF00400#F0FF9B1C1CFFFFFF
(1547754868.872373) can0 0DEF0603#0101FFFFFFFFFFF5
(1547754868.873147) can0 04EF0006#641516F00719930E
(1547754868.881815) can0 0CF00300#FF0024FF06FFFFFF
(1547754868.882387) can0 0CEFFF00#6406307DFFFFFFFF
(1547754868.882916) can0 18EF0600#640E2500FFFFFFFF
(1547754868.891886) can0 0CF00400#F0FF9D221CFFFFFF
(1547754868.892457) can0 0DEF0603#0101FFFFFFFFFFF5
(1547754868.893258) can0 04EF0006#641517F00419930E
(1547754868.893822) can0 0CFFFF47#5EFFFFFFFFFFFFFF
(1547754868.894399) can0 18FEF147#FF0000FFFFFFFFFF
(1547754868.894947) can0 0CFFFE06#5C271D271DFFFFFF
(1547754868.895499) can0 18FEFC47#FFFFFFFFFFFFFFFF
(1547754868.896123) can0 18EF0047#F220610FFFFFFFFF
(1547754868.896719) can0 18F00647#FFCFFFFFFFFFFFFF
(1547754868.897325) can0 1CFDDF47#FCFFFFFFFFFFFFFF
(1547754868.897920) can0 18FFFB06#0005A9F8FFFFFFFF
(1547754868.898473) can0 18F00503#7DFFFFFFFFFFFFFF
(1547754868.901875) can0 0CF00300#FF0023FF06FFFFFF
(1547754868.902493) can0 0CEFFF00#64062E7DFFFFFFFF
(1547754868.903016) can0 18EFFF00#64100101D302037D
(1547754868.911795) can0 0CF00400#F0FF9D2C1CFFFFFF
(1547754868.912365) can0 0DEF0603#0101FFFFFFFFFFF5
(1547754868.913135) can0 04EF0006#641518F00B19930E
(1547754868.921788) can0 0CF00300#FF0023FF06FFFFFF
(1547754868.922360) can0 0CEFFF00#64062C7DFFFFFFFF
(1547754868.931515) can0 0DEF0647#0104FFFFFFFFFFF1
(1547754868.932062) can0 0CF00400#F0FF9C281CFFFFFF
(1547754868.932660) can0 0DEF0603#0101FFFFFFFFFFF5
(1547754868.933312) can0 04EF0006#641519F01119930E
(1547754868.942088) can0 0CF00300#FF0023FF06FFFFFF
(1547754868.942657) can0 0CEFFF00#64062D7DFFFFFFFF
(1547754868.943235) can0 18FDB300#FFFFE028FFFFFFFF
(1547754868.943763) can0 1CEFFF00#64070000FFFFFFFF
(1547754868.951734) can0 0CF00400#F0FF9D301CFFFFFF
(1547754868.952333) can0 0DEF0603#0101FFFFFFFFFFF5
(1547754868.953150) can0 04EF0006#64151AF01119930E
(1547754868.961826) can0 0CF00300#FF0022FF06FFFFFF
(1547754868.962397) can0 0CEFFF00#64062C7DFFFFFFFF
(1547754868.962971) can0 18FEF200#2100FFFFFFFFFFFF
(1547754868.971772) can0 0CF00400#F0FF9C381CFFFFFF
(1547754868.972371) can0 0DEF0603#0101FFFFFFFFFFF5
(1547754868.973140) can0 04EF0006#64151BF00719930E
(1547754868.973744) can0 0CFE4947#FFFFFFFFFFFFFFFF
(1547754868.974272) can0 0CFE4347#0000FFFF3FFFFFFF
(1547754868.974914) can0 0CFE4447#0000FFFF3FFFFFFF
(1547754868.975471) can0 0CFFFE06#5C271D271DFFFFFF
(1547754868.981744) can0 0CF00300#FF0022FF06FFFFFF
(1547754868.982362) can0 0CEFFF00#64062A7DFFFFFFFF
(1547754868.982892) can0 18EF0600#640E2F00FFFFFFFF
(1547754868.991791) can0 0CF00400#F0FF9B381CFFFFFF
(1547754868.992360) can0 0DEF0603#0101FFFFFFFFFFF5
(1547754868.993086) can0 04EF0006#64151CF0CC18930E
(1547754869.001718) can0 0CF00300#FF0022FF06FFFFFF
(1547754869.002321) can0 0CEFFF00#64062A7DFFFFFFFF
(1547754869.002866) can0 18EFFF00#64100101D402057D
(1547754869.003470) can0 18FEDF00#8B201CFFFFFFFFFF
(1547754869.011769) can0 0CF00400#F0FF9B3E1CFFFFFF
(1547754869.012339) can0 0DEF0603#0101FFFFFFFFFFF5
(1547754869.013138) can0 04EF0006#64151DF0CC18930E
(1547754869.013712) can0 18FEF147#FF0000FFFFFFFFFF
(1547754869.014312) can0 18FFFB06#0005AAF8FFFFFFFF
(1547754869.014854) can0 18F00503#7DFFFFFFFFFFFFFF
(1547754869.021789) can0 0CF00300#FF0021FF06FFFFFF
(1547754869.022411) can0 0CEFFF00#6406297DFFFFFFFF
(1547754869.022985) can0 18FEEF00#FFFFFF64FFFFFFFA
(1547754869.031413) can0 0DEF0647#0104FFFFFFFFFFF1
(1547754869.032029) can0 0CF00400#F0FF9B4A1CFFFFFF
(1547754869.032556) can0 0DEF0603#0101FFFFFFFFFFF5
(1547754869.033201) can0 04EF0006#64151EF0CC18930E
(1547754869.041780) can0 0CF00300#FF0021FF06FFFFFF
(1547754869.042349) can0 0CEFFF00#6406287DFFFFFFFF
(1547754869.051748) can0 0CF00400#F0FF9B4C1CFFFFFF
(1547754869.052318) can0 0DEF0603#0101FFFFFFFFFFF5
(1547754869.053117) can0 04EF0006#64151FF00B19930E
(1547754869.053694) can0 0CFE4947#FFFFFFFFFFFFFFFF
(1547754869.054292) can0 0CFE4347#0000FFFF3FFFFFFF
(1547754869.054891) can0 0CFE4447#0000FFFF3FFFFFFF
(1547754869.061738) can0 0CF00300#FF0021FF06FFFFFF
(1547754869.062289) can0 0CEFFF00#6406277DFFFFFFFF
(1547754869.062889) can0 18FEF200#1F00FFFFFFFFFFFF
(1547754869.071687) can0 0CF00400#F0FF9A481CFFFFFF
(1547754869.072308) can0 0DEF0603#0101FFFFFFFFFFF5
(1547754869.073035) can0 04EF0006#641510F00B19930E
(1547754869.081709) can0 0CF00300#FF0021FF06FFFFFF
(1547754869.082278) can0 0CEFFF00#6406277DFFFFFFFF
(1547754869.082852) can0 18EF0600#640E3900FFFFFFFF
(1547754869.091728) can0 0CF00400#F0FF9A481CFFFFFF
(1547754869.092324) can0 0DEF0603#0101FFFFFFFFFFF5
(1547754869.093100) can0 04EF0006#641511F00B19930E
(1547754869.093649) can0 0CFFFE06#5C271D271DFFFFFF
(1547754869.094223) can0 18FEF147#FF0000FFFFFFFFFF
(1547754869.094822) can0 18F00503#7DFFFFFFFFFFFFFF
(1547754869.101673) can0 0CF00300#FF0021FF06FFFFFF
(1547754869.102244) can0 0CEFFF00#6406277DFFFFFFFF
(1547754869.102818) can0 18EFFF00#64100101D502057D
(1547754869.103345) can0 18FEF600#FF003EFF00FFFFFF
(1547754869.111694) can0 0CF00400#F0FF9A461CFFFFFF
(1547754869.112266) can0 0DEF0603#0101FFFFFFFFFFF5
(1547754869.113089) can0 04EF0006#641512F00B19930E
(1547754869.121787) can0 18EFFA00#6401FF0000FFFFFF
(1547754869.122359) can0 0CEFFF00#6406277DFFFFFFFF
(1547754869.122934) can0 0CF00300#FF0021FF06FFFFFF
(1547754869.131409) can0 0DEF0647#0104FFFFFFFFFFF1
(1547754869.131980) can0 0CF00400#F0FF9A381CFFFFFF
(1547754869.132552) can0 0DEF0603#0101FFFFFFFFFFF5
(1547754869.133202) can0 04EF0006#641513F07319930E
(1547754869.133803) can0 18FFFB06#0005A7F8FFFFFFFF
(1547754869.141631) can0 0CF00300#FF0021FF06FFFFFF
(1547754869.142226) can0 0CEFFF00#6406297DFFFFFFFF
(1547754869.151700) can0 0CF00400#F0FF9B3E1CFFFFFF
(1547754869.152268) can0 0DEF0603#0101FFFFFFFFFFF5
(1547754869.153020) can0 0C000006#30FFFFFFF8FFFFFF
(1547754869.153570) can0 04EF0006#641514F0D018930E
(1547754869.161944) can0 0CF00300#FF0021FF06FFFFFF
(1547754869.162511) can0 0CEFFF00#6406277DFFFFFFFF
(1547754869.163115) can0 18FEF200#1F00FFFFFFFFFFFF
(1547754869.171716) can0 0CF00400#F0FF9A441CFFFFFF
(1547754869.172285) can0 0DEF0603#0101FFFFFFFFFFF5
(1547754869.173058) can0 04EF0006#641515F0CC18930E
(1547754869.173659) can0 0CFE4947#FFFFFFFFFFFFFFFF
(1547754869.174233) can0 0CFE4347#0000FFFF3FFFFFFF
(1547754869.174832) can0 0CFE4447#0000FFFF3FFFFFFF
(1547754869.175359) can0 0CFFFE06#5C271D271DFFFFFF
(1547754869.181583) can0 0CF00300#FF0021FF06FFFFFF
(1547754869.182205) can0 0CEFFF00#6406267DFFFFFFFF
(1547754869.182729) can0 18EF0600#640E4300FFFFFFFF
(1547754869.191627) can0 0CF00400#F0FF9A3E1CFFFFFF
(1547754869.192225) can0 0DEF0603#0101FFFFFFFFFFF5
(1547754869.193023) can0 04EF0006#641516F07319930E
(1547754869.201771) can0 0CF00300#FF0021FF06FFFFFF
(1547754869.202345) can0 0CEFFF00#6406277DFFFFFFFF
(1547754869.202920) can0 18EFFF00#64100101D302057D
(1547754869.211815) can0 0DEF0603#0101FFFFFFFFFFF5
(1547754869.212388) can0 0CF00400#F0FF9A361CFFFFFF
(1547754869.213038) can0 04EF0006#641517F0D018930E
(1547754869.213618) can0 18FEF147#FF0000FFFFFFFFFF
(1547754869.214215) can0 18F00503#7DFFFFFFFFFFFFFF
(1547754869.221590) can0 0CF00300#FF0021FF06FFFFFF
(1547754869.222161) can0 0CEFFF00#6406287DFFFFFFFF
(1547754869.222788) can0 18FEEE00#5343FFFFFFFFFFFF
(1547754869.231358) can0 0DEF0647#0104FFFFFFFFFFF1
(1547754869.231929) can0 0CF00400#F0FF9B341CFFFFFF
(1547754869.232502) can0 0DEF0603#0101FFFFFFFFFFF5
(1547754869.233252) can0 04EF0006#641518F00719930E
(1547754869.241627) can0 0CF00300#FF0021FF06FFFFFF
(1547754869.242198) can0 0CEFFF00#6406287DFFFFFFFF
(1547754869.251833) can0 0DEF0603#0101FFFFFFFFFFF5
(1547754869.252379) can0 0CF00400#F0FF9B2C1CFFFFFF
(1547754869.252952) can0 18FEDF00#8B201CFFFFFFFFFF
(1547754869.253504) can0 04EF0006#641519F00719930E
(1547754869.254102) can0 0CFE4947#FFFFFFFFFFFFFFFF
(1547754869.254677) can0 18FFFB06#0005A9F8FFFFFFFF
(1547754869.255207) can0 0CFFFF47#5DFFFFF3FFFFFFFF
(1547754869.255831) can0 0CFE4347#0000FFFF3FFFFFFF
(1547754869.256410) can0 0CFE4447#0000FFFF3FFFFFFF
(1547754869.261633) can0 0CF00300#FF0022FF06FFFFFF
(1547754869.262275) can0 0CEFFF00#6406297DFFFFFFFF
(1547754869.262873) can0 18FEF200#2000FFFFFFFFFFFF
(1547754869.271646) can0 0CF00400#F0FF9B241CFFFFFF
(1547754869.272218) can0 0DEF0603#0101FFFFFFFFFFF5
(1547754869.273016) can0 04EF0006#64151AF01119930E
(1547754869.281619) can0 0CF00300#FF0022FF06FFFFFF
(1547754869.282188) can0 0CEFFF00#64062A7DFFFFFFFF
(1547754869.282762) can0 18EF0600#640E4D00FFFFFFFF
(1547754869.291690) can0 0CF00400#F0FF9B2C1CFFFFFF
(1547754869.292258) can0 0DEF0603#0101FFFFFFFFFFF5
(1547754869.293008) can0 04EF0006#64151BF00B19930E
(1547754869.293591) can0 0CFFFE06#5C271D271DFFFFFF
(1547754869.294159) can0 18FEF147#FF0000FFFFFFFFFF
(1547754869.294754) can0 18F00503#7DFFFFFFFFFFFFFF
(1547754869.301612) can0 0CF00300#FF0021FF06FFFFFF
(1547754869.302229) can0 0CEFFF00#6406297DFFFFFFFF
(1547754869.302803) can0 18EFFF00#64100101D202057D
(1547754869.303360) can0 18FEF700#FFFFFFFFFFFFFA00
(1547754869.311575) can0 0CF00400#F0FF9B321CFFFFFF
(1547754869.312177) can0 0DEF0603#0101FFFFFFFFFFF5
(1547754869.312998) can0 04EF0006#64151CF01119930E
(1547754869.321596) can0 0CF00300#FF0021FF06FFFFFF
(1547754869.322168) can0 0CEFFF00#6406287DFFFFFFFF
(1547754869.331314) can0 0DEF0647#0104FFFFFFFFFFF1
(1547754869.331863) can0 0CF00400#F0FF9B281CFFFFFF
(1547754869.332462) can0 0DEF0603#0101FFFFFFFFFFF5
(1547754869.333113) can0 04EF0006#64151DF00719930E
(1547754869.333710) can0 18FFFF06#73FFFFFFFFFFFFFF
(1547754869.341711) can0 0CF00300#FF0022FF06FFFFFF
(1547754869.342284) can0 0CEFFF00#6406297DFFFFFFFF
(1547754869.351555) can0 0CF00400#F0FF9B241CFFFFFF
(1547754869.352179) can0 0DEF0603#0101FFFFFFFFFFF5
(1547754869.352927) can0 04EF0006#64151EF01119930E
(1547754869.361599) can0 0CF00300#FF0022FF06FFFFFF
(1547754869.362175) can0 0CEFFF00#6406297DFFFFFFFF
(1547754869.362772) can0 18FEF200#2000FFFFFFFFFFFF
(1547754869.366325) can0 1CFFFF17#22FFFF3CFFFFFFFF
(1547754869.371592) can0 0CF00400#F0FF9B221CFFFFFF
(1547754869.372169) can0 0DEF0603#0101FFFFFFFFFFF5
(1547754869.372966) can0 04EF0006#64151FF00B19930E
(1547754869.373544) can0 0CFE4947#FFFFFFFFFFFFFFFF
(1547754869.374143) can0 1CFDDF47#FCFFFFFFFFFFFFFF
(1547754869.374715) can0 0CFE4347#0000FFFF3FFFFFFF
(1547754869.375317) can0 0CFE4447#0000FFFF3FFFFFFF
(1547754869.375890) can0 0CFFFE06#5C271D271DFFFFFF
(1547754869.381519) can0 0CF00300#FF0022FF06FFFFFF
(1547754869.382093) can0 0CEFFF00#64062A7DFFFFFFFF
(1547754869.382718) can0 18EF0600#640E5700FFFFFFFF
(1547754869.391566) can0 0CF00400#F0FF9B161CFFFFFF
(1547754869.392207) can0 0DEF0603#0101FFFFFFFFFFF5
(1547754869.392958) can0 04EF0006#641510F00B19930E
(1547754869.401555) can0 0CF00300#FF0023FF06FFFFFF
(1547754869.402131) can0 0CEFFF00#64062C7DFFFFFFFF
(1547754869.402703) can0 18EFFF00#64100101D002057D
(1547754869.403280) can0 18FED500#FFFFFDFFFFFFFFFF
(1547754869.411598) can0 0CF00400#F0FF9C161CFFFFFF
(1547754869.412178) can0 0DEF0603#0101FFFFFFFFFFF5
(1547754869.412996) can0 04EF0006#641511F00919930E
(1547754869.413573) can0 18FEF147#FF0000FFFFFFFFFF
(1547754869.414173) can0 18F00647#FFCFFFFFFFFFFFFF
(1547754869.414752) can0 18F00503#7DFFFFFFFFFFFFFF
(1547754869.421520) can0 0CF00300#FF0023FF06FFFFFF
(1547754869.422173) can0 0CEFFF00#64062C7DFFFFFFFF
(1547754869.431282) can0 0DEF0647#0104FFFFFFFFFFF1
(1547754869.431864) can0 0CF00400#F0FF9C1E1CFFFFFF
(1547754869.432436) can0 0DEF0603#0101FFFFFFFFFFF5
(1547754869.433113) can0 04EF0006#641512F00919930E
(1547754869.441510) can0 0CF00300#FF0022FF06FFFFFF
(1547754869.442111) can0 0CEFFF00#64062B7DFFFFFFFF
(1547754869.442705) can0 18FDB300#FFFFF828FFFFFFFF
(1547754869.451461) can0 0CF00400#F0FF9B1E1CFFFFFF
(1547754869.452127) can0 0DEF0603#0101FFFFFFFFFFF5
(1547754869.452957) can0 04EF0006#641513F00419930E
(1547754869.453531) can0 0CFE4947#FFFFFFFFFFFFFFFF
(1547754869.454153) can0 18FFFB06#0005ACF8FFFFFFFF
(1547754869.454725) can0 0CFE4347#0000FFFF3FFFFFFF
(1547754869.455281) can0 0CFE4447#0000FFFF3FFFFFFF
(1547754869.461502) can0 0CF00300#FF0023FF06FFFFFF
(1547754869.462123) can0 0CEFFF00#64062B7DFFFFFFFF
(1547754869.462653) can0 18FEF200#2000FFFFFFFFFFFF
(1547754869.471577) can0 0CF00400#F0FF9B161CFFFFFF
(1547754869.472175) can0 0DEF0603#0101FFFFFFFFFFF5
(1547754869.472966) can0 04EF0006#641514F00419930E
(1547754869.481544) can0 0CF00300#FF0023FF06FFFFFF
(1547754869.482138) can0 0CEFFF00#64062C7DFFFFFFFF
(1547754869.482713) can0 18EF0600#640E6100FFFFFFFF
(1547754869.491539) can0 0CF00400#F0FF9C141CFFFFFF
(1547754869.492088) can0 0DEF0603#0101FFFFFFFFFFF5
(1547754869.492956) can0 04EF0006#641515F00919930E
(1547754869.493531) can0 0CFFFE06#5C271D271DFFFFFF
(1547754869.494108) can0 18FEF147#FF0000FFFFFFFFFF
(1547754869.494655) can0 18F00503#7DFFFFFFFFFFFFFF
(1547754869.501506) can0 0CF00300#FF0023FF06FFFFFF
(1547754869.502079) can0 0CEFFF00#64062D7DFFFFFFFF
(1547754869.502654) can0 18EFFF00#64100101D002057D
(1547754869.503183) can0 18FEDF00#8A201CFFFFFFFFFF
(1547754869.511582) can0 0CF00400#F0FF9C0E1CFFFFFF
(1547754869.512177) can0 0DEF0603#0101FFFFFFFFFFF5
(1547754869.512921) can0 04EF0006#641516F00919930E
(1547754869.521547) can0 0CF00300#FF0024FF06FFFFFF
(1547754869.522118) can0 0CEFFF00#64062E7DFFFFFFFF
(1547754869.522658) can0 18FEEF00#FFFFFF64FFFFFFFA
(1547754869.531242) can0 0DEF0647#0104FFFFFFFFFFF1
(1547754869.531812) can0 0CF00400#F0FF9D021CFFFFFF
(1547754869.532387) can0 0DEF0603#0101FFFFFFFFFFF5
(1547754869.533063) can0 04EF0006#641517F00219930E
(1547754869.541487) can0 0CF00300#FF0024FF06FFFFFF
(1547754869.542058) can0 0CEFFF00#64062F7DFFFFFFFF
(1547754869.551460) can0 0CF00400#F0FF9D081CFFFFFF
(1547754869.552077) can0 0DEF0603#0101FFFFFFFFFFF5
(1547754869.552928) can0 04EF0006#641518F01319930E
(1547754869.561751) can0 0CF00300#FF0024FF06FFFFFF
(1547754869.562323) can0 0CEFFF00#64062F7DFFFFFFFF
(1547754869.562900) can0 18FEF200#2100FFFFFFFFFFFF
(1547754869.571550) can0 0CF00400#F0FF9D101CFFFFFF
(1547754869.572143) can0 0DEF0603#0101FFFFFFFFFFF5
(1547754869.572916) can0 04EF0006#641519F00219930E
(1547754869.573494) can0 0CFE4947#FFFFFFFFFFFFFFFF
(1547754869.574092) can0 18FFFB06#0005B2F8FFFFFFFF
(1547754869.574666) can0 0CFE4347#0000FFFF3FFFFFFF
(1547754869.575223) can0 0CFE4447#0000FFFF3FFFFFFF
(1547754869.575796) can0 0CFFFE06#5C271D271DFFFFFF
(1547754869.581468) can0 0CF00300#FF0023FF06FFFFFF
(1547754869.582038) can0 0CEFFF00#64062E7DFFFFFFFF
(1547754869.582612) can0 18EF0600#640E6B00FFFFFFFF
(1547754869.591440) can0 0CF00400#F0FF9D0C1CFFFFFF
(1547754869.592083) can0 0DEF0603#0101FFFFFFFFFFF5
(1547754869.592907) can0 04EF0006#64151AF00919930E
(1547754869.601525) can0 0CF00300#FF0024FF06FFFFFF
(1547754869.602102) can0 0CEFFF00#64062E7DFFFFFFFF
(1547754869.602702) can0 18EFFF00#64100101D002057D
(1547754869.603276) can0 18FEF600#FF003EFF00FFFFFF
(1547754869.611601) can0 0CF00400#F0FF9D0A1CFFFFFF
(1547754869.612198) can0 0DEF0603#0101FFFFFFFFFFF5
(1547754869.612899) can0 04EF0006#64151BF00219930E
(1547754869.613430) can0 18FEF147#FF0000FFFFFFFFFF
(1547754869.614024) can0 18F00503#7DFFFFFFFFFFFFFF
(1547754869.621470) can0 0CF00300#FF0024FF06FFFFFF
(1547754869.622037) can0 0CEFFF00#64062F7DFFFFFFFF
(1547754869.631213) can0 0DEF0647#0104FFFFFFFFFFF1
(1547754869.631757) can0 0CF00400#F0FF9D0A1CFFFFFF
(1547754869.632331) can0 0DEF0603#0101FFFFFFFFFFF5
(1547754869.633032) can0 04EF0006#64151CF00219930E
(1547754869.641408) can0 0CF00300#FF0024FF06FFFFFF
(1547754869.642028) can0 0CEFFF00#64062F7DFFFFFFFF
(1547754869.651670) can0 0DEF0603#0101FFFFFFFFFFF5
(1547754869.652218) can0 0CF00400#F0FF9D041CFFFFFF
(1547754869.652794) can0 18FFFA00#022C0000180C0081
(1547754869.653347) can0 04EF0006#64151DF00219930E
(1547754869.653879) can0 0CFE4947#FFFFFFFFFFFFFFFF
(1547754869.654483) can0 0CFE4347#0000FFFF3FFFFFFF
(1547754869.655054) can0 0CFE4447#0000FFFF3FFFFFFF
(1547754869.661454) can0 0CF00300#FF0025FF06FFFFFF
(1547754869.662066) can0 0CEFFF00#6406307DFFFFFFFF
(1547754869.662625) can0 18FEF200#2300FFFFFFFFFFFF
(1547754869.670673) can0 18EAFF06#E5FE00
(1547754869.671390) can0 0CF00400#F0FF9DFE1BFFFFFF
(1547754869.672036) can0 0DEF0603#0101FFFFFFFFFFF5
(1547754869.672936) can0 04EF0006#64151EF01319930E
(1547754869.681407) can0 0CF00300#FF0025FF06FFFFFF
(1547754869.681981) can0 0CEFFF00#6406317DFFFFFFFF
(1547754869.682554) can0 18EF0600#640E7500FFFFFFFF
(1547754869.683131) can0 18FEF500#C8FFFFFFFF3BFFFF
(1547754869.691506) can0 0CF00400#F0FF9E0A1CFFFFFF
(1547754869.692100) can0 0DEF0603#0101FFFFFFFFFFF5
(1547754869.692850) can0 04EF0006#64151FF00C19930E
(1547754869.693423) can0 0CFFFE06#5C271D271DFFFFFF
(1547754869.694000) can0 18FEF147#FF0000FFFFFFFFFF
(1547754869.694558) can0 18FFFB06#0005B1F8FFFFFFFF
(1547754869.695159) can0 18FEE706#CC0A0000FFFFFFFF
(1547754869.695799) can0 18F00503#7DFFFFFFFFFFFFFF
(1547754869.701476) can0 0CF00300#FF0024FF06FFFFFF
(1547754869.702071) can0 0CEFFF00#6406307DFFFFFFFF
(1547754869.702647) can0 18EFFF00#64100101D002057D
(1547754869.704230) can0 18FEE500#CC0A0000FFFFFFFF
(1547754869.711441) can0 0CF00400#F0FF9D141CFFFFFF
(1547754869.712017) can0 0DEF0603#0101FFFFFFFFFFF5
(1547754869.712841) can0 04EF0006#641510F00219930E
(1547754869.721391) can0 0CF00300#FF0024FF06FFFFFF
(1547754869.721961) can0 0CEFFF00#64062F7DFFFFFFFF
(1547754869.722510) can0 18FE6900#E2249827FFFF60FE
(1547754869.731136) can0 0DEF0647#0104FFFFFFFFFFF1
(1547754869.731707) can0 0CF00400#F0FF9D0E1CFFFFFF
(1547754869.732279) can0 0DEF0603#0101FFFFFFFFFFF5
(1547754869.733054) can0 04EF0006#641511F00919930E
(1547754869.741630) can0 0CF00300#FF0024FF06FFFFFF
(1547754869.742174) can0 0CEFFF00#64062F7DFFFFFFFF
(1547754869.751376) can0 0CF00400#F0FF9D0E1CFFFFFF
(1547754869.751971) can0 0DEF0603#0101FFFFFFFFFFF5
(1547754869.752545) can0 18FEDF00#8A201CFFFFFFFFFF
(1547754869.753095) can0 04EF0006#641512F00219930E
(1547754869.761393) can0 0CF00300#FF0024FF06FFFFFF
(1547754869.761991) can0 0CEFFF00#6406307DFFFFFFFF
(1547754869.762564) can0 18FEF200#2300FFFFFFFFFFFF
(1547754869.771345) can0 0CF00400#F0FF9D0E1CFFFFFF
(1547754869.771962) can0 0DEF0603#0101FFFFFFFFFFF5
(1547754869.772794) can0 04EF0006#641513F00219930E
(1547754869.773390) can0 0CFE4947#FFFFFFFFFFFFFFFF
(1547754869.774010) can0 0CFFFF47#5DFFFFF3FFFFFFFF
(1547754869.774609) can0 0CFE4347#0000FFFF3FFFFFFF
(1547754869.775142) can0 0CFE4447#0000FFFF3FFFFFFF
(1547754869.775748) can0 0CFFFE06#5C271D271DFFFFFF
(1547754869.781393) can0 0CF00300#FF0024FF06FFFFFF
(1547754869.781962) can0 0CEFFF00#6406307DFFFFFFFF
(1547754869.782605) can0 18EF0600#640E7F00FFFFFFFF
(1547754869.791449) can0 0CF00400#F0FF9D041CFFFFFF
(1547754869.792046) can0 0DEF0603#0101FFFFFFFFFFF5
(1547754869.792771) can0 04EF0006#641514F00219930E
(1547754869.801342) can0 0CF00300#FF0025FF06FFFFFF
(1547754869.801945) can0 0CEFFF00#6406317DFFFFFFFF
(1547754869.802494) can0 18EFFF00#64100101D002057D
(1547754869.811395) can0 0CF00400#F0FF9E041CFFFFFF
(1547754869.811967) can0 0DEF0603#0101FFFFFFFFFFF5
(1547754869.812815) can0 04EF0006#641515F01319930E
(1547754869.813388) can0 18FEF147#FF0000FFFFFFFFFF
(1547754869.813991) can0 18FFFB06#0005B1F8FFFFFFFF
(1547754869.814588) can0 18FFFB06#001BFFFFFFFFFFFF
(1547754869.815147) can0 18F00503#7DFFFFFFFFFFFFFF
(1547754869.821423) can0 0CF00300#FF0025FF06FFFFFF
(1547754869.822036) can0 0CEFFF00#6406317DFFFFFFFF
(1547754869.831063) can0 0DEF0647#0104FFFFFFFFFFF1
(1547754869.831654) can0 0CF00400#F0FF9E0C1CFFFFFF
(1547754869.832207) can0 0DEF0603#0101FFFFFFFFFFF5
(1547754869.832888) can0 04EF0006#641516F01319930E
(1547754869.841380) can0 0CF00300#FF0024FF06FFFFFF
(1547754869.841951) can0 0CEFFF00#6406307DFFFFFFFF
(1547754869.842525) can0 18FD7C00#F880F1F000CF03FD
(1547754869.851374) can0 0CF00400#F0FF9D0E1CFFFFFF
(1547754869.851947) can0 0DEF0603#0101FFFFFFFFFFF5
(1547754869.852794) can0 04EF0006#641517F00219930E
(1547754869.853371) can0 0CFE4947#FFFFFFFFFFFFFFFF
(1547754869.853946) can0 18FE6847#3CFFFFFFFFFFFFFF
(1547754869.854571) can0 0CFE4347#0000FFFF3FFFFFFF
(1547754869.855081) can0 18FFFF06#73FFFFFFFFFFFFFF
(1547754869.855653) can0 0CFE4447#0000FFFF3FFFFFFF
(1547754869.861371) can0 0CF00300#FF0025FF06FFFFFF
(1547754869.861942) can0 0CEFFF00#6406307DFFFFFFFF
(1547754869.862515) can0 18FEF200#2300FFFFFFFFFFFF
(1547754869.871326) can0 0CF00400#F0FF9D081CFFFFFF
(1547754869.871963) can0 0DEF0603#0101FFFFFFFFFFF5
(1547754869.872759) can0 04EF0006#641518F00219930E
(1547754869.881360) can0 0CF00300#FF0025FF06FFFFFF
(1547754869.881931) can0 0CEFFF00#6406317DFFFFFFFF
(1547754869.882505) can0 18EF0600#640E8900FFFFFFFF
(1547754869.891329) can0 0CF00400#F0FF9E0A1CFFFFFF
(1547754869.891926) can0 0DEF0603#0101FFFFFFFFFFF5
(1547754869.892751) can0 04EF0006#641519F00219930E
(1547754869.893351) can0 0CFFFF47#5EFFFFFFFFFFFFFF
(1547754869.893924) can0 18FEF147#FF0000FFFFFFFFFF
(1547754869.894474) can0 0CFFFE06#5C271D271DFFFFFF
(1547754869.895051) can0 18FEFC47#FFFFFFFFFFFFFFFF
(1547754869.895625) can0 18EF0047#F220610FFFFFFFFF
(1547754869.896207) can0 18F00647#FFCFFFFFFFFFFFFF
(1547754869.896778) can0 1CFDDF47#FCFFFFFFFFFFFFFF
(1547754869.897386) can0 18F00503#7DFFFFFFFFFFFFFF
(1547754869.901255) can0 0CF00300#FF0025FF06FFFFFF
(1547754869.901875) can0 0CEFFF00#6406317DFFFFFFFF
(1547754869.902445) can0 18EFFF00#64100101D002057D
(1547754869.911371) can0 0CF00400#F0FF9E081CFFFFFF
(1547754869.911941) can0 0DEF0603#0101FFFFFFFFFFF5
(1547754869.912740) can0 04EF0006#64151AF00219930E
(1547754869.921439) can0 0CF00300#FF0026FF06FFFFFF
(1547754869.922012) can0 0CEFFF00#6406327DFFFFFFFF
(1547754869.931043) can0 0DEF0647#0104FFFFFFFFFFF1
(1547754869.931613) can0 0CF00400#F0FF9EFC1BFFFFFF
(1547754869.932213) can0 0DEF0603#0101FFFFFFFFFFF5
(1547754869.932887) can0 04EF0006#64151BF00219930E
(1547754869.933464) can0 18FFFB06#0005B4F8FFFFFFFF
(1547754869.941308) can0 0CF00300#FF0026FF06FFFFFF
(1547754869.941884) can0 0CEFFF00#6406337DFFFFFFFF
(1547754869.942385) can0 18FDB300#FFFFEC28FFFFFFFF
(1547754869.942988) can0 1CEFFF00#64070000FFFFFFFF
(1547754869.951285) can0 0CF00400#F0FF9E041CFFFFFF
(1547754869.951903) can0 0DEF0603#0101FFFFFFFFFFF5
(1547754869.952752) can0 04EF0006#64151CF00C19930E
(1547754869.961380) can0 0CF00300#FF0025FF06FFFFFF
(1547754869.961998) can0 0CEFFF00#6406337DFFFFFFFF
(1547754869.962574) can0 18FEF200#2400FFFFFFFFFFFF
(1547754869.971342) can0 0CF00400#F0FF9E0E1CFFFFFF
(1547754869.971913) can0 0DEF0603#0101FFFFFFFFFFF5
(1547754869.972736) can0 04EF0006#64151DF01319930E
(1547754869.973310) can0 0CFE4947#FFFFFFFFFFFFFFFF
(1547754869.973887) can0 0CFE4347#0000FFFF3FFFFFFF
(1547754869.974514) can0 0CFE4447#0000FFFF3FFFFFFF
(1547754869.975044) can0 0CFFFE06#5C271D271DFFFFFF
(1547754869.981238) can0 0CF00300#FF0025FF06FFFFFF
(1547754869.981861) can0 0CEFFF00#6406327DFFFFFFFF
(1547754869.982388) can0 18EF0600#640E9300FFFFFFFF
(1547754869.991264) can0 0CF00400#F0FF9E0C1CFFFFFF
(1547754869.991835) can0 0DEF0603#0101FFFFFFFFFFF5
(1547754869.992684) can0 04EF0006#64151EF00219930E
(1547754870.001273) can0 0CF00300#FF0025FF06FFFFFF
(1547754870.001849) can0 0CEFFF00#6406327DFFFFFFFF
(1547754870.002421) can0 18EFFF00#64100101D102057D
(1547754870.002972) can0 18FEDF00#8A201CFFFFFFFFFF
(1547754870.011418) can0 0CF00400#F0FF9E0C1CFFFFFF
(1547754870.011991) can0 0DEF0603#0101FFFFFFFFFFF5
(1547754870.012717) can0 04EF0006#64151FF00219930E
(1547754870.013289) can0 18FEF147#FF0000FFFFFFFFFF
(1547754870.013866) can0 18F00503#7DFFFFFFFFFFFFFF
(1547754870.021220) can0 0CF00300#FF0025FF06FFFFFF
(1547754870.021840) can0 0CEFFF00#6406327DFFFFFFFF
(1547754870.022413) can0 18FEEF00#FFFFFF64FFFFFFFA
(1547754870.025990) can0 1CFFFF17#22FFFF3CFFFFFFFF
(1547754870.031007) can0 0DEF0647#0104FFFFFFFFFFF1
(1547754870.031558) can0 0CF00400#F0FF9E0E1CFFFFFF
(1547754870.032157) can0 0DEF0603#0101FFFFFFFFFFF5
(1547754870.032832) can0 04EF0006#641510F00219930E
(1547754870.041278) can0 0CF00300#FF0025FF06FFFFFF
(1547754870.041828) can0 0CEFFF00#6406327DFFFFFFFF
(1547754870.051350) can0 0CF00400#F0FF9E0A1CFFFFFF
(1547754870.051950) can0 0DEF0603#0101FFFFFFFFFFF5
(1547754870.052698) can0 04EF0006#641511F00219930E
(1547754870.053273) can0 0CFE4947#FFFFFFFFFFFFFFFF
(1547754870.053871) can0 0CFE4347#0000FFFF3FFFFFFF
(1547754870.054474) can0 0CFE4447#0000FFFF3FFFFFFF
(1547754870.061295) can0 0CF00300#FF0026FF06FFFFFF
(1547754870.061870) can0 0CEFFF00#6406337DFFFFFFFF
(1547754870.062469) can0 18FEF200#2400FFFFFFFFFFFF
(1547754870.071193) can0 0CF00400#F0FF9E041CFFFFFF
(1547754870.071837) can0 0DEF0603#0101FFFFFFFFFFF5
(1547754870.072621) can0 04EF0006#641512F00219930E
(1547754870.081258) can0 0CF00300#FF0026FF06FFFFFF
(1547754870.081834) can0 0CEFFF00#6406347DFFFFFFFF
(1547754870.082406) can0 18EF0600#640E9D00FFFFFFFF
(1547754870.091332) can0 0CF00400#F0FF9F0E1CFFFFFF
(1547754870.091905) can0 0DEF0603#0101FFFFFFFFFFF5
(1547754870.092678) can0 04EF0006#641513F01319930E
(1547754870.093251) can0 0CFFFE06#5C271D271DFFFFFF
(1547754870.093818) can0 18FEF147#FF0000FFFFFFFFFF
(1547754870.094445) can0 18F00503#7DFFFFFFFFFFFFFF
(1547754870.101302) can0 0CF00300#FF0025FF06FFFFFF
(1547754870.101939) can0 0CEFFF00#6406327DFFFFFFFF
(1547754870.102490) can0 18EFFF00#64100101D202057D
(1547754870.103051) can0 18FEF600#FF003DFF00FFFFFF
(1547754870.111235) can0 0CF00400#F0FF9E181CFFFFFF
(1547754870.111834) can0 0DEF0603#0101FFFFFFFFFFF5
(1547754870.112659) can0 04EF0006#641514F00219930E
(1547754870.121121) can0 18EFFA00#6401FF0000FFFFFF
(1547754870.121731) can0 0CEFFF00#6406317DFFFFFFFF
(1547754870.122328) can0 0CF00300#FF0025FF06FFFFFF
(1547754870.130953) can0 0DEF0647#0104FFFFFFFFFFF1
(1547754870.131525) can0 0CF00400#F0FF9E141CFFFFFF
(1547754870.132098) can0 0DEF0603#0101FFFFFFFFFFF5
(1547754870.132799) can0 04EF0006#641515F00419930E
(1547754870.133374) can0 18FFFB06#0005B5F8FFFFFFFF
(1547754870.141438) can0 0CF00300#FF0025FF06FFFFFF
(1547754870.141989) can0 0CEFFF00#6406327DFFFFFFFF
(1547754870.151217) can0 0CF00400#F0FF9E181CFFFFFF
(1547754870.151815) can0 0DEF0603#0101FFFFFFFFFFF5
(1547754870.152589) can0 0C000006#30FFFFFFF8FFFFFF
(1547754870.153136) can0 04EF0006#641516F00919930E
(1547754870.161188) can0 0CF00300#FF0025FF06FFFFFF
(1547754870.161761) can0 0CEFFF00#6406317DFFFFFFFF
(1547754870.162361) can0 18FEF200#2400FFFFFFFFFFFF
(1547754870.171208) can0 0CF00400#F0FF9E1E1CFFFFFF
(1547754870.171753) can0 0DEF0603#0101FFFFFFFFFFF5
(1547754870.172630) can0 04EF0006#641517F00419930E
(1547754870.173203) can0 0CFE4947#FFFFFFFFFFFFFFFF
(1547754870.173807) can0 0CFE4347#0000FFFF3FFFFFFF
(1547754870.174404) can0 0CFE4447#0000FFFF3FFFFFFF
(1547754870.174943) can0 0CFFFE06#5C271D271DFFFFFF
(1547754870.181192) can0 0CF00300#FF0025FF06FFFFFF
(1547754870.181776) can0 0CEFFF00#6406317DFFFFFFFF
(1547754870.182366) can0 18EF0600#640EA700FFFFFFFF
(1547754870.191236) can0 0CF00400#F0FF9E1A1CFFFFFF
(1547754870.191809) can0 0DEF0603#0101FFFFFFFFFFF5
(1547754870.192592) can0 04EF0006#641518F00419930E
(1547754870.201166) can0 0CF00300#FF0025FF06FFFFFF
(1547754870.201739) can0 0CEFFF00#6406317DFFFFFFFF
(1547754870.202314) can0 18EFFF00#64100101D302057D
(1547754870.211185) can0 0CF00400#F0FF9E1E1CFFFFFF
(1547754870.211759) can0 0DEF0603#0101FFFFFFFFFFF5
(1547754870.212608) can0 04EF0006#641519F00419930E
(1547754870.213181) can0 18FEF147#FF0000FFFFFFFFFF
(1547754870.213786) can0 18F00503#7DFFFFFFFFFFFFFF
(1547754870.221279) can0 0CF00300#FF0024FF06FFFFFF
(1547754870.221855) can0 0CEFFF00#6406317DFFFFFFFF
(1547754870.222396) can0 18FEEE00#5343FFFFFFFFFFFF
(1547754870.230904) can0 0DEF0647#0104FFFFFFFFFFF1
(1547754870.231451) can0 0CF00400#F0FF9E2A1CFFFFFF
(1547754870.232023) can0 0DEF0603#0101FFFFFFFFFFF5
(1547754870.232790) can0 04EF0006#64151AF00419930E
(1547754870.241173) can0 0CF00300#FF0023FF06FFFFFF
(1547754870.241748) can0 0CEFFF00#64062E7DFFFFFFFF
(1547754870.251169) can0 0CF00400#F0FF9D301CFFFFFF
(1547754870.251744) can0 0DEF0603#0101FFFFFFFFFFF5
(1547754870.252369) can0 18FEDF00#8A201CFFFFFFFFFF
(1547754870.252839) can0 04EF0006#64151BF01119930E
(1547754870.253447) can0 0CFE4947#FFFFFFFFFFFFFFFF
(1547754870.254042) can0 0CFFFF47#5DFFFFF3FFFFFFFF
(1547754870.254644) can0 0CFE4347#0000FFFF3FFFFFFF
(1547754870.255243) can0 0CFE4447#0000FFFF3FFFFFFF
(1547754870.261121) can0 0CF00300#FF0024FF06FFFFFF
(1547754870.261692) can0 0CEFFF00#64062D7DFFFFFFFF
(1547754870.262364) can0 18FEF200#2300FFFFFFFFFFFF
(1547754870.271188) can0 0CF00400#F0FF9D2A1CFFFFFF
(1547754870.271786) can0 0DEF0603#0101FFFFFFFFFFF5
(1547754870.272535) can0 04EF0006#64151CF00719930E
(1547754870.281183) can0 0CF00300#FF0024FF06FFFFFF
(1547754870.281758) can0 0CEFFF00#64062E7DFFFFFFFF
(1547754870.282355) can0 18EF0600#640EB100FFFFFFFF
(1547754870.291151) can0 0CF00400#F0FF9D2C1CFFFFFF
(1547754870.291749) can0 0DEF0603#0101FFFFFFFFFFF5
(1547754870.292525) can0 04EF0006#64151DF01119930E
(1547754870.293071) can0 0CFFFE06#5C271D271DFFFFFF
(1547754870.293651) can0 18FEF147#FF0000FFFFFFFFFF
(1547754870.294248) can0 18FFFB06#0005B2F8FFFFFFFF
(1547754870.294849) can0 18F00503#7DFFFFFFFFFFFFFF
(1547754870.301123) can0 0CF00300#FF0024FF06FFFFFF
(1547754870.301696) can0 0CEFFF00#64062E7DFFFFFFFF
(1547754870.302213) can0 18EFFF00#64100101D402057D
(1547754870.302796) can0 18FEF700#FFFFFFFFFFFF1801
(1547754870.311242) can0 0DEF0603#0101FFFFFFFFFFF5
(1547754870.311866) can0 0CF00400#F0FF9D2C1CFFFFFF
(1547754870.312488) can0 04EF0006#64151EF01119930E
(1547754870.321259) can0 0CF00300#FF0024FF06FFFFFF
(1547754870.321836) can0 0CEFFF00#64062E7DFFFFFFFF
(1547754870.330835) can0 0DEF0647#0104FFFFFFFFFFF1
(1547754870.331404) can0 0CF00400#F0FF9D201CFFFFFF
(1547754870.331979) can0 0DEF0603#0101FFFFFFFFFFF5
(1547754870.332630) can0 04EF0006#64151FF01119930E
(1547754870.333228) can0 18FFFF06#73FFFFFFFFFFFFFF
(1547754870.341088) can0 0CF00300#FF0024FF06FFFFFF
(1547754870.341660) can0 0CEFFF00#64062F7DFFFFFFFF
(1547754870.351060) can0 0CF00400#F0FF9D281CFFFFFF
(1547754870.351703) can0 0DEF0603#0101FFFFFFFFFFF5
(1547754870.352460) can0 04EF0006#641510F00B19930E
(1547754870.361202) can0 0CF00300#FF0023FF06FFFFFF
(1547754870.361775) can0 0CEFFF00#64062E7DFFFFFFFF
(1547754870.362349) can0 18FEF200#2300FFFFFFFFFFFF
(1547754870.371147) can0 0CF00400#F0FF9D321CFFFFFF
(1547754870.371720) can0 0DEF0603#0101FFFFFFFFFFF5
(1547754870.372492) can0 04EF0006#641511F01119930E
(1547754870.373068) can0 0CFE4947#FFFFFFFFFFFFFFFF
(1547754870.373671) can0 1CFDDF47#FCFFFFFFFFFFFFFF
(1547754870.374242) can0 0CFE4347#0000FFFF3FFFFFFF
(1547754870.374796) can0 0CFE4447#0000FFFF3FFFFFFF
(1547754870.375371) can0 0CFFFE06#5C271D271DFFFFFF
(1547754870.381094) can0 0CF00300#FF0023FF06FFFFFF
(1547754870.381666) can0 0CEFFF00#64062D7DFFFFFFFF
(1547754870.382237) can0 18EF0600#640EBB00FFFFFFFF
(1547754870.391071) can0 0CF00400#F0FF9D2E1CFFFFFF
(1547754870.391708) can0 0DEF0603#0101FFFFFFFFFFF5
(1547754870.392485) can0 04EF0006#641512F00719930E
(1547754870.401107) can0 0CF00300#FF0024FF06FFFFFF
(1547754870.401682) can0 0CEFFF00#64062D7DFFFFFFFF
(1547754870.402251) can0 18EFFF00#64100101D402057D
(1547754870.402831) can0 18FED500#FFFFFDFFFFFFFFFF
(1547754870.411254) can0 0DEF0603#0101FFFFFFFFFFF5
(1547754870.411824) can0 0CF00400#F0FF9D2A1CFFFFFF
(1547754870.412473) can0 04EF0006#641513F01119930E
(1547754870.413048) can0 18FEF147#FF0000FFFFFFFFFF
(1547754870.413604) can0 18F00647#FFCFFFFFFFFFFFFF
(1547754870.414243) can0 18F00503#7DFFFFFFFFFFFFFF
(1547754870.421054) can0 0CF00300#FF0024FF06FFFFFF
(1547754870.421670) can0 0CEFFF00#64062E7DFFFFFFFF
(1547754870.430761) can0 0DEF0647#0104FFFFFFFFFFF1
(1547754870.431366) can0 0CF00400#F0FF9D2A1CFFFFFF
(1547754870.431939) can0 0DEF0603#0101FFFFFFFFFFF5
(1547754870.432612) can0 04EF0006#641514F01119930E
(1547754870.441062) can0 0CF00300#FF0023FF06FFFFFF
(1547754870.441636) can0 0CEFFF00#64062E7DFFFFFFFF
(1547754870.442207) can0 18FDB300#FFFFF828FFFFFFFF
(1547754870.451236) can0 0DEF0603#0101FFFFFFFFFFF5
(1547754870.451809) can0 0CF00400#F0FF9D281CFFFFFF
(1547754870.452409) can0 04EF0006#641515F01119930E
(1547754870.453036) can0 0CFE4947#FFFFFFFFFFFFFFFF
(1547754870.453583) can0 0CFE4347#0000FFFF3FFFFFFF
(1547754870.454277) can0 0CFE4447#0000FFFF3FFFFFFF
(1547754870.461102) can0 0CF00300#FF0024FF06FFFFFF
(1547754870.461627) can0 0CEFFF00#64062E7DFFFFFFFF
(1547754870.462243) can0 18FEF200#2300FFFFFFFFFFFF
(1547754870.471049) can0 0CF00400#F0FF9D221CFFFFFF
(1547754870.471614) can0 0DEF0603#0101FFFFFFFFFFF5
(1547754870.472391) can0 04EF0006#641516F01119930E
(1547754870.481044) can0 0CF00300#FF0024FF06FFFFFF
(1547754870.481616) can0 0CEFFF00#64062E7DFFFFFFFF
(1547754870.482189) can0 18EF0600#640EC500FFFFFFFF
(1547754870.491140) can0 0CF00400#F0FF9D2A1CFFFFFF
(1547754870.491736) can0 0DEF0603#0101FFFFFFFFFFF5
(1547754870.492433) can0 04EF0006#641517F00B19930E
(1547754870.493007) can0 0CFFFE06#5C271D271DFFFFFF
(1547754870.493585) can0 18FEF147#FF0000FFFFFFFFFF
(1547754870.494137) can0 18F00503#7DFFFFFFFFFFFFFF
(1547754870.501136) can0 0CF00300#FF0023FF06FFFFFF
(1547754870.501684) can0 0CEFFF00#64062D7DFFFFFFFF
(1547754870.502305) can0 18EFFF00#64100101D402057D
(1547754870.502831) can0 18FEDF00#8B201CFFFFFFFFFF
(1547754870.511032) can0 0CF00400#F0FF9D321CFFFFFF
(1547754870.511599) can0 0DEF0603#0101FFFFFFFFFFF5
(1547754870.512377) can0 04EF0006#641518F01119930E
(1547754870.520993) can0 0CF00300#FF0023FF06FFFFFF
(1547754870.521593) can0 0CEFFF00#64062C7DFFFFFFFF
(1547754870.522168) can0 18FEEF00#FFFFFF64FFFFFFFA
(1547754870.530742) can0 0DEF0647#0104FFFFFFFFFFF1
(1547754870.531313) can0 0CF00400#F0FF9C2A1CFFFFFF
(1547754870.531888) can0 0DEF0603#0101FFFFFFFFFFF5
(1547754870.532464) can0 04EF0006#641519F00719930E
(1547754870.533038) can0 18FFFB06#0005AFF8FFFFFFFF
(1547754870.541291) can0 0CF00300#FF0023FF06FFFFFF
(1547754870.541867) can0 0CEFFF00#64062D7DFFFFFFFF
(1547754870.551034) can0 0CF00400#F0FF9D281CFFFFFF
(1547754870.551605) can0 0DEF0603#0101FFFFFFFFFFF5
(1547754870.552278) can0 04EF0006#64151AF01119930E
(1547754870.561024) can0 0CF00300#FF0023FF06FFFFFF
(1547754870.561604) can0 0CEFFF00#64062D7DFFFFFFFF
(1547754870.562173) can0 18FEF200#2100FFFFFFFFFFFF
(1547754870.571022) can0 0CF00400#F0FF9D2A1CFFFFFF
(1547754870.571593) can0 0DEF0603#0101FFFFFFFFFFF5
(1547754870.572342) can0 04EF0006#64151BF01119930E
(1547754870.572918) can0 0CFE4947#FFFFFFFFFFFFFFFF
(1547754870.573521) can0 0CFE4347#0000FFFF3FFFFFFF
(1547754870.574115) can0 0CFE4447#0000FFFF3FFFFFFF
(1547754870.574647) can0 0CFFFE06#5C271D271DFFFFFF
(1547754870.580995) can0 0CF00300#FF0023FF06FFFFFF
(1547754870.581621) can0 0CEFFF00#64062D7DFFFFFFFF
(1547754870.582171) can0 18EF0600#640ECF00FFFFFFFF
(1547754870.591015) can0 0CF00400#F0FF9D221CFFFFFF
(1547754870.591613) can0 0DEF0603#0101FFFFFFFFFFF5
(1547754870.592332) can0 04EF0006#64151CF01119930E
(1547754870.600947) can0 0CF00300#FF0024FF06FFFFFF
(1547754870.601561) can0 0CEFFF00#64062E7DFFFFFFFF
(1547754870.602127) can0 18EFFF00#64100101D302057D
(1547754870.602704) can0 18FEF600#FF003DFF00FFFFFF
(1547754870.611005) can0 0CF00400#F0FF9D221CFFFFFF
(1547754870.611574) can0 0DEF0603#0101FFFFFFFFFFF5
(1547754870.612322) can0 04EF0006#64151DF00B19930E
(1547754870.612896) can0 18FEF147#FF0000FFFFFFFFFF
(1547754870.613527) can0 18F00503#80FFFFFFFFFFFFFF
(1547754870.621048) can0 0CF00300#FF0023FF06FFFFFF
(1547754870.621672) can0 0CEFFF00#64062E7DFFFFFFFF
(1547754870.630721) can0 0DEF0647#0104FFFFFFFFFFF1
(1547754870.631289) can0 0CF00400#F0FF9D2A1CFFFFFF
(1547754870.631864) can0 0DEF0603#0101FFFFFFFFFFF5
(1547754870.632465) can0 04EF0006#64151EF00B19930E
(1547754870.640942) can0 0CF00300#FF0023FF06FFFFFF
(1547754870.641563) can0 0CEFFF00#64062D7DFFFFFFFF
(1547754870.651011) can0 0CF00400#F0FF9D2C1CFFFFFF
(1547754870.651605) can0 0DEF0603#0101FFFFFFFFFFF5
(1547754870.652178) can0 18FFFA00#022C0000180C0081
(1547754870.652681) can0 04EF0006#64151FF01119930E
(1547754870.653262) can0 0CFE4947#FFFFFFFFFFFFFFFF
(1547754870.653879) can0 18FFFB06#0005AFF8FFFFFFFF
(1547754870.654480) can0 0CFE4347#0000FFFF3FFFFFFF
(1547754870.654807) can0 18EA0006#E3FE00
(1547754870.655452) can0 0CFE4447#0000FFFF3FFFFFFF
(1547754870.660953) can0 0CF00300#FF0023FF06FFFFFF
(1547754870.661506) can0 0CEFFF00#64062C7DFFFFFFFF
(1547754870.662104) can0 18FEF200#2100FFFFFFFFFFFF
(1547754870.670965) can0 0CF00400#F0FF9C261CFFFFFF
(1547754870.671564) can0 0DEF0603#0101FFFFFFFFFFF5
(1547754870.672286) can0 04EF0006#641510F01119930E
(1547754870.680931) can0 0CF00300#FF0023FF06FFFFFF
(1547754870.681535) can0 0CEFFF00#64062D7DFFFFFFFF
(1547754870.682153) can0 18EF0600#640ED900FFFFFFFF
(1547754870.682702) can0 18FEF500#C8FFFFFFFF3BFFFF
(1547754870.685730) can0 1CFFFF17#22FFFF3CFFFFFFFF
(1547754870.690199) can0 18EAFF06#E5FE00
(1547754870.690949) can0 0CF00400#F0FF9D261CFFFFFF
(1547754870.691551) can0 0DEF0603#0101FFFFFFFFFFF5
(1547754870.692350) can0 04EF0006#641511F00B19930E
(1547754870.692923) can0 0CFFFE06#5C271D271DFFFFFF
(1547754870.693503) can0 18FEF147#FF0000FFFFFFFFFF
(1547754870.694074) can0 18FEE706#CC0A0000FFFFFFFF
(1547754870.694699) can0 18F00503#80FFFFFFFFFFFFFF
(1547754870.700919) can0 0CF00300#FF0023FF06FFFFFF
(1547754870.701476) can0 0CEFFF00#64062D7DFFFFFFFF
(1547754870.702031) can0 18EFFF00#64100101D402057D
(1547754870.703750) can0 18FEE500#CC0A0000FFFFFFFF
(1547754870.704328) can0 1CEC0600#1022000505E3FE00
(1547754870.708988) can0 1CEC0006#110501FFFFE3FE00
(1547754870.710988) can0 0CF00400#F0FF9D261CFFFFFF
(1547754870.711562) can0 0DEF0603#0101FFFFFFFFFFF5
(1547754870.712336) can0 04EF0006#641512F00B19930E
(1547754870.721057) can0 0CF00300#FF0024FF06FFFFFF
(1547754870.721633) can0 0CEFFF00#64062D7DFFFFFFFF
(1547754870.722154) can0 18FE6900#C4249827FFFF60FE
(1547754870.730654) can0 0DEF0647#0104FFFFFFFFFFF1
(1547754870.731204) can0 0CF00400#F0FF9D1A1CFFFFFF
(1547754870.731800) can0 0DEF0603#0101FFFFFFFFFFF5
(1547754870.732504) can0 04EF0006#641513F00B19930E
(1547754870.740899) can0 0CF00300#FF0024FF06FFFFFF
(1547754870.741501) can0 0CEFFF00#6406307DFFFFFFFF
(1547754870.750892) can0 0CF00400#F0FF9D221CFFFFFF
(1547754870.751467) can0 0DEF0603#0101FFFFFFFFFFF5
(1547754870.752065) can0 18FEDF00#8B201CFFFFFFFFFF
(1547754870.752582) can0 04EF0006#641514F00419930E
(1547754870.760973) can0 0CF00300#FF0023FF06FFFFFF
(1547754870.761614) can0 0CEFFF00#64062E7DFFFFFFFF
(1547754870.762188) can0 18FEF200#2300FFFFFFFFFFFF
(1547754870.770898) can0 0CF00400#F0FF9D2C1CFFFFFF
(1547754870.771534) can0 0DEF0603#0101FFFFFFFFFFF5
(1547754870.772216) can0 04EF0006#641515F00B19930E
(1547754870.772832) can0 0CFE4947#FFFFFFFFFFFFFFFF
(1547754870.773374) can0 18FFFB06#0005AFF8FFFFFFFF
(1547754870.773979) can0 0CFFFF47#5DFFFFF3FFFFFFFF
(1547754870.774546) can0 0CFE4347#0000FFFF3FFFFFFF
(1547754870.775144) can0 0CFE4447#0000FFFF3FFFFFFF
(1547754870.775760) can0 0CFFFE06#5C271D271DFFFFFF
(1547754870.780836) can0 0CF00300#FF0023FF06FFFFFF
(1547754870.781423) can0 0CEFFF00#64062C7DFFFFFFFF
(1547754870.782011) can0 18EF0600#640EE300FFFFFFFF
(1547754870.790939) can0 0CF00400#F0FF9C281CFFFFFF
(1547754870.791512) can0 0DEF0603#0101FFFFFFFFFFF5
(1547754870.792206) can0 04EF0006#641516F01119930E
(1547754870.800934) can0 0CF00300#FF0023FF06FFFFFF
(1547754870.801536) can0 0CEFFF00#64062D7DFFFFFFFF
(1547754870.802108) can0 18EFFF00#64100101D402057D
(1547754870.803659) can0 1CEB0600#01201CDD6842DCA0
(1547754870.810983) can0 0DEF0603#0101FFFFFFFFFFF5
(1547754870.811579) can0 0CF00400#F0FF9D241CFFFFFF
(1547754870.812228) can0 04EF0006#641517F01119930E
(1547754870.812802) can0 18FEF147#FF0000FFFFFFFFFF
(1547754870.813408) can0 18FFFB06#001BFFFFFFFFFFFF
(1547754870.813996) can0 18F00503#80FFFFFFFFFFFFFF
(1547754870.820847) can0 0CF00300#FF0023FF06FFFFFF
(1547754870.821452) can0 0CEFFF00#64062D7DFFFFFFFF
(1547754870.830562) can0 0DEF0647#0104FFFFFFFFFFF1
(1547754870.831143) can0 0CF00400#F0FF9D261CFFFFFF
(1547754870.831720) can0 0DEF0603#0101FFFFFFFFFFF5
(1547754870.832314) can0 04EF0006#641518F00B19930E
(1547754870.840839) can0 0CF00300#FF0023FF06FFFFFF
(1547754870.841479) can0 0CEFFF00#64062D7DFFFFFFFF
(1547754870.842020) can0 18FD7C00#F880F1F000CF03FC
(1547754870.850991) can0 0DEF0603#0101FFFFFFFFFFF5
(1547754870.851542) can0 0CF00400#F0FF9D221CFFFFFF
(1547754870.852216) can0 04EF0006#641519F00B19930E
(1547754870.852780) can0 0CFE4947#FFFFFFFFFFFFFFFF
(1547754870.853356) can0 18FE6847#3CFFFFFFFFFFFFFF
(1547754870.853971) can0 0CFE4347#0000FFFF3FFFFFFF
(1547754870.854530) can0 18FFFF06#73FFFFFFFFFFFFFF
(1547754870.855105) can0 0CFE4447#0000FFFF3FFFFFFF
(1547754870.856535) can0 1CEB0600#020FD58D20E37A31
(1547754870.860861) can0 0CF00300#FF0024FF06FFFFFF
(1547754870.861459) can0 0CEFFF00#64062E7DFFFFFFFF
(1547754870.862034) can0 18FEF200#2300FFFFFFFFFFFF
(1547754870.870856) can0 0CF00400#F0FF9D1C1CFFFFFF
(1547754870.871458) can0 0DEF0603#0101FFFFFFFFFFF5
(1547754870.872207) can0 04EF0006#64151AF00B19930E
(1547754870.880832) can0 0CF00300#FF0024FF06FFFFFF
(1547754870.881406) can0 0CEFFF00#64062F7DFFFFFFFF
(1547754870.881943) can0 18EF0600#640EED00FFFFFFFF
(1547754870.890925) can0 0CF00400#F0FF9D241CFFFFFF
(1547754870.891523) can0 0DEF0603#0101FFFFFFFFFFF5
(1547754870.892245) can0 04EF0006#64151BF00419930E
(1547754870.892824) can0 0CFFFF47#5EFFFFFFFFFFFFFF
(1547754870.893397) can0 18FEF147#FF0000FFFFFFFFFF
(1547754870.893946) can0 0CFFFE06#5C271D271DFFFFFF
(1547754870.894511) can0 18FEFC47#FFFFFFFFFFFFFFFF
(1547754870.895084) can0 18EF0047#F220610FFFFFFFFF
(1547754870.895725) can0 18F00647#FFCFFFFFFFFFFFFF
(1547754870.896279) can0 1CFDDF47#FCFFFFFFFFFFFFFF
(1547754870.896921) can0 18FFFB06#0005AFF8FFFFFFFF
(1547754870.897486) can0 18F00503#80FFFFFFFFFFFFFF
(1547754870.900964) can0 0CF00300#FF0023FF06FFFFFF
(1547754870.901514) can0 0CEFFF00#64062D7DFFFFFFFF
(1547754870.902094) can0 18EFFF00#64100101D402057D
(1547754870.903816) can0 1CEB0600#03F1C044FFFF0401
(1547754870.910836) can0 0CF00400#F0FF9D2C1CFFFFFF
(1547754870.911437) can0 0DEF0603#0101FFFFFFFFFFF5
(1547754870.912186) can0 04EF0006#64151CF00B19930E
(1547754870.920815) can0 0CF00300#FF0023FF06FFFFFF
(1547754870.921408) can0 0CEFFF00#64062C7DFFFFFFFF
(1547754870.930557) can0 0DEF0647#0104FFFFFFFFFFF1
(1547754870.931127) can0 0CF00400#F0FF9C241CFFFFFF
(1547754870.931702) can0 0DEF0603#0101FFFFFFFFFFF5
(1547754870.932302) can0 04EF0006#64151DF01119930E
(1547754870.941076) can0 0CF00300#FF0023FF06FFFFFF
(1547754870.941648) can0 0CEFFF00#64062D7DFFFFFFFF
(1547754870.942221) can0 18FDB300#FFFFF828FFFFFFFF
(1547754870.942796) can0 1CEFFF00#64070000FFFFFFFF
(1547754870.950786) can0 0CF00400#F0FF9D241CFFFFFF
(1547754870.951357) can0 0DEF0603#0101FFFFFFFFFFF5
(1547754870.952166) can0 04EF0006#64151EF00B19930E
(1547754870.955826) can0 1CEB0600#04204E0001FAC9FA
(1547754870.960848) can0 0CF00300#FF0023FF06FFFFFF
(1547754870.961390) can0 0CEFFF00#64062D7DFFFFFFFF
(1547754870.962021) can0 18FEF200#2100FFFFFFFFFFFF
(1547754870.970813) can0 0CF00400#F0FF9D241CFFFFFF
(1547754870.971407) can0 0DEF0603#0101FFFFFFFFFFF5
(1547754870.972159) can0 04EF0006#64151FF00B19930E
(1547754870.972731) can0 0CFE4947#FFFFFFFFFFFFFFFF
(1547754870.973333) can0 0CFE4347#0000FFFF3FFFFFFF
(1547754870.973935) can0 0CFE4447#0000FFFF3FFFFFFF
(1547754870.974470) can0 0CFFFE06#5C271D271DFFFFFF
(1547754870.980794) can0 0CF00300#FF0023FF06FFFFFF
(1547754870.981363) can0 0CEFFF00#64062D7DFFFFFFFF
(1547754870.981967) can0 18EF0600#640EF700FFFFFFFF
(1547754870.990880) can0 0CF00400#F0FF9D1E1CFFFFFF
(1547754870.991448) can0 0DEF0603#0101FFFFFFFFFFF5
(1547754870.992149) can0 04EF0006#641510F00B19930E
(1547754871.000794) can0 0CF00300#FF0024FF06FFFFFF
(1547754871.001372) can0 0CEFFF00#64062F7DFFFFFFFF
(1547754871.001942) can0 18EFFF00#64100101D302057D
(1547754871.002520) can0 18FEDF00#8B201CFFFFFFFFFF
(1547754871.003508) can0 1CEB0600#05C05D0000FFFFFF
(1547754871.010818) can0 0CF00400#F0FF9D201CFFFFFF
(1547754871.011388) can0 0DEF0603#0101FFFFFFFFFFF5
(1547754871.012214) can0 04EF0006#641511F00419930E
(1547754871.012786) can0 18FEF147#FF0000FFFFFFFFFF
(1547754871.013390) can0 18FFFB06#0005AFF8FFFFFFFF
(1547754871.013991) can0 18F00503#80FFFFFFFFFFFFFF
(1547754871.014585) can0 1CEC0006#13220005FFE3FE00
(1547754871.020911) can0 0CF00300#FF0023FF06FFFFFF
(1547754871.021487) can0 0CEFFF00#64062D7DFFFFFFFF
(1547754871.021992) can0 18FEEF00#FFFFFF64FFFFFFFA
(1547754871.030465) can0 0DEF0647#0104FFFFFFFFFFF1
(1547754871.031043) can0 0CF00400#F0FF9D2A1CFFFFFF
(1547754871.031621) can0 0DEF0603#0101FFFFFFFFFFF5
(1547754871.032254) can0 04EF0006#641512F00B19930E
(1547754871.040779) can0 0CF00300#FF0023FF06FFFFFF
(1547754871.041375) can0 0CEFFF00#64062C7DFFFFFFFF
(1547754871.050796) can0 0CF00400#F0FF9C2C1CFFFFFF
(1547754871.051370) can0 0DEF0603#0101FFFFFFFFFFF5
(1547754871.052122) can0 04EF0006#641513F01119930E
(1547754871.052691) can0 0CFE4947#FFFFFFFFFFFFFFFF
(1547754871.053293) can0 0CFE4347#0000FFFF3FFFFFFF
(1547754871.053892) can0 0CFE4447#0000FFFF3FFFFFFF
(1547754871.060791) can0 0CF00300#FF0023FF06FFFFFF
(1547754871.061364) can0 0CEFFF00#64062C7DFFFFFFFF
(1547754871.061963) can0 18FEF200#2100FFFFFFFFFFFF
(1547754871.070750) can0 0CF00400#F0FF9C281CFFFFFF
(1547754871.071384) can0 0DEF0603#0101FFFFFFFFFFF5
(1547754871.072069) can0 04EF0006#641514F01119930E
(1547754871.080782) can0 0CF00300#FF0023FF06FFFFFF
(1547754871.081356) can0 0CEFFF00#64062C7DFFFFFFFF
(1547754871.081954) can0 18EF0600#640E0100FFFFFFFF
(1547754871.090802) can0 0CF00400#F0FF9C281CFFFFFF
(1547754871.091342) can0 0DEF0603#0101FFFFFFFFFFF5
(1547754871.092097) can0 04EF0006#641515F01119930E
(1547754871.092646) can0 0CFFFE06#5C271D271DFFFFFF
(1547754871.093222) can0 18FEF147#FF0000FFFFFFFFFF
(1547754871.093822) can0 18F00503#80FFFFFFFFFFFFFF
(1547754871.100711) can0 0CF00300#FF0023FF06FFFFFF
(1547754871.101321) can0 0CEFFF00#64062C7DFFFFFFFF
(1547754871.101891) can0 18EFFF00#64100101D302057D
(1547754871.102457) can0 18FEF600#FF003CFF00FFFFFF
(1547754871.103553) can0 1CECFF00#20220005FFE3FE00
(1547754871.110779) can0 0CF00400#F0FF9C281CFFFFFF
(1547754871.111388) can0 0DEF0603#0101FFFFFFFFFFF5
(1547754871.112061) can0 04EF0006#641516F01119930E
(1547754871.120812) can0 18EFFA00#6401FF0000FFFFFF
(1547754871.121385) can0 0CEFFF00#64062C7DFFFFFFFF
(1547754871.121959) can0 0CF00300#FF0023FF06FFFFFF
(1547754871.130457) can0 0DEF0647#0104FFFFFFFFFFF1
(1547754871.131029) can0 0CF00400#F0FF9C1E1CFFFFFF
(1547754871.131603) can0 0DEF0603#0101FFFFFFFFFFF5
(1547754871.132164) can0 04EF0006#641517F01119930E
(1547754871.132767) can0 18FFFB06#000586F8FFFFFFFF
(1547754871.140728) can0 0CF00300#FF0023FF06FFFFFF
(1547754871.141299) can0 0CEFFF00#64062E7DFFFFFFFF
(1547754871.150722) can0 0CF00400#F0FF9D241CFFFFFF
(1547754871.151318) can0 0DEF0603#0101FFFFFFFFFFF5
(1547754871.152068) can0 0C000006#30FFFFFFF8FFFFFF
(1547754871.152616) can0 04EF0006#641518F00419930E
(1547754871.155866) can0 1CEBFF00#01201CEC6842EAA0
(1547754871.160843) can0 0CF00300#FF0023FF06FFFFFF
(1547754871.161414) can0 0CEFFF00#64062D7DFFFFFFFF
(1547754871.162013) can0 18FEF200#2100FFFFFFFFFFFF
(1547754871.170736) can0 0CF00400#F0FF9D2E1CFFFFFF
(1547754871.171312) can0 0DEF0603#0101FFFFFFFFFFF5
(1547754871.172058) can0 04EF0006#641519F00B19930E
(1547754871.172631) can0 0CFE4947#FFFFFFFFFFFFFFFF
(1547754871.173207) can0 0CFE4347#0000FFFF3FFFFFFF
(1547754871.173832) can0 0CFE4447#0000FFFF3FFFFFFF
(1547754871.174370) can0 0CFFFE06#5C271D271DFFFFFF
(1547754871.180671) can0 0CF00300#FF0023FF06FFFFFF
(1547754871.181254) can0 0CEFFF00#64062B7DFFFFFFFF
(1547754871.181816) can0 18EF0600#640E0B00FFFFFFFF
(1547754871.190689) can0 0CF00400#F0FF9C2A1CFFFFFF
(1547754871.191259) can0 0DEF0603#0101FFFFFFFFFFF5
(1547754871.191985) can0 04EF0006#64151AF01119930E
(1547754871.200745) can0 0CF00300#FF0023FF06FFFFFF
(1547754871.201327) can0 0CEFFF00#64062C7DFFFFFFFF
(1547754871.201928) can0 18EFFF00#64100101D402057D
(1547754871.203525) can0 1CEBFF00#020FE38D20F17A31
(1547754871.210822) can0 0DEF0603#0101FFFFFFFFFFF5
(1547754871.211399) can0 0CF00400#F0FF9C281CFFFFFF
(1547754871.212045) can0 04EF0006#64151BF01119930E
(1547754871.212619) can0 18FEF147#FF0000FFFFFFFFFF
(1547754871.213221) can0 18F00503#80FFFFFFFFFFFFFF
(1547754871.220674) can0 0CF00300#FF0023FF06FFFFFF
(1547754871.221294) can0 0CEFFF00#64062C7DFFFFFFFF
(1547754871.221892) can0 18FEEE00#5343FFFFFFFFFFFF
(1547754871.230369) can0 0DEF0647#0104FFFFFFFFFFF1
(1547754871.230944) can0 0CF00400#F0FF9C2A1CFFFFFF
(1547754871.231567) can0 0DEF0603#0101FFFFFFFFFFF5
(1547754871.232260) can0 04EF0006#64151CF01119930E
(1547754871.240667) can0 0CF00300#FF0023FF06FFFFFF
(1547754871.241282) can0 0CEFFF00#64062C7DFFFFFFFF
(1547754871.250828) can0 0DEF0603#0101FFFFFFFFFFF5
(1547754871.251377) can0 0CF00400#F0FF9C261CFFFFFF
(1547754871.251952) can0 18FEDF00#8B201CFFFFFFFFFF
(1547754871.252500) can0 04EF0006#64151DF01119930E
(1547754871.253076) can0 0CFE4947#FFFFFFFFFFFFFFFF
(1547754871.253679) can0 18FFFB06#000586F8FFFFFFFF
(1547754871.254208) can0 0CFFFF47#5DFFFFF3FFFFFFFF
(1547754871.254831) can0 0CFE4347#0000FFFF3FFFFFFF
(1547754871.255413) can0 0CFE4447#0000FFFF3FFFFFFF
(1547754871.256506) can0 1CEBFF00#03FAC044FFFF0401
(1547754871.260702) can0 0CF00300#FF0023FF06FFFFFF
(1547754871.261296) can0 0CEFFF00#64062C7DFFFFFFFF
(1547754871.261872) can0 18FEF200#2100FFFFFFFFFFFF
(1547754871.270696) can0 0CF00400#F0FF9C201CFFFFFF
(1547754871.271268) can0 0DEF0603#0101FFFFFFFFFFF5
(1547754871.272016) can0 04EF0006#64151EF00B19930E
(1547754871.280682) can0 0CF00300#FF0023FF06FFFFFF
(1547754871.281255) can0 0CEFFF00#64062D7DFFFFFFFF
(1547754871.281857) can0 18EF0600#640E1500FFFFFFFF
(1547754871.290754) can0 0CF00400#F0FF9D261CFFFFFF
(1547754871.291325) can0 0DEF0603#0101FFFFFFFFFFF5
(1547754871.291999) can0 04EF0006#64151FF00B19930E
(1547754871.292575) can0 0CFFFE06#5C271D271DFFFFFF
(1547754871.293150) can0 18FEF147#FF0000FFFFFFFFFF
(1547754871.293700) can0 18F00503#80FFFFFFFFFFFFFF
(1547754871.300696) can0 0CF00300#FF0023FF06FFFFFF
(1547754871.301272) can0 0CEFFF00#64062C7DFFFFFFFF
(1547754871.301904) can0 18EFFF00#64100101D302057D
(1547754871.302432) can0 18FEF700#FFFFFFFFFFFF1801
(1547754871.303609) can0 1CEBFF00#04204E0001FAC9FA
(1547754871.310676) can0 0CF00400#F0FF9C2C1CFFFFFF
(1547754871.311249) can0 0DEF0603#0101FFFFFFFFFFF5
(1547754871.311998) can0 04EF0006#641510F00B19930E
(1547754871.320647) can0 0CF00300#FF0023FF06FFFFFF
(1547754871.321194) can0 0CEFFF00#64062B7DFFFFFFFF
(1547754871.330368) can0 0DEF0647#0104FFFFFFFFFFF1
(1547754871.330940) can0 0CF00400#F0FF9C221CFFFFFF
(1547754871.331513) can0 0DEF0603#0101FFFFFFFFFFF5
(1547754871.332138) can0 04EF0006#641511F01119930E
(1547754871.332714) can0 18FFFF06#73FFFFFFFFFFFFFF
(1547754871.340835) can0 0CF00300#FF0023FF06FFFFFF
(1547754871.341386) can0 0CEFFF00#64062C7DFFFFFFFF
(1547754871.350587) can0 0CF00400#F0FF9C201CFFFFFF
(1547754871.351206) can0 0DEF0603#0101FFFFFFFFFFF5
(1547754871.351929) can0 04EF0006#641512F00B19930E
(1547754871.355682) can0 1CEBFF00#05C05D0000FFFFFF
(1547754871.360653) can0 0CF00300#FF0023FF06FFFFFF
(1547754871.361224) can0 0CEFFF00#64062D7DFFFFFFFF
(1547754871.361818) can0 18FEF200#2100FFFFFFFFFFFF
(1547754871.365315) can0 1CFFFF17#22FFFF3CFFFFFFFF
(1547754871.370615) can0 0CF00400#F0FF9D201CFFFFFF
(1547754871.371185) can0 0DEF0603#0101FFFFFFFFFFF5
(1547754871.371959) can0 04EF0006#641513F00B19930E
(1547754871.372532) can0 0CFE4947#FFFFFFFFFFFFFFFF
(1547754871.373135) can0 1CFDDF47#FCFFFFFFFFFFFFFF
(1547754871.373711) can0 0CFE4347#0000FFFF3FFFFFFF
(1547754871.374284) can0 18FFFB06#000586F8FFFFFFFF
(1547754871.374860) can0 0CFE4447#0000FFFF3FFFFFFF
(1547754871.375406) can0 0CFFFE06#5C271D271DFFFFFF
(1547754871.380583) can0 0CF00300#FF0023FF06FFFFFF
(1547754871.381153) can0 0CEFFF00#64062D7DFFFFFFFF
(1547754871.381758) can0 18EF0600#640E1F00FFFFFFFF
(1547754871.390705) can0 0CF00400#F0FF9D1A1CFFFFFF
(1547754871.391275) can0 0DEF0603#0101FFFFFFFFFFF5
(1547754871.391976) can0 04EF0006#641514F00B19930E
(1547754871.400596) can0 0CF00300#FF0024FF06FFFFFF
(1547754871.401170) can0 0CEFFF00#64062E7DFFFFFFFF
(1547754871.401747) can0 18EFFF00#64100101D102057D
(1547754871.402344) can0 18FED500#FFFFFDFFFFFFFFFF
(1547754871.410617) can0 0CF00400#F0FF9D1A1CFFFFFF
(1547754871.411190) can0 0DEF0603#0101FFFFFFFFFFF5
(1547754871.411941) can0 04EF0006#641515F00419930E
(1547754871.412569) can0 18FEF147#FF0000FFFFFFFFFF
(1547754871.413190) can0 18F00647#FFCFFFFFFFFFFFFF
(1547754871.413746) can0 18F00503#80FFFFFFFFFFFFFF
(1547754871.420739) can0 0CF00300#FF0023FF06FFFFFF
(1547754871.421342) can0 0CEFFF00#64062F7DFFFFFFFF
(1547754871.430330) can0 0DEF0647#0104FFFFFFFFFFF1
(1547754871.430880) can0 0CF00400#F0FF9D221CFFFFFF
(1547754871.431477) can0 0DEF0603#0101FFFFFFFFFFF5
(1547754871.432106) can0 04EF0006#641516F00419930E
(1547754871.440625) can0 0CF00300#FF0023FF06FFFFFF
(1547754871.441203) can0 0CEFFF00#64062C7DFFFFFFFF
(1547754871.441787) can0 18FDB300#FFFF0629FFFFFFFF
(1547754871.450609) can0 0CF00400#F0FF9C221CFFFFFF
(1547754871.451207) can0 0DEF0603#0101FFFFFFFFFFF5
(1547754871.451901) can0 04EF0006#641517F00B19930E
(1547754871.452526) can0 0CFE4947#FFFFFFFFFFFFFFFF
(1547754871.453105) can0 0CFE4347#0000FFFF3FFFFFFF
(1547754871.453702) can0 0CFE4447#0000FFFF3FFFFFFF
(1547754871.460555) can0 0CF00300#FF0023FF06FFFFFF
(1547754871.461174) can0 0CEFFF00#64062C7DFFFFFFFF
(1547754871.461773) can0 18FEF200#2100FFFFFFFFFFFF
(1547754871.470574) can0 0CF00400#F0FF9C1C1CFFFFFF
(1547754871.471194) can0 0DEF0603#0101FFFFFFFFFFF5
(1547754871.471869) can0 04EF0006#641518F00B19930E
(1547754871.480545) can0 0CF00300#FF0024FF06FFFFFF
(1547754871.481142) can0 0CEFFF00#64062E7DFFFFFFFF
(1547754871.481766) can0 18EF0600#640E2900FFFFFFFF
(1547754871.490589) can0 0CF00400#F0FF9D1C1CFFFFFF
(1547754871.491187) can0 0DEF0603#0101FFFFFFFFFFF5
(1547754871.491960) can0 04EF0006#641519F00419930E
(1547754871.492531) can0 0CFFFE06#5C271D271DFFFFFF
(1547754871.493108) can0 18FEF147#FF0000FFFFFFFFFF
(1547754871.493710) can0 18FFFB06#000586F8FFFFFFFF
(1547754871.494263) can0 18F00503#80FFFFFFFFFFFFFF
(1547754871.500503) can0 0CF00300#FF0023FF06FFFFFF
(1547754871.501099) can0 0CEFFF00#64062E7DFFFFFFFF
(1547754871.501647) can0 18EFFF00#64100101D202057D
(1547754871.502248) can0 18FEDF00#8B201CFFFFFFFFFF
(1547754871.510547) can0 0CF00400#F0FF9D1E1CFFFFFF
(1547754871.511120) can0 0DEF0603#0101FFFFFFFFFFF5
(1547754871.511892) can0 04EF0006#64151AF00419930E
(1547754871.520607) can0 0CF00300#FF0024FF06FFFFFF
(1547754871.521141) can0 0CEFFF00#64062E7DFFFFFFFF
(1547754871.521756) can0 18FEEF00#FFFFFF64FFFFFFFA
(1547754871.530253) can0 0DEF0647#0104FFFFFFFFFFF1
(1547754871.530800) can0 0CF00400#F0FF9D141CFFFFFF
(1547754871.531384) can0 0DEF0603#0101FFFFFFFFFFF5
(1547754871.532024) can0 04EF0006#64151BF00419930E
(1547754871.540523) can0 0CF00300#FF0024FF06FFFFFF
(1547754871.541070) can0 0CEFFF00#64062F7DFFFFFFFF
(1547754871.550502) can0 0CF00400#F0FF9D1C1CFFFFFF
(1547754871.551090) can0 0DEF0603#0101FFFFFFFFFFF5
(1547754871.551890) can0 04EF0006#64151CF00919930E
(1547754871.560613) can0 0CF00300#FF0023FF06FFFFFF
(1547754871.561185) can0 0CEFFF00#64062E7DFFFFFFFF
(1547754871.561761) can0 18FEF200#2100FFFFFFFFFFFF
(1547754871.570508) can0 0CF00400#F0FF9D261CFFFFFF
(1547754871.571106) can0 0DEF0603#0101FFFFFFFFFFF5
(1547754871.571880) can0 04EF0006#64151DF00419930E
(1547754871.572453) can0 0CFE4947#FFFFFFFFFFFFFFFF
(1547754871.573055) can0 0CFE4347#0000FFFF3FFFFFFF
(1547754871.573680) can0 0CFE4447#0000FFFF3FFFFFFF
(1547754871.574209) can0 0CFFFE06#5C271D271DFFFFFF
(1547754871.580510) can0 0CF00300#FF0023FF06FFFFFF
(1547754871.581100) can0 0CEFFF00#64062C7DFFFFFFFF
(1547754871.581645) can0 18EF0600#640E3300FFFFFFFF
(1547754871.590482) can0 0CF00400#F0FF9C241CFFFFFF
(1547754871.591078) can0 0DEF0603#0101FFFFFFFFFFF5
(1547754871.591804) can0 04EF0006#64151EF00B19930E
(1547754871.600568) can0 0CF00300#FF0023FF06FFFFFF
(1547754871.601140) can0 0CEFFF00#64062C7DFFFFFFFF
(1547754871.601716) can0 18EFFF00#64100101D202057D
(1547754871.602288) can0 18FEF600#FF003CFF00FFFFFF
(1547754871.610614) can0 0DEF0603#0101FFFFFFFFFFF5
(1547754871.611160) can0 0CF00400#F0FF9C241CFFFFFF
(1547754871.611809) can0 04EF0006#64151FF00B19930E
(1547754871.612408) can0 18FEF147#FF0000FFFFFFFFFF
(1547754871.612993) can0 18FFFB06#000586F8FFFFFFFF
(1547754871.613591) can0 18F00503#80FFFFFFFFFFFFFF
(1547754871.620465) can0 0CF00300#FF0023FF06FFFFFF
(1547754871.621055) can0 0CEFFF00#64062C7DFFFFFFFF
(1547754871.630204) can0 0DEF0647#0104FFFFFFFFFFF1
(1547754871.630774) can0 0CF00400#F0FF9C261CFFFFFF
(1547754871.631348) can0 0DEF0603#0101FFFFFFFFFFF5
(1547754871.631950) can0 04EF0006#641510F00B19930E
(1547754871.640512) can0 0CF00300#FF0023FF06FFFFFF
(1547754871.641086) can0 0CEFFF00#64062C7DFFFFFFFF
