(1547753765.078089) can0 18EEFF47#4D74300400340220
(1547753765.078661) can0 18EEFF06#4D743004000E0020
(1547753765.079234) can0 18EEFF03#4D74300400030220
(1547753765.103690) can0 18EEFF00#56F5290400000220
(1547753765.105914) can0 0CF00400#F0FF000000FFFFFF
(1547753765.106287) can0 18EAFF00#00EE00
(1547753765.115790) can0 0CF00300#FF0000FF00FFFFFF
(1547753765.116361) can0 0CEFFF00#6406007DFFFFFFFF
(1547753765.116939) can0 18FEF200#0000FFFFFFFFFFFF
(1547753765.126040) can0 0CF00400#F0FF7D0000FFFFFF
(1547753765.135892) can0 0CF00300#FF0000FF06FFFFFF
(1547753765.136464) can0 0CEFFF00#6406007DFFFFFFFF
(1547753765.137039) can0 18EF0600#640E0302FFFFFFFF
(1547753765.145940) can0 0CF00400#F0FF7D0000FFFFFF
(1547753765.155940) can0 0CF00300#FF0000FF06FFFFFF
(1547753765.156515) can0 0CEFFF00#6406007DFFFFFFFF
(1547753765.157088) can0 18EFFF00#64100B0B0000007D
(1547753765.157690) can0 18FEDF00#7DFA1CFFFFFFFFFF
(1547753765.158239) can0 1CECFF00#20220005FFE3FE00
(1547753765.165934) can0 0CF00400#F0FF7D0000FFFFFF
(1547753765.175915) can0 0CF00300#FF0000FF06FFFFFF
(1547753765.176516) can0 0CEFFF00#6406007DFFFFFFFF
(1547753765.177066) can0 18FEEF00#FFFFFFFEFFFFFFFA
(1547753765.185968) can0 0CF00400#F0FF7D0000FFFFFF
(1547753765.195920) can0 0CF00300#FF0000FF06FFFFFF
(1547753765.196517) can0 0CEFFF00#6406007DFFFFFFFF
(1547753765.205924) can0 0CF00400#F0FF7D0000FFFFFF
(1547753765.209093) can0 1CEBFF00#01201CDD6842DCA0
(1547753765.215942) can0 0CF00300#FF0000FF06FFFFFF
(1547753765.216542) can0 0CEFFF00#6406007DFFFFFFFF
(1547753765.217117) can0 18FEF200#0000FFFFFFFFFFFF
(1547753765.225969) can0 0CF00400#F0FF7D0000FFFFFF
(1547753765.235922) can0 0CF00300#FF0000FF06FFFFFF
(1547753765.236481) can0 0CEFFF00#6406007DFFFFFFFF
(1547753765.237041) can0 18EF0600#640E0D02FFFFFFFF
(1547753765.245943) can0 0CF00400#F0FF7D0000FFFFFF
(1547753765.255946) can0 0CF00300#FF0000FF06FFFFFF
(1547753765.256521) can0 0CEFFF00#6406007DFFFFFFFF
(1547753765.257094) can0 18EFFF00#64100B0B0000007D
(1547753765.257669) can0 18FEF600#FF0047FF00FFFFFF
(1547753765.258243) can0 1CEBFF00#020FD58D20E37A31
(1547753765.265963) can0 0CF00400#F0FF7D0000FFFFFF
(1547753765.275949) can0 18EFFA00#6401FF0000FFFFFF
(1547753765.276519) can0 0CEFFF00#6406007DFFFFFFFF
(1547753765.277093) can0 0CF00300#FF0000FF06FFFFFF
(1547753765.285965) can0 0CF00400#F0FF7D0000FFFFFF
(1547753765.295948) can0 0CF00300#FF0000FF06FFFFFF
(1547753765.296521) can0 0CEFFF00#6406007DFFFFFFFF
(1547753765.305998) can0 0CF00400#F0FF7D0000FFFFFF
(1547753765.309171) can0 1CEBFF00#03F1C044FFFF0401
(1547753765.315976) can0 0CF00300#FF0000FF06FFFFFF
(1547753765.316547) can0 0CEFFF00#6406007DFFFFFFFF
(1547753765.317120) can0 18FEF200#0000FFFFFFFFFFFF
(1547753765.325974) can0 0CF00400#F0FF7D0000FFFFFF
(1547753765.335951) can0 0CF00300#FF0000FF06FFFFFF
(1547753765.336521) can0 0CEFFF00#6406007DFFFFFFFF
(1547753765.337096) can0 18EF0600#640E1706FFFFFFFF
(1547753765.339526) can0 0DEF0603#0101FFFFFFFFFFF5
(1547753765.340044) can0 04EF0006#641510F00000930E
(1547753765.340623) can0 0C000006#30FFFFFFF8FFFFFF
(1547753765.346004) can0 0CF00400#F0FF7D0000FFFFFF
(1547753765.355950) can0 0CF00300#FF0000FF06FFFFFF
(1547753765.356524) can0 0CEFFF00#6406007DFFFFFFFF
(1547753765.357095) can0 18EEFF00#56F5290400000220
(1547753765.357647) can0 18EFFF00#64100B0B0000007D
(1547753765.358225) can0 1CEBFF00#04204E0001FAC9FA
(1547753765.359417) can0 0DEF0647#0104FFFFFFFFFFF1
(1547753765.360049) can0 0DEF0603#0101FFFFFFFFFFF5
(1547753765.360598) can0 04EF0006#641510F00000930E
(1547753765.361116) can0 0CFFFE06#5C271D271DFFFFFF
(1547753765.361707) can0 18FFFB06#00057DF8FFFFFFFF
(1547753765.362115) can0 18EAFF47#00EE00
(1547753765.365967) can0 0CF00400#F0FF7D0000FFFFFF
(1547753765.375949) can0 0CF00300#FF0000FF06FFFFFF
(1547753765.376524) can0 0CEFFF00#6406007DFFFFFFFF
(1547753765.377122) can0 18FEEE00#4E41FFFFFFFFFFFF
(1547753765.379525) can0 0DEF0603#0101FFFFFFFFFFF5
(1547753765.380047) can0 04EF0006#641510F00000930E
(1547753765.386001) can0 0CF00400#F0FF7D0000FFFFFF
(1547753765.395950) can0 0CF00300#FF0000FF06FFFFFF
(1547753765.396525) can0 0CEFFF00#6406007DFFFFFFFF
(1547753765.399475) can0 0DEF0603#0101FFFFFFFFFFF5
(1547753765.400050) can0 04EF0006#641510F00000930E
(1547753765.400626) can0 0CFE4947#FFFFFFFFFFFFFFFF
(1547753765.401224) can0 0CFE4347#FFFFFFFFFFFFFFFF
(1547753765.401776) can0 0CFE4447#0000FFFF3FFFFFFF
(1547753765.405932) can0 0CF00400#F0FF7D0000FFFFFF
(1547753765.406576) can0 18FEDF00#7D261DFFFFFFFFFF
(1547753765.409386) can0 18EEFF00#56F5290400000220
(1547753765.409978) can0 1CEBFF00#05C05D0000FFFFFF
(1547753765.415946) can0 0CF00300#FF0000FF06FFFFFF
(1547753765.416550) can0 0CEFFF00#6406007DFFFFFFFF
(1547753765.417150) can0 18FEF200#0000FFFFFFFFFFFF
(1547753765.419529) can0 0DEF0603#0101FFFFFFFFFFF5
(1547753765.420047) can0 04EF0006#641510F00000930E
(1547753765.426003) can0 0CF00400#F0FF7D0000FFFFFF
(1547753765.435927) can0 0CF00300#FF0000FF06FFFFFF
(1547753765.436526) can0 0CEFFF00#6406007DFFFFFFFF
(1547753765.437075) can0 18EF0600#640E2100FFFFFFFF
(1547753765.439530) can0 0DEF0603#0101FFFFFFFFFFF5
(1547753765.440050) can0 04EF0006#641510F00000930E
(1547753765.440627) can0 18FEF147#FF0000FFFFFFFFFF
(1547753765.441230) can0 18F00503#FFFFFFFFFFFFFFFF
(1547753765.446003) can0 0CF00400#F0FF7D0000FFFFFF
(1547753765.455677) can0 18EEFF17#0C6E240400130220
(1547753765.456251) can0 0CEFFF00#6406007DFFFFFFFF
(1547753765.456828) can0 0CF00300#FF0000FF06FFFFFF
(1547753765.457399) can0 18EFFF00#64100B0B0000007D
(1547753765.457948) can0 18FEF700#FFFFFFFFFFFFF700
(1547753765.459398) can0 0DEF0647#0104FFFFFFFFFFF1
(1547753765.460028) can0 0DEF0603#0101FFFFFFFFFFF5
(1547753765.460577) can0 04EF0006#641510F00000930E
(1547753765.465972) can0 0CF00400#F0FF7D0000FFFFFF
(1547753765.475922) can0 0CF00300#FF0000FF06FFFFFF
(1547753765.476528) can0 0CEFFF00#6406007DFFFFFFFF
(1547753765.479531) can0 0DEF0603#0101FFFFFFFFFFF5
(1547753765.480051) can0 04EF0006#641510F00000930E
(1547753765.480629) can0 0CFE4947#FFFFFFFFFFFFFFFF
(1547753765.481230) can0 0CFE4347#FFFFFFFFFFFFFFFF
(1547753765.481830) can0 0CFE4447#0000FFFF3FFFFFFF
(1547753765.482404) can0 0CFFFE06#5C271D271DFFFFFF
(1547753765.485974) can0 0CF00400#F0FF7D0000FFFFFF
(1547753765.495922) can0 0CF00300#FF0000FF06FFFFFF
(1547753765.496530) can0 0CEFFF00#6406007DFFFFFFFF
(1547753765.499499) can0 0DEF0603#0101FFFFFFFFFFF5
(1547753765.500058) can0 04EF0006#641510F00000930E
(1547753765.505983) can0 0CF00400#F0FF7D0000FFFFFF
(1547753765.508104) can0 18EEFF47#4D74300400340220
(1547753765.508681) can0 18EEFF06#4D743004000E0020
(1547753765.509251) can0 18EEFF03#4D74300400030220
(1547753765.515980) can0 0CF00300#FF0000FF06FFFFFF
(1547753765.516557) can0 0CEFFF00#6406007DFFFFFFFF
(1547753765.517153) can0 18FEF200#0000FFFFFFFFFFFF
(1547753765.519534) can0 0DEF0603#0101FFFFFFFFFFF5
(1547753765.520053) can0 04EF0006#641510F00000930E
(1547753765.520630) can0 18FEF147#FF0000FFFFFFFFFF
(1547753765.521197) can0 18F00503#FFFFFFFFFFFFFFFF
(1547753765.525975) can0 0CF00400#F0FF7D0000FFFFFF
(1547753765.535980) can0 0CF00300#FF0000FF06FFFFFF
(1547753765.536558) can0 0CEFFF00#6406007DFFFFFFFF
(1547753765.537127) can0 18EF0600#640E2B00FFFFFFFF
(1547753765.539534) can0 0DEF0603#0101FFFFFFFFFFF5
(1547753765.540053) can0 04EF0006#641510F00000930E
(1547753765.546010) can0 0CF00400#F0FF7D0000FFFFFF
(1547753765.555981) can0 0CF00300#FF0000FF06FFFFFF
(1547753765.556558) can0 0CEFFF00#6406007DFFFFFFFF
(1547753765.557129) can0 18EFFF00#64100B0B0000007D
(1547753765.557680) can0 18FED500#FFFFFCFFFFFFFFFF
(1547753765.559431) can0 0DEF0647#0104FFFFFFFFFFF1
(1547753765.560031) can0 0DEF0603#0101FFFFFFFFFFF5
(1547753765.560583) can0 04EF0006#641510F00000930E
(1547753765.561155) can0 0CFFFE06#5C271D271DFFFFFF
(1547753765.566000) can0 0CF00400#F0FF7D0000FFFFFF
(1547753765.575927) can0 0CF00300#FF0000FF06FFFFFF
(1547753765.576561) can0 0CEFFF00#6406007DFFFFFFFF
(1547753765.579538) can0 0DEF0603#0101FFFFFFFFFFF5
(1547753765.580079) can0 04EF0006#641510F00000930E
(1547753765.586009) can0 0CF00400#F0FF7D0000FFFFFF
(1547753765.595961) can0 0CF00300#FF0000FF06FFFFFF
(1547753765.596532) can0 0CEFFF00#6406007DFFFFFFFF
(1547753765.597108) can0 18FDB300#FFFF2A28FFFFFFFF
(1547753765.599537) can0 0DEF0603#0101FFFFFFFFFFF5
(1547753765.600056) can0 04EF0006#641510F00000930E
(1547753765.600636) can0 0CFE4947#FFFFFFFFFFFFFFFF
(1547753765.601233) can0 0CFE4347#FFFFFFFFFFFFFFFF
(1547753765.601833) can0 0CFE4447#0000FFFF3FFFFFFF
(1547753765.606000) can0 0CF00400#F0FF7D0000FFFFFF
(1547753765.615953) can0 0CF00300#FF0000FF06FFFFFF
(1547753765.616560) can0 0CEFFF00#6406007DFFFFFFFF
(1547753765.617161) can0 18FEF200#0000FFFFFFFFFFFF
(1547753765.619503) can0 0DEF0603#0101FFFFFFFFFFF5
(1547753765.620061) can0 04EF0006#641510F00000930E
(1547753765.626012) can0 0CF00400#F0FF7D0000FFFFFF
(1547753765.635985) can0 0CF00300#FF0000FF06FFFFFF
(1547753765.636561) can0 0CEFFF00#6406007DFFFFFFFF
(1547753765.637133) can0 18EF0600#640E3500FFFFFFFF
(1547753765.639537) can0 0DEF0603#0101FFFFFFFFFFF5
(1547753765.640057) can0 04EF0006#641510F00000930E
(1547753765.640635) can0 18FEF147#FF0000FFFFFFFFFF
(1547753765.641235) can0 18F00503#FFFFFFFFFFFFFFFF
(1547753765.646011) can0 0CF00400#F0FF7D0000FFFFFF
(1547753765.655915) can0 0CF00300#FF0000FF06FFFFFF
(1547753765.656484) can0 0CEFFF00#6406007DFFFFFFFF
(1547753765.657081) can0 18EFFF00#64100B0B0000007D
(1547753765.657659) can0 18FEDF00#7D261DFFFFFFFFFF
(1547753765.659399) can0 0DEF0647#0104FFFFFFFFFFF1
(1547753765.660010) can0 0DEF0603#0101FFFFFFFFFFF5
(1547753765.660585) can0 04EF0006#641510F00000930E
(1547753765.665985) can0 0CF00400#F0FF7D0000FFFFFF
(1547753765.675910) can0 0CF00300#FF0000FF06FFFFFF
(1547753765.676535) can0 0CEFFF00#6406007DFFFFFFFF
(1547753765.677107) can0 18FEEF00#FFFFFF00FFFFFFFA
(1547753765.679786) can0 0DEF0603#0101FFFFFFFFFFF5
(1547753765.680333) can0 04EF0006#641510F00000930E
(1547753765.686056) can0 0CF00400#F0FF7D0000FFFFFF
(1547753765.695938) can0 0CF00300#FF0000FF06FFFFFF
(1547753765.696510) can0 0CEFFF00#6406007DFFFFFFFF
(1547753765.705966) can0 0CF00400#F0FF7D0000FFFFFF
(1547753765.715965) can0 0CF00300#FF0000FF06FFFFFF
(1547753765.716540) can0 0CEFFF00#6406007DFFFFFFFF
(1547753765.717137) can0 18FEF200#0000FFFFFFFFFFFF
(1547753765.725991) can0 0CF00400#F0FF7D0000FFFFFF
(1547753765.735966) can0 0CF00300#FF0000FF06FFFFFF
(1547753765.736517) can0 0CEFFF00#6406007DFFFFFFFF
(1547753765.736937) can0 18EAFF17#00EE00
(1547753765.737492) can0 18EF0600#640E3F00FFFFFFFF
(1547753765.737889) can0 18EA4717#09FF00
(1547753765.738260) can0 18EA0617#09FF00
(1547753765.738664) can0 18EA0317#09FF00
(1547753765.746017) can0 0CF00400#F0FF7D0000FFFFFF
(1547753765.755967) can0 0CF00300#FF0000FF06FFFFFF
(1547753765.756541) can0 0CEFFF00#6406007DFFFFFFFF
(1547753765.757113) can0 18EFFF00#64100B0B0000007D
(1547753765.757665) can0 18FEF600#FF0042FF00FFFFFF
(1547753765.758242) can0 18EEFF00#56F5290400000220
(1547753765.758816) can0 1CFFFF17#22FFFF3CFFFFFFFF
(1547753765.765992) can0 0CF00400#F0FF7D0000FFFFFF
(1547753765.773317) can0 18EEFF47#4D74300400340220
(1547753765.773891) can0 18EEFF06#4D743004000E0020
(1547753765.774501) can0 18EEFF03#4D74300400030220
(1547753765.775991) can0 0CF00300#FF0000FF07FFFFFF
(1547753765.776566) can0 0CEFFF00#6406007DFFFFFFFF
(1547753765.785970) can0 0CF00400#F0FF7D0000FFFFFF
(1547753765.795943) can0 0CF00300#FF0000FF06FFFFFF
(1547753765.796518) can0 0CEFFF00#6406007DFFFFFFFF
(1547753765.805994) can0 0CF00400#F0FF7D0000FFFFFF
(1547753765.806593) can0 18FFFA00#022C0000180C0000
(1547753765.815996) can0 0CF00300#FF0000FF06FFFFFF
(1547753765.816569) can0 0CEFFF00#6406007DFFFFFFFF
(1547753765.817141) can0 18FEF200#0000FFFFFFFFFFFF
(1547753765.825995) can0 0CF00400#F0FF7D0000FFFFFF
(1547753765.835944) can0 0CF00300#FF0000FF06FFFFFF
(1547753765.836519) can0 0CEFFF00#6406007DFFFFFFFF
(1547753765.837094) can0 18EF0600#640E4900FFFFFFFF
(1547753765.837647) can0 18FEF500#C8FFFFFFFF3CFFFF
(1547753765.845995) can0 0CF00400#F0FF7D0000FFFFFF
(1547753765.855946) can0 0CF00300#FF0000FF06FFFFFF
(1547753765.856545) can0 0CEFFF00#6406007DFFFFFFFF
(1547753765.857093) can0 18EFFF00#64100B0B0000007D
(1547753765.866022) can0 0CF00400#F0FF7D0000FFFFFF
(1547753765.875972) can0 0CF00300#FF0000FF06FFFFFF
(1547753765.876546) can0 0CEFFF00#6406007DFFFFFFFF
(1547753765.877094) can0 18FE6900#6425EA26FFFF60FE
(1547753765.885974) can0 0CF00400#F0FF7D0000FFFFFF
(1547753765.895948) can0 0CF00300#FF0000FF06FFFFFF
(1547753765.896522) can0 0CEFFF00#6406007DFFFFFFFF
(1547753765.905999) can0 0CF00400#F0FF7D0000FFFFFF
(1547753765.906571) can0 18FEDF00#7D001DFFFFFFFFFF
(1547753765.915998) can0 0CF00300#FF0000FF06FFFFFF
(1547753765.916573) can0 0CEFFF00#6406007DFFFFFFFF
(1547753765.917146) can0 18FEF200#0000FFFFFFFFFFFF
(1547753765.926024) can0 0CF00400#F0FF7D0000FFFFFF
(1547753765.935974) can0 0CF00300#FF0000FF06FFFFFF
(1547753765.936550) can0 0CEFFF00#6406007DFFFFFFFF
(1547753765.936921) can0 18EA0017#09FF00
(1547753765.937523) can0 18EF0600#640E5306FFFFFFFF
(1547753765.946001) can0 0CF00400#F0FF7D0000FFFFFF
(1547753765.955966) can0 0CF00300#FF0000FF06FFFFFF
(1547753765.956541) can0 0CEFFF00#6406007DFFFFFFFF
(1547753765.957113) can0 18EFFF00#64100B0B0000007D
(1547753765.958092) can0 18FF0900#454355FFFFFFFFFF
(1547753765.966019) can0 0CF00400#F0FF7D0000FFFFFF
(1547753765.975944) can0 0CF00300#FF0000FF06FFFFFF
(1547753765.976542) can0 0CEFFF00#6406007DFFFFFFFF
(1547753765.986017) can0 0CF00400#F0FF7D0000FFFFFF
(1547753765.995970) can0 0CF00300#FF0000FF06FFFFFF
(1547753765.996543) can0 0CEFFF00#6406007DFFFFFFFF
(1547753765.997115) can0 18FD7C00#F880F0F000CF03FC
(1547753766.006021) can0 0CF00400#F0FF7D0000FFFFFF
(1547753766.015971) can0 0CF00300#FF0000FF06FFFFFF
(1547753766.016568) can0 0CEFFF00#6406007DFFFFFFFF
(1547753766.017142) can0 18FEF200#0000FFFFFFFFFFFF
(1547753766.026021) can0 0CF00400#F0FF7D0000FFFFFF
(1547753766.034574) can0 0DEF0603#0101FFFFFFFFFFF5
(1547753766.035994) can0 0CF00300#FF0000FF06FFFFFF
(1547753766.036570) can0 0CEFFF00#6406007DFFFFFFFF
(1547753766.037142) can0 18EF0600#640E5D06FFFFFFFF
(1547753766.046023) can0 0CF00400#F0FF7D0000FFFFFF
(1547753766.054523) can0 0DEF0647#0104FFFFFFFFFFF1
(1547753766.055093) can0 0DEF0603#0101FFFFFFFFFFF5
(1547753766.055466) can0 18EAFF47#00EE00
(1547753766.056045) can0 0CF00300#FF0000FF06FFFFFF
(1547753766.056622) can0 0CEFFF00#6406007DFFFFFFFF
(1547753766.057218) can0 0CFFFE06#5CFFFFFFFFFFFFFF
(1547753766.057795) can0 18EFFF00#64100B0B0000007D
(1547753766.058343) can0 18EEFF00#56F5290400000220
(1547753766.066024) can0 0CF00400#F0FF7D0000FFFFFF
(1547753766.074600) can0 0DEF0603#0101FFFFFFFFFFF5
(1547753766.075996) can0 0CF00300#FF0000FF06FFFFFF
(1547753766.076571) can0 0CEFFF00#6406007DFFFFFFFF
(1547753766.086001) can0 0CF00400#F0FF7D0000FFFFFF
(1547753766.094573) can0 0DEF0603#0101FFFFFFFFFFF5
(1547753766.095195) can0 0CFE4947#FFFFFFFFFFFFFFFF
(1547753766.095772) can0 0CFE4347#FFFFFFFFFFFFFFFF
(1547753766.096346) can0 0CEFFF00#6406007DFFFFFFFF
(1547753766.096922) can0 0CF00300#FF0000FF06FFFFFF
(1547753766.097522) can0 0CFE4447#0000FFFF3FFFFFFF
(1547753766.098081) can0 18FDB300#FFFF3628FFFFFFFF
(1547753766.098655) can0 1CEFFF00#64070000FFFFFFFF
(1547753766.106058) can0 0CF00400#F0FF7D5E01FFFFFF
(1547753766.114559) can0 0DEF0603#0101FFFFFFFFFFF5
(1547753766.116072) can0 0CF00300#FF0000FF06FFFFFF
(1547753766.116649) can0 0CEFFF00#6406FE7CFFFFFFFF
(1547753766.117246) can0 18FEF200#0000FFFFFFFFFFFF
(1547753766.126078) can0 0CF00400#F0FF7D5C02FFFFFF
(1547753766.134603) can0 0DEF0603#0101FFFFFFFFFFF5
(1547753766.135172) can0 18FEF147#FF0000FFFFFFFFFF
(1547753766.135774) can0 18F00503#FFFFFFFFFFFFFFFF
(1547753766.136347) can0 0CEFFF00#6406FD7CFFFFFFFF
(1547753766.136924) can0 0CF00300#FF0000FF06FFFFFF
(1547753766.137506) can0 18EF0600#640E6706FFFFFFFF
(1547753766.140734) can0 18EEFF17#0C6E240400130220
(1547753766.146103) can0 0CF00400#F0FF7DC602FFFFFF
(1547753766.154528) can0 0DEF0647#0104FFFFFFFFFFF1
(1547753766.155122) can0 0DEF0603#0101FFFFFFFFFFF5
(1547753766.156049) can0 0CF00300#FF0000FF06FFFFFF
(1547753766.156650) can0 0CEFFF00#6406FC7CFFFFFFFF
(1547753766.157222) can0 18EFFF00#641000000000007D
(1547753766.157835) can0 18FEDF00#7EFC1CFFFFFFFFFF
(1547753766.166124) can0 0CF00400#F0FF7D2803FFFFFF
(1547753766.174643) can0 0DEF0603#0101FFFFFFFFFFF5
(1547753766.175235) can0 0CFE4947#FFFFFFFFFFFFFFFF
(1547753766.175845) can0 0CFE4347#FFFFFFFFFFFFFFFF
(1547753766.176416) can0 0CEFFF00#6406FB7CFFFFFFFF
(1547753766.176993) can0 0CF00300#FF0000FF06FFFFFF
(1547753766.177593) can0 0CFE4447#0000FFFF3FFFFFFF
(1547753766.178171) can0 18FEEF00#FFFFFF00FFFFFFFA
(1547753766.178695) can0 0CFFFE06#5CFFFFFFFFFFFFFF
(1547753766.186072) can0 0CF00400#F0FF7D6403FFFFFF
(1547753766.194598) can0 0DEF0603#0101FFFFFFFFFFF5
(1547753766.196070) can0 0CF00300#FF0000FF06FFFFFF
(1547753766.196670) can0 0CEFFF00#6406FB7CFFFFFFFF
(1547753766.206066) can0 0CF00400#F0FF7D8403FFFFFF
(1547753766.214651) can0 0DEF0603#0101FFFFFFFFFFF5
(1547753766.215219) can0 18FEF147#FF0000FFFFFFFFFF
(1547753766.215820) can0 18F00503#FFFFFFFFFFFFFFFF
(1547753766.216418) can0 0CEFFF00#6406FB7CFFFFFFFF
(1547753766.216997) can0 0CF00300#FF0000FF06FFFFFF
(1547753766.217570) can0 18FEF200#0000FFFFFFFFFFFF
(1547753766.226126) can0 0CF00400#F0FF7D7403FFFFFF
(1547753766.234651) can0 0DEF0603#0101FFFFFFFFFFF5
(1547753766.236097) can0 0CF00300#FF0000FF06FFFFFF
(1547753766.236673) can0 0CEFFF00#6406FB7CFFFFFFFF
(1547753766.237246) can0 18EF0600#640E7106FFFFFFFF
(1547753766.246128) can0 0CF00400#F0FF7D3E03FFFFFF
(1547753766.254575) can0 0DEF0647#0104FFFFFFFFFFF1
(1547753766.255146) can0 0DEF0603#0101FFFFFFFFFFF5
(1547753766.255772) can0 0CFFFE06#5CFFFFFFFFFFFFFF
(1547753766.256347) can0 0CF00300#FF0000FF06FFFFFF
(1547753766.256921) can0 0CEFFF00#6406FB7CFFFFFFFF
(1547753766.257464) can0 18EFFF00#641000000000007D
(1547753766.258045) can0 18FEF600#FF0042FF00FFFFFF
(1547753766.266126) can0 0CF00400#F0FF7DEA02FFFFFF
(1547753766.275042) can0 0DEF0603#0101FFFFFFFFFFF5
(1547753766.275984) can0 18EFFA00#6401FF0000FFFFFF
(1547753766.276535) can0 04EF0006#641510F00000930E
(1547753766.277154) can0 0C000006#30FFFFFFF8FFFFFF
(1547753766.277717) can0 0CEFFF00#6406FC7CFFFFFFFF
(1547753766.278303) can0 0CF00300#FF0000FF06FFFFFF
(1547753766.286107) can0 0CF00400#F0FF7D8402FFFFFF
(1547753766.295107) can0 0DEF0603#0101FFFFFFFFFFF5
(1547753766.296080) can0 0CF00300#FF0000FF06FFFFFF
(1547753766.296654) can0 04EF0006#641510F00000930E
(1547753766.297232) can0 0CEFFF00#6406FC7CFFFFFFFF
(1547753766.297761) can0 0CFE4947#FFFFFFFFFFFFFFFF
(1547753766.298386) can0 18FFFB06#00057DF8FFFFFFFF
(1547753766.298955) can0 0CFE4347#FFFFFFFFFFFFFFFF
(1547753766.299580) can0 0CFE4447#0000FFFF3FFFFFFF
(1547753766.300065) can0 0CFFFE06#5C271D271DFFFFFF
(1547753766.306110) can0 0CF00400#F0FF7D3802FFFFFF
(1547753766.315107) can0 0DEF0603#0101FFFFFFFFFFF5
(1547753766.316153) can0 0CF00300#FF0000FF06FFFFFF
(1547753766.316701) can0 04EF0006#641510F00000930E
(1547753766.317280) can0 0CEFFF00#6406FD7CFFFFFFFF
(1547753766.317853) can0 18FEF200#0000FFFFFFFFFFFF
(1547753766.326130) can0 0CF00400#F0FF7D6402FFFFFF
(1547753766.335107) can0 0DEF0603#0101FFFFFFFFFFF5
(1547753766.336078) can0 0CF00300#FF0000FF06FFFFFF
(1547753766.336629) can0 04EF0006#641510F00000930E
(1547753766.337226) can0 0CEFFF00#6406FD7CFFFFFFFF
(1547753766.337804) can0 18EF0600#640E7B00FFFFFFFF
(1547753766.338378) can0 18FECA17#00FF00000000FFFF
(1547753766.338920) can0 18FEF147#FF0000FFFFFFFFFF
(1547753766.339582) can0 18F00503#FFFFFFFFFFFFFFFF
(1547753766.346089) can0 0CF00400#F0FF7D1203FFFFFF
(1547753766.354963) can0 0DEF0647#0104FFFFFFFFFFF1
(1547753766.355589) can0 0DEF0603#0101FFFFFFFFFFF5
(1547753766.356210) can0 0CF00300#FF0000FF06FFFFFF
(1547753766.356780) can0 0CEFFF00#6406FB7CFFFFFFFF
(1547753766.357327) can0 04EF0006#641510F00000930E
(1547753766.357932) can0 18EFFF00#641000000000007D
(1547753766.366159) can0 0CF00400#F0FF7D9804FFFFFF
(1547753766.375405) can0 0DEF0603#0101FFFFFFFFFFF5
(1547753766.376105) can0 0CF00300#FF0000FF06FFFFFF
(1547753766.376657) can0 04EF0006#641510F00000930E
(1547753766.377252) can0 0CEFFF00#6406F97CFFFFFFFF
(1547753766.377786) can0 0CFE4947#FFFFFFFFFFFFFFFF
(1547753766.378372) can0 18FEEE00#4E41FFFFFFFFFFFF
(1547753766.386131) can0 0CF00400#F0FF7DD804FFFFFF
(1547753766.396072) can0 0CF00300#FF0000FF06FFFFFF
(1547753766.396672) can0 0CEFFF00#6406F87CFFFFFFFF
(1547753766.406126) can0 0CF00400#F0FF7D9205FFFFFF
(1547753766.406698) can0 18FEDF00#7F261DFFFFFFFFFF
(1547753766.416124) can0 0CF00300#FF0000FF06FFFFFF
(1547753766.416700) can0 0CEFFF00#6406F77CFFFFFFFF
(1547753766.417296) can0 18FEF200#0000FFFFFFFFFFFF
(1547753766.417850) can0 1CFFFF17#22FFFF3CFFFFFFFF
(1547753766.418273) can0 18EA0017#E5FE00
(1547753766.426126) can0 0CF00400#F0FF7D9205FFFFFF
(1547753766.436126) can0 0CF00300#FF0000FF06FFFFFF
(1547753766.436701) can0 0CEFFF00#6406F77CFFFFFFFF
(1547753766.437273) can0 18EF0600#640E8500FFFFFFFF
(1547753766.446126) can0 0CF00400#F0FF7DC805FFFFFF
(1547753766.456102) can0 0CF00300#FF0000FF06FFFFFF
(1547753766.456677) can0 0CEFFF00#6406F77CFFFFFFFF
(1547753766.457252) can0 18EFFF00#641000000000007D
(1547753766.457852) can0 18FEF700#FFFFFFFFFFFFB400
(1547753766.458424) can0 18FEE500#CC0A0000FFFFFFFF
(1547753766.466091) can0 0CF00400#F0FF7DC605FFFFFF
(1547753766.476070) can0 0CF00300#FF0000FF07FFFFFF
(1547753766.476670) can0 0CEFFF00#6406F77CFFFFFFFF
(1547753766.486123) can0 0CF00400#F0FF7DD605FFFFFF
(1547753766.496086) can0 0CF00300#FF0000FF06FFFFFF
(1547753766.496671) can0 0CEFFF00#6406F77CFFFFFFFF
(1547753766.506149) can0 0CF00400#F0FF7DB205FFFFFF
(1547753766.516101) can0 0CF00300#FF0000FF06FFFFFF
(1547753766.516672) can0 0CEFFF00#6406F77CFFFFFFFF
(1547753766.517271) can0 18FEF200#0000FFFFFFFFFFFF
(1547753766.526124) can0 0CF00400#F0FF7D3205FFFFFF
(1547753766.536102) can0 0CF00300#FF0000FF06FFFFFF
(1547753766.536652) can0 0CEFFF00#6406F87CFFFFFFFF
(1547753766.537248) can0 18EF0600#640E8F00FFFFFFFF
(1547753766.546152) can0 0CF00400#F0FF7D9604FFFFFF
(1547753766.556103) can0 0CF00300#FF0000FF06FFFFFF
(1547753766.556674) can0 0CEFFF00#6406F97CFFFFFFFF
(1547753766.557273) can0 18EFFF00#641000000000007D
(1547753766.557853) can0 18FED500#FFFFFCFFFFFFFFFF
(1547753766.566128) can0 0CF00400#F0FF7DFE03FFFFFF
(1547753766.576102) can0 0CF00300#FF0000FF06FFFFFF
(1547753766.576674) can0 0CEFFF00#6406FA7CFFFFFFFF
(1547753766.586127) can0 0CF00400#F0FF7D7604FFFFFF
(1547753766.596102) can0 0CF00300#FF0000FF06FFFFFF
(1547753766.596677) can0 0CEFFF00#6406F97CFFFFFFFF
(1547753766.597251) can0 18FDB300#FFFF3628FFFFFFFF
(1547753766.606153) can0 0CF00400#F0FF7DFE05FFFFFF
(1547753766.616130) can0 0CF00300#FF0000FF06FFFFFF
(1547753766.616701) can0 0CEFFF00#6406F77CFFFFFFFF
(1547753766.617304) can0 18FEF200#0000FFFFFFFFFFFF
(1547753766.626154) can0 0CF00400#F0FF7D1405FFFFFF
(1547753766.636104) can0 0CF00300#FF0000FF06FFFFFF
(1547753766.636677) can0 0CEFFF00#6406F87CFFFFFFFF
(1547753766.637252) can0 18EF0600#640E9906FFFFFFFF
(1547753766.646157) can0 0CF00400#F0FF7D1005FFFFFF
(1547753766.656106) can0 0CF00300#FF0000FF06FFFFFF
(1547753766.656678) can0 0CEFFF00#6406F87CFFFFFFFF
(1547753766.657279) can0 18EFFF00#641000000000007D
(1547753766.657808) can0 18FEDF00#80FE1CFFFFFFFFFF
(1547753766.666134) can0 0CF00400#F0FF7D1005FFFFFF
(1547753766.676099) can0 0CF00300#FF0000FF06FFFFFF
(1547753766.676704) can0 0CEFFF00#6406F87CFFFFFFFF
(1547753766.677279) can0 18FEEF00#FFFFFF18FFFFFFFA
(1547753766.686158) can0 0CF00400#F0FF7D8208FFFFFF
(1547753766.696109) can0 0CF00300#FF0000FF06FFFFFF
(1547753766.696680) can0 0CEFFF00#6406F27CFFFFFFFF
(1547753766.706162) can0 0CF00400#FEFF7D6407FFFFFF
(1547753766.716166) can0 0CF00300#FF0064FF06FFFFFF
(1547753766.716738) can0 0CEFFF00#64068C7DFFFFFFFF
(1547753766.717311) can0 18FEF200#1C00FFFFFFFFFFFF
(1547753766.726090) can0 0CF00400#FEFFB72806FFFFFF
(1547753766.736268) can0 0CF00300#FF0064FF06FFFFFF
(1547753766.736839) can0 0CEFFF00#64068C7DFFFFFFFF
(1547753766.737410) can0 18EF0600#640EA306FFFFFFFF
(1547753766.746067) can0 0CF00400#FEFFB79005FFFFFF
(1547753766.756091) can0 0CF00300#FF0064FF06FFFFFF
(1547753766.756663) can0 0CEFFF00#64068C7DFFFFFFFF
(1547753766.757238) can0 18EFFF00#641000004801007D
(1547753766.757814) can0 18FEF600#FF0042FF00FFFFFF
(1547753766.766042) can0 0CF00400#FEFFB6D404FFFFFF
(1547753766.776018) can0 0CF00300#FF0064FF06FFFFFF
(1547753766.776589) can0 0CEFFF00#64068C7DFFFFFFFF
(1547753766.786065) can0 0CF00400#FEFFB6EC04FFFFFF
(1547753766.796017) can0 0CF00300#FF0064FF06FFFFFF
(1547753766.796591) can0 0CEFFF00#64068C7DFFFFFFFF
(1547753766.806093) can0 0CF00400#FEFFB64806FFFFFF
(1547753766.806664) can0 18FFFA00#022C0000180C00A5
(1547753766.816044) can0 0CF00300#FF0064FF06FFFFFF
(1547753766.816618) can0 0CEFFF00#64068C7DFFFFFFFF
(1547753766.817215) can0 18FEF200#1900FFFFFFFFFFFF
(1547753766.826093) can0 0CF00400#FEFFB70407FFFFFF
(1547753766.836018) can0 0CF00300#FF0064FF06FFFFFF
(1547753766.836592) can0 0CEFFF00#64068C7DFFFFFFFF
(1547753766.837166) can0 18EF0600#640EAD06FFFFFFFF
(1547753766.837743) can0 18FEF500#C8FFFFFFFF3CFFFF
(1547753766.846069) can0 0CF00400#FEFFB74407FFFFFF
(1547753766.856017) can0 0CF00300#FF0064FF06FFFFFF
(1547753766.856594) can0 0CEFFF00#64068C7DFFFFFFFF
(1547753766.857166) can0 18EFFF00#641000004B01007D
(1547753766.866097) can0 0CF00400#FEFFB72E07FFFFFF
(1547753766.876048) can0 0CF00300#FF0064FF06FFFFFF
(1547753766.876621) can0 0CEFFF00#64068C7DFFFFFFFF
(1547753766.877169) can0 18FE6900#7425EE26FFFF60FE
(1547753766.886194) can0 0CF00400#FEFFB7FA06FFFFFF
(1547753766.896046) can0 0CF00300#FF0064FF06FFFFFF
(1547753766.896595) can0 0CEFFF00#64068C7DFFFFFFFF
(1547753766.906097) can0 0CF00400#FEFFB78406FFFFFF
(1547753766.906672) can0 18FEDF00#81201CFFFFFFFFFF
(1547753766.916099) can0 0CF00300#FF0064FF06FFFFFF
(1547753766.916697) can0 0CEFFF00#64068C7DFFFFFFFF
(1547753766.917269) can0 18FEF200#1A00FFFFFFFFFFFF
(1547753766.926073) can0 0CF00400#FEFFB76806FFFFFF
(1547753766.936081) can0 0CF00300#FF0064FF06FFFFFF
(1547753766.936657) can0 0CEFFF00#64068C7DFFFFFFFF
(1547753766.937232) can0 18EF0600#640EB706FFFFFFFF
(1547753766.946086) can0 0CF00400#FEFFB7D005FFFFFF
(1547753766.956175) can0 0CF00300#FF0064FF06FFFFFF
(1547753766.956747) can0 0CEFFF00#64068C7DFFFFFFFF
(1547753766.957323) can0 18EFFF00#641000004901007D
(1547753766.966126) can0 0CF00400#FEFFB6EE04FFFFFF
(1547753766.976027) can0 0CF00300#FF0064FF06FFFFFF
(1547753766.976599) can0 0CEFFF00#64068C7DFFFFFFFF
(1547753766.986103) can0 0CF00400#FEFFB6A406FFFFFF
(1547753766.996076) can0 0CF00300#FF0064FF06FFFFFF
(1547753766.996650) can0 0CEFFF00#64068C7DFFFFFFFF
(1547753766.997225) can0 18FD7C00#F880F1F000CF03FC
(1547753767.006103) can0 0CF00400#FEFFB71E0AFFFFFF
(1547753767.016077) can0 0CF00300#FF0064FF06FFFFFF
(1547753767.016653) can0 0CEFFF00#64068C7DFFFFFFFF
(1547753767.017252) can0 18FEF200#2A00FFFFFFFFFFFF
(1547753767.026096) can0 0CF00400#FEFFB9EE0BFFFFFF
(1547753767.036072) can0 0CF00300#FF0064FF06FFFFFF
(1547753767.036620) can0 0CEFFF00#64068C7DFFFFFFFF
(1547753767.037220) can0 18EF0600#640EC106FFFFFFFF
(1547753767.046099) can0 0CF00400#FEFFBA100CFFFFFF
(1547753767.056047) can0 0CF00300#FF0064FF06FFFFFF
(1547753767.056621) can0 0CEFFF00#64068C7DFFFFFFFF
(1547753767.057022) can0 18EA4717#09FF00
(1547753767.057596) can0 18EFFF00#641000005301007D
(1547753767.057971) can0 18EA0617#09FF00
(1547753767.058366) can0 18EA0317#09FF00
(1547753767.066072) can0 0CF00400#FEFFBA720BFFFFFF
(1547753767.076050) can0 0CF00300#FF0064FF06FFFFFF
(1547753767.076622) can0 0CEFFF00#64068C7DFFFFFFFF
(1547753767.086150) can0 0CF00400#FEFFBA8609FFFFFF
(1547753767.096054) can0 0CF00300#FF0064FF06FFFFFF
(1547753767.096674) can0 0CEFFF00#64068C7DFFFFFFFF
(1547753767.097246) can0 18FDB300#FFFF3428FFFFFFFF
(1547753767.097847) can0 1CEFFF00#64070000FFFFFFFF
(1547753767.098421) can0 1CFFFF17#22FFFF3CFFFFFFFF
(1547753767.106125) can0 0CF00400#FEFFB9EE0AFFFFFF
(1547753767.116072) can0 0CF00300#FF0064FF06FFFFFF
(1547753767.116648) can0 0CEFFF00#64068C7DFFFFFFFF
(1547753767.117247) can0 18FEF200#2F00FFFFFFFFFFFF
(1547753767.126093) can0 0CF00400#FEFFBAA00EFFFFFF
(1547753767.136099) can0 0CF00300#FF0064FF06FFFFFF
(1547753767.136673) can0 0CEFFF00#64068C7DFFFFFFFF
(1547753767.137271) can0 18EF0600#640ECB06FFFFFFFF
(1547753767.146153) can0 0CF00400#FEFFBC240FFFFFFF
(1547753767.156051) can0 0CF00300#FF0064FF06FFFFFF
(1547753767.156600) can0 0CEFFF00#64068C7DFFFFFFFF
(1547753767.157196) can0 18EFFF00#641000009A01007D
(1547753767.157775) can0 18FEDF00#84201CFFFFFFFFFF
(1547753767.166127) can0 0CF00400#FEFFBC620EFFFFFF
(1547753767.176201) can0 0CF00300#FF0064FF06FFFFFF
(1547753767.176776) can0 0CEFFF00#64068C7DFFFFFFFF
(1547753767.177298) can0 18FEEF00#FFFFFF49FFFFFFFA
(1547753767.186126) can0 0CF00400#FEFFBCBC0CFFFFFF
(1547753767.196100) can0 0CF00300#FF0064FF06FFFFFF
(1547753767.196676) can0 0CEFFF00#64068C7DFFFFFFFF
(1547753767.206153) can0 0CF00400#FEFFBB180FFFFFFF
(1547753767.216127) can0 0CF00300#FF0064FF06FFFFFF
(1547753767.216703) can0 0CEFFF00#64068C7DFFFFFFFF
(1547753767.217276) can0 18FEF200#4300FFFFFFFFFFFF
(1547753767.226058) can0 0CF00400#FEFFBC0810FFFFFF
(1547753767.236203) can0 0CF00300#FF0064FF06FFFFFF
(1547753767.236803) can0 0CEFFF00#64068C7DFFFFFFFF
(1547753767.237377) can0 18EF0600#640ED506FFFFFFFF
(1547753767.246113) can0 0CF00400#FEFFBD0210FFFFFF
(1547753767.256131) can0 0CF00300#FF0064FF06FFFFFF
(1547753767.256704) can0 0CEFFF00#64068C7DFFFFFFFF
(1547753767.257277) can0 18EFFF00#64100000AF01007D
(1547753767.257829) can0 18FEF600#FF0042FF00FFFFFF
(1547753767.266159) can0 0CF00400#FEFFBDD610FFFFFF
(1547753767.276055) can0 18EFFA00#6401FF0000FFFFFF
(1547753767.276605) can0 0CEFFF00#64068C7DFFFFFFFF
(1547753767.277203) can0 0CF00300#FF0064FF06FFFFFF
(1547753767.286133) can0 0CF00400#FEFFBDAA11FFFFFF
(1547753767.296085) can0 0CF00300#FF0064FF06FFFFFF
(1547753767.296657) can0 0CEFFF00#64068C7DFFFFFFFF
(1547753767.306158) can0 0CF00400#FEFFBE8412FFFFFF
(1547753767.316200) can0 0CF00300#FF0064FF06FFFFFF
(1547753767.316766) can0 0CEFFF00#64068C7DFFFFFFFF
(1547753767.317369) can0 18FEF200#5500FFFFFFFFFFFF
(1547753767.326100) can0 0CF00400#FEFFBE6013FFFFFF
(1547753767.336041) can0 0CF00300#FF0064FF06FFFFFF
(1547753767.336616) can0 0CEFFF00#64068C7DFFFFFFFF
(1547753767.337203) can0 18EF0600#640EDF06FFFFFFFF
(1547753767.346050) can0 0CF00400#FEFFBF6814FFFFFF
(1547753767.356001) can0 0CF00300#FF0064FF06FFFFFF
(1547753767.356568) can0 0CEFFF00#64068C7DFFFFFFFF
(1547753767.357140) can0 18EFFF00#641000002202007D
(1547753767.366175) can0 0CF00400#FEFFBF4615FFFFFF
(1547753767.376109) can0 0CF00300#FF0064FF06FFFFFF
(1547753767.376708) can0 0CEFFF00#64068C7DFFFFFFFF
(1547753767.377280) can0 18FEEE00#4E41FFFFFFFFFFFF
(1547753767.386103) can0 0CF00400#FEFFBF6216FFFFFF
(1547753767.396051) can0 0CF00300#FF0064FF06FFFFFF
(1547753767.396632) can0 0CEFFF00#64068C7DFFFFFFFF
(1547753767.406089) can0 0CF00400#FEFFC03417FFFFFF
(1547753767.406633) can0 18FEDF00#89201CFFFFFFFFFF
(1547753767.416145) can0 0CF00300#FF0064FF06FFFFFF
(1547753767.416732) can0 0CEFFF00#64068F7DFFFFFFFF
(1547753767.417306) can0 18FEF200#6C00FFFFFFFFFFFF
(1547753767.426242) can0 0CF00400#FEFFC10818FFFFFF
(1547753767.436011) can0 0CF00300#FF0064FF06FFFFFF
(1547753767.436585) can0 0CEFFF00#6406917DFFFFFFFF
(1547753767.437158) can0 18EF0600#640EE906FFFFFFFF
(1547753767.446111) can0 0CF00400#FEFFC20019FFFFFF
(1547753767.456071) can0 0CF00300#FF0064FF06FFFFFF
(1547753767.456636) can0 0CEFFF00#6406947DFFFFFFFF
(1547753767.457208) can0 18EFFF00#641000009902007D
(1547753767.457784) can0 18FEF700#FFFFFFFFFFFFD400
(1547753767.466169) can0 0CF00400#FEFFC3E019FFFFFF
(1547753767.476141) can0 0CF00300#FF0064FF06FFFFFF
(1547753767.476711) can0 0CEFFF00#6406977DFFFFFFFF
(1547753767.486138) can0 0CF00400#FEFFC5D01AFFFFFF
(1547753767.496041) can0 0CF00300#FF0064FF06FFFFFF
(1547753767.496638) can0 0CEFFF00#64069A7DFFFFFFFF
(1547753767.506168) can0 0CF00400#F8FFC6B01BFFFFFF
(1547753767.516419) can0 0CF00300#FF0064FF06FFFFFF
(1547753767.516992) can0 0CEFFF00#64069E7DFFFFFFFF
(1547753767.517563) can0 18FEF200#2E00FFFFFFFFFFFF
(1547753767.526269) can0 0CF00400#F8FFC8B81CFFFFFF
(1547753767.536220) can0 0CF00300#FF0064FF06FFFFFF
(1547753767.536790) can0 0CEFFF00#6406A17DFFFFFFFF
(1547753767.537366) can0 18EF0600#640EF306FFFFFFFF
(1547753767.546244) can0 0CF00400#F8FFC9121DFFFFFF
(1547753767.556244) can0 0CF00300#FF0064FF06FFFFFF
(1547753767.556817) can0 0CEFFF00#6406A27DFFFFFFFF
(1547753767.557392) can0 18EFFF00#64100101ED02007D
(1547753767.557995) can0 18FED500#FFFFFDFFFFFFFFFF
(1547753767.566270) can0 0CF00400#F8FFCA381DFFFFFF
(1547753767.576194) can0 0CF00300#FF0064FF06FFFFFF
(1547753767.576769) can0 0CEFFF00#6406A27DFFFFFFFF
(1547753767.586247) can0 0CF00400#F8FFCA921DFFFFFF
(1547753767.596247) can0 0CF00300#FF0062FF06FFFFFF
(1547753767.596818) can0 0CEFFF00#6406A27DFFFFFFFF
(1547753767.597392) can0 18FDB300#FFFF3628FFFFFFFF
(1547753767.606297) can0 0CF00400#F0FFCA1E1EFFFFFF
(1547753767.609297) can0 18EEFF47#4D74300400340220
(1547753767.609824) can0 18EEFF06#4D743004000E0020
(1547753767.610442) can0 18EEFF03#4D74300400030220
(1547753767.616248) can0 0CF00300#FF0046FF06FFFFFF
(1547753767.616819) can0 0CEFFF00#6406857DFFFFFFFF
(1547753767.617394) can0 18FEF200#4700FFFFFFFFFFFF
(1547753767.626271) can0 0CF00400#F0FFBFB41EFFFFFF
(1547753767.636246) can0 0CF00300#FF0024FF06FFFFFF
(1547753767.636764) can0 0CEFFF00#6406467DFFFFFFFF
(1547753767.637393) can0 18EF0600#640EFD06FFFFFFFF
(1547753767.646273) can0 0CF00400#F0FFA75A1FFFFFFF
(1547753767.656153) can0 0CF00300#FF0004FF06FFFFFF
(1547753767.656772) can0 0CEFFF00#6406FA7CFFFFFFFF
(1547753767.657344) can0 18EFFF00#641001010803057D
(1547753767.657923) can0 18FEDF00#8B201CFFFFFFFFFF
(1547753767.666223) can0 0CF00400#F0FF8AAC1FFFFFFF
(1547753767.676223) can0 0CF00300#FF0000FF06FFFFFF
(1547753767.676797) can0 0CEFFF00#6406D97CFFFFFFFF
(1547753767.677371) can0 18FEEF00#FFFFFF63FFFFFFFA
(1547753767.686247) can0 0CF00400#F1FF7DB41FFFFFFF
(1547753767.696201) can0 0CF00300#FF0000FF06FFFFFF
(1547753767.696773) can0 0CEFFF00#6406D97CFFFFFFFF
(1547753767.706247) can0 0CF00400#F1FF7D781FFFFFFF
(1547753767.716202) can0 0CF00300#FF0000FF06FFFFFF
(1547753767.716775) can0 0CEFFF00#6406D97CFFFFFFFF
(1547753767.717347) can0 18FEF200#0000FFFFFFFFFFFF
(1547753767.726226) can0 0CF00400#F1FF7D0E1FFFFFFF
(1547753767.736176) can0 0CF00300#FF0000FF06FFFFFF
(1547753767.736749) can0 0CEFFF00#6406DA7CFFFFFFFF
(1547753767.737322) can0 18EF0600#640E0706FFFFFFFF
(1547753767.746253) can0 0CF00400#F1FF7D9E1EFFFFFF
(1547753767.756304) can0 0CF00300#FF000DFF06FFFFFF
(1547753767.756876) can0 0CEFFF00#6406E57CFFFFFFFF
(1547753767.757449) can0 18EFFF00#64100101F402067D
(1547753767.758028) can0 18FEF600#FF0040FF00FFFFFF
(1547753767.758626) can0 1CFFFF17#22FFFF3CFFFFFFFF
(1547753767.766220) can0 0CF00400#F1FF81341EFFFFFF
(1547753767.776254) can0 0CF00300#FF0014FF06FFFFFF
(1547753767.776827) can0 0CEFFF00#6406FA7CFFFFFFFF
(1547753767.786255) can0 0CF00400#F1FF89D01DFFFFFF
(1547753767.796254) can0 0CF00300#FF001BFF06FFFFFF
(1547753767.796826) can0 0CEFFF00#6406037DFFFFFFFF
(1547753767.806307) can0 0CF00400#F1FF8D6E1DFFFFFF
(1547753767.806902) can0 18FFFA00#022C0000180C0081
(1547753767.816204) can0 0CF00300#FF001EFF06FFFFFF
(1547753767.816778) can0 0CEFFF00#6406147DFFFFFFFF
(1547753767.817352) can0 18FEF200#1500FFFFFFFFFFFF
(1547753767.826255) can0 0CF00400#F1FF93281DFFFFFF
(1547753767.836257) can0 0CF00300#FF004DFF06FFFFFF
(1547753767.836830) can0 0CEFFF00#6406187DFFFFFFFF
(1547753767.837403) can0 18EF0600#640E1106FFFFFFFF
(1547753767.837983) can0 18FEF500#C8FFFFFFFF3CFFFF
(1547753767.846533) can0 0CF00400#F0FF94E81CFFFFFF
(1547753767.856256) can0 0CF00300#FF0053FF06FFFFFF
(1547753767.856830) can0 0CEFFF00#64067B7DFFFFFFFF
(1547753767.857402) can0 18EFFF00#64100101E602037D
(1547753767.866257) can0 0CF00400#F0FFBBD21CFFFFFF
(1547753767.870584) can0 0DEF0603#0101FFFFFFFFFFF5
(1547753767.876257) can0 0CF00300#FF004CFF06FFFFFF
(1547753767.876830) can0 0CEFFF00#64067C7DFFFFFFFF
(1547753767.877379) can0 18FE6900#3A25EE26FFFF60FE
(1547753767.886307) can0 0CF00400#F0FFBB2C1DFFFFFF
(1547753767.890484) can0 0DEF0647#0104FFFFFFFFFFF1
(1547753767.891081) can0 0DEF0603#0101FFFFFFFFFFF5
(1547753767.891456) can0 18EAFF47#00EE00
(1547753767.892058) can0 0CFFFE06#5CFFFFFFFFFFFFFF
(1547753767.895834) can0 18EEFF17#0C6E240400130220
(1547753767.896404) can0 0CF00300#FF003CFF06FFFFFF
(1547753767.896986) can0 0CEFFF00#6406637DFFFFFFFF
(1547753767.906259) can0 0CF00400#F0FFB18E1DFFFFFF
(1547753767.906831) can0 18FEDF00#8B201CFFFFFFFFFF
(1547753767.910586) can0 0DEF0603#0101FFFFFFFFFFF5
(1547753767.911358) can0 18EEFF00#56F5290400000220
(1547753767.916286) can0 0CF00300#FF002EFF06FFFFFF
(1547753767.916832) can0 0CEFFF00#6406447DFFFFFFFF
(1547753767.917433) can0 18FEF200#2F00FFFFFFFFFFFF
(1547753767.926436) can0 0CF00400#F0FFA5DC1DFFFFFF
(1547753767.930586) can0 0DEF0603#0101FFFFFFFFFFF5
(1547753767.931183) can0 0CFE4947#FFFFFFFFFFFFFFFF
(1547753767.931782) can0 0CFE4347#FFFFFFFFFFFFFFFF
(1547753767.932381) can0 0CFE4447#0000FFFF3FFFFFFF
(1547753767.936335) can0 0CF00300#FF001FFF06FFFFFF
(1547753767.936907) can0 0CEFFF00#6406297DFFFFFFFF
(1547753767.937481) can0 18EF0600#640E1B06FFFFFFFF
(1547753767.946260) can0 0CF00400#F0FF9B301EFFFFFF
(1547753767.950587) can0 0DEF0603#0101FFFFFFFFFFF5
(1547753767.956236) can0 0CF00300#FF0012FF06FFFFFF
(1547753767.956809) can0 0CEFFF00#6406087DFFFFFFFF
(1547753767.957409) can0 18EFFF00#64100101F502037D
(1547753767.966261) can0 0CF00400#F0FF8F421EFFFFFF
(1547753767.970636) can0 0DEF0603#0101FFFFFFFFFFF5
(1547753767.971160) can0 18FEF147#FF0000FFFFFFFFFF
(1547753767.971784) can0 18F00503#FFFFFFFFFFFFFFFF
(1547753767.976235) can0 0CF00300#FF000CFF06FFFFFF
(1547753767.976809) can0 0CEFFF00#6406F77CFFFFFFFF
(1547753767.986261) can0 0CF00400#F1FF88381EFFFFFF
(1547753767.990484) can0 0DEF0647#0104FFFFFFFFFFF1
(1547753767.991110) can0 0DEF0603#0101FFFFFFFFFFF5
(1547753767.996187) can0 0CF00300#FF0000FF06FFFFFF
(1547753767.996761) can0 0CEFFF00#6406DA7CFFFFFFFF
(1547753767.997335) can0 18FD7C00#F880F1F500CF03FD
(1547753768.006335) can0 0CF00400#F1FF7D0E1EFFFFFF
(1547753768.010635) can0 0DEF0603#0101FFFFFFFFFFF5
(1547753768.011210) can0 0CFE4947#FFFFFFFFFFFFFFFF
(1547753768.011812) can0 0CFE4347#FFFFFFFFFFFFFFFF
(1547753768.012409) can0 0CFE4447#0000FFFF3FFFFFFF
(1547753768.013011) can0 0CFFFE06#5CFFFFFFFFFFFFFF
(1547753768.016195) can0 0CF00300#FF0000FF06FFFFFF
(1547753768.016812) can0 0CEFFF00#6406DA7CFFFFFFFF
(1547753768.017385) can0 18FEF200#0000FFFFFFFFFFFF
(1547753768.026233) can0 0CF00400#F1FF7DCA1DFFFFFF
(1547753768.030590) can0 0DEF0603#0101FFFFFFFFFFF5
(1547753768.036241) can0 0CF00300#FF0011FF06FFFFFF
(1547753768.036813) can0 0CEFFF00#6406E87CFFFFFFFF
(1547753768.037389) can0 18EF0600#640E2506FFFFFFFF
(1547753768.046291) can0 0CF00400#F1FF825C1DFFFFFF
(1547753768.050594) can0 0DEF0603#0101FFFFFFFFFFF5
(1547753768.051165) can0 18FEF147#FF0000FFFFFFFFFF
(1547753768.051767) can0 18F00503#FFFFFFFFFFFFFFFF
(1547753768.056418) can0 0CF00300#FF0019FF06FFFFFF
(1547753768.056991) can0 0CEFFF00#6406047DFFFFFFFF
(1547753768.057565) can0 18EFFF00#64100101E202057D
(1547753768.066220) can0 0CF00400#F1FF8DFA1CFFFFFF
(1547753768.070643) can0 0DEF0603#0101FFFFFFFFFFF5
(1547753768.076241) can0 0CF00300#FF001DFF06FFFFFF
(1547753768.076817) can0 0CEFFF00#6406127DFFFFFFFF
(1547753768.086267) can0 0CF00400#F1FF92B41CFFFFFF
(1547753768.090495) can0 0DEF0647#0104FFFFFFFFFFF1
(1547753768.091116) can0 0DEF0603#0101FFFFFFFFFFF5
(1547753768.091743) can0 0CFFFE06#5CFFFFFFFFFFFFFF
(1547753768.096342) can0 0CF00300#FF0022FF06FFFFFF
(1547753768.096918) can0 0CEFFF00#6406177DFFFFFFFF
(1547753768.097517) can0 18FDB300#FFFF3628FFFFFFFF
(1547753768.098094) can0 1CEFFF00#64070000FFFFFFFF
(1547753768.106248) can0 0CF00400#F0FF946E1CFFFFFF
(1547753768.111046) can0 0DEF0603#0101FFFFFFFFFFF5
(1547753768.112194) can0 0C000006#30FFFFFFF8FFFFFF
(1547753768.112767) can0 04EF0006#641510F00000930E
(1547753768.116321) can0 0CF00300#FF003BFF06FFFFFF
(1547753768.116864) can0 0CEFFF00#64064D7DFFFFFFFF
(1547753768.117422) can0 18FEF200#2F00FFFFFFFFFFFF
(1547753768.126297) can0 0CF00400#F0FFA9421CFFFFFF
(1547753768.131048) can0 0DEF0603#0101FFFFFFFFFFF5
(1547753768.132244) can0 04EF0006#641510F00000930E
(1547753768.132820) can0 0CFE4947#FFFFFFFFFFFFFFFF
(1547753768.133394) can0 18FFFB06#0005E1F8FFFFFFFF
(1547753768.133972) can0 0CFE4347#FFFFFFFFFFFFFFFF
(1547753768.134572) can0 0CFE4447#0000FFFF3FFFFFFF
(1547753768.135146) can0 0CFFFE06#5C271D271DFFFFFF
(1547753768.136244) can0 0CF00300#FF003CFF06FFFFFF
(1547753768.136820) can0 0CEFFF00#6406517DFFFFFFFF
(1547753768.137361) can0 18EF0600#640E2F00FFFFFFFF
(1547753768.146513) can0 0CF00400#F0FFAA2E1CFFFFFF
(1547753768.151012) can0 0DEF0603#0101FFFFFFFFFFF5
(1547753768.152244) can0 04EF0006#641510F00000930E
(1547753768.156273) can0 0CF00300#FF003DFF06FFFFFF
(1547753768.156847) can0 0CEFFF00#6406537DFFFFFFFF
(1547753768.157417) can0 18EFFF00#64100101D402037D
(1547753768.157997) can0 18FEDF00#8B201CFFFFFFFFFF
(1547753768.166276) can0 0CF00400#F0FFAB261CFFFFFF
(1547753768.171019) can0 0DEF0603#0101FFFFFFFFFFF5
(1547753768.172216) can0 04EF0006#641510F00000930E
(1547753768.172792) can0 18FEF147#FF0000FFFFFFFFFF
(1547753768.173390) can0 18F00503#FFFFFFFFFFFFFFFF
(1547753768.176217) can0 0CF00300#FF003CFF06FFFFFF
(1547753768.176792) can0 0CEFFF00#6406537DFFFFFFFF
(1547753768.177359) can0 18FEEF00#FFFFFF64FFFFFFFA
(1547753768.186270) can0 0CF00400#F0FFAB4E1CFFFFFF
(1547753768.190919) can0 0DEF0647#0104FFFFFFFFFFF1
(1547753768.191541) can0 0DEF0603#0101FFFFFFFFFFF5
(1547753768.192691) can0 04EF0006#641510F00000930E
(1547753768.196295) can0 0CF00300#FF0038FF06FFFFFF
(1547753768.196843) can0 0CEFFF00#64064D7DFFFFFFFF
(1547753768.206271) can0 0CF00400#F0FFA9841CFFFFFF
(1547753768.211322) can0 0DEF0603#0101FFFFFFFFFFF5
(1547753768.212520) can0 04EF0006#641510F00000930E
(1547753768.213097) can0 0CFE4947#FFFFFFFFFFFFFFFF
(1547753768.213696) can0 0CFFFF47#5DFFFFF3FFFFFFFF
(1547753768.214270) can0 0CFE4347#0000FFFF3FFFFFFF
(1547753768.214870) can0 0CFE4447#0000FFFF3FFFFFFF
(1547753768.216271) can0 0CF00300#FF0034FF06FFFFFF
(1547753768.216847) can0 0CEFFF00#6406467DFFFFFFFF
(1547753768.217419) can0 18FEF200#2E00FFFFFFFFFFFF
(1547753768.226284) can0 0CF00400#F0FFA6B61CFFFFFF
(1547753768.231283) can0 0DEF0603#0101FFFFFFFFFFF5
(1547753768.232496) can0 04EF0006#641510F00000930E
(1547753768.236323) can0 0CF00300#FF0030FF06FFFFFF
(1547753768.236897) can0 0CEFFF00#64063E7DFFFFFFFF
(1547753768.237470) can0 18EF0600#640E3900FFFFFFFF
(1547753768.246298) can0 0CF00400#F0FFA3E41CFFFFFF
(1547753768.251324) can0 0DEF0603#0101FFFFFFFFFFF5
(1547753768.252496) can0 04EF0006#641510F00000930E
(1547753768.253072) can0 0CFFFE06#5C271D271DFFFFFF
(1547753768.253623) can0 18FEF147#FF0000FFFFFFFFFF
(1547753768.254247) can0 18FFFB06#0005C2F8FFFFFFFF
(1547753768.254847) can0 18F00503#7DFFFFFFFFFFFFFF
(1547753768.256247) can0 0CF00300#FF002AFF06FFFFFF
(1547753768.256824) can0 0CEFFF00#6406347DFFFFFFFF
(1547753768.257396) can0 18EFFF00#64100101E202057D
(1547753768.257943) can0 18FEF600#FF0040FF00FFFFFF
(1547753768.266211) can0 0CF00400#F0FF9F121DFFFFFF
(1547753768.271285) can0 0DEF0603#0101FFFFFFFFFFF5
(1547753768.272497) can0 04EF0006#641510F00000930E
(1547753768.276623) can0 18EFFA00#6401FF0000FFFFFF
(1547753768.277196) can0 0CEFFF00#6406287DFFFFFFFF
(1547753768.277774) can0 0CF00300#FF0023FF06FFFFFF
(1547753768.286251) can0 0CF00400#F0FF9B461DFFFFFF
(1547753768.290976) can0 0DEF0647#0104FFFFFFFFFFF1
(1547753768.291572) can0 0DEF0603#0101FFFFFFFFFFF5
(1547753768.292649) can0 04EF0006#641510F00000930E
(1547753768.293223) can0 18FFFF06#73FFFFFFFFFFFFFF
(1547753768.294301) can0 18EEFF47#4D74300400340220
(1547753768.294873) can0 18EEFF06#4D743004000E0020
(1547753768.295472) can0 18EEFF03#4D74300400030220
(1547753768.296275) can0 0CF00300#FF001CFF06FFFFFF
(1547753768.296849) can0 0CEFFF00#6406167DFFFFFFFF
(1547753768.306277) can0 0CF00400#F0FF94481DFFFFFF
(1547753768.311327) can0 0DEF0603#0101FFFFFFFFFFF5
(1547753768.312500) can0 04EF0006#641510F00000930E
(1547753768.316253) can0 0CF00300#FF001CFF06FFFFFF
(1547753768.316828) can0 0CEFFF00#6406127DFFFFFFFF
(1547753768.317401) can0 18FEF200#1500FFFFFFFFFFFF
(1547753768.326252) can0 0CF00400#F0FF92401DFFFFFF
(1547753768.331328) can0 0DEF0603#0101FFFFFFFFFFF5
(1547753768.332500) can0 04EF0006#641510F00000930E
(1547753768.333076) can0 0CFE4947#FFFFFFFFFFFFFFFF
(1547753768.333676) can0 1CFDDF47#FCFFFFFFFFFFFFFF
(1547753768.334251) can0 0CFE4347#0000FFFF3FFFFFFF
(1547753768.334851) can0 0CFE4447#0000FFFF3FFFFFFF
(1547753768.335423) can0 0CFFFE06#5C271D271DFFFFFF
(1547753768.336226) can0 0CF00300#FF0000FF06FFFFFF
(1547753768.336802) can0 0CEFFF00#6406117DFFFFFFFF
(1547753768.337359) can0 18EF0600#640E4300FFFFFFFF
(1547753768.346239) can0 0CF00400#FEFF922A1DFFFFFF
(1547753768.351288) can0 0DEF0603#0101FFFFFFFFFFF5
(1547753768.352501) can0 04EF0006#641510F00000930E
(1547753768.356304) can0 0CF00300#FF0016FF06FFFFFF
(1547753768.356852) can0 0CEFFF00#6406ED7CFFFFFFFF
(1547753768.357425) can0 18EFFF00#64100101DC02057D
(1547753768.366279) can0 0CF00400#FEFF84FC1CFFFFFF
(1547753768.371329) can0 0DEF0603#0101FFFFFFFFFFF5
(1547753768.372502) can0 04EF0006#641510F00000930E
(1547753768.373079) can0 18FEF147#FF0000FFFFFFFFFF
(1547753768.373677) can0 18F00647#FFCFFFFFFFFFFFFF
(1547753768.374279) can0 18FFFB06#00057DF8FFFFFFFF
(1547753768.374878) can0 18F00503#7DFFFFFFFFFFFFFF
(1547753768.376253) can0 0CF00300#FF001AFF06FFFFFF
(1547753768.376853) can0 0CEFFF00#6406087DFFFFFFFF
(1547753768.377404) can0 18FEEE00#4E41FFFFFFFFFFFF
(1547753768.386240) can0 0CF00400#FEFF8EC61CFFFFFF
(1547753768.390965) can0 0DEF0647#0104FFFFFFFFFFF1
(1547753768.391577) can0 0DEF0603#0101FFFFFFFFFFF5
(1547753768.392652) can0 04EF0006#641510F00000930E
(1547753768.396182) can0 0CF00300#FF001DFF06FFFFFF
(1547753768.396779) can0 0CEFFF00#6406117DFFFFFFFF
(1547753768.406506) can0 0CF00400#FEFF92941CFFFFFF
(1547753768.407103) can0 18FEDF00#8B4C1CFFFFFFFFFF
(1547753768.411331) can0 0DEF0603#0101FFFFFFFFFFF5
(1547753768.412528) can0 04EF0006#641511F07F18930E
(1547753768.413105) can0 0CFE4947#FFFFFFFFFFFFFFFF
(1547753768.413705) can0 0CFE4347#0000FFFF3FFFFFFF
(1547753768.414304) can0 0CFE4447#0000FFFF3FFFFFFF
(1547753768.416279) can0 0CF00300#FF0022FF06FFFFFF
(1547753768.416853) can0 0CEFFF00#6406197DFFFFFFFF
(1547753768.417427) can0 18FEF200#1700FFFFFFFFFFFF
(1547753768.426259) can0 0CF00400#FEFF95601CFFFFFF
(1547753768.431308) can0 0DEF0603#0101FFFFFFFFFFF5
(1547753768.432505) can0 04EF0006#641512F07319930E
(1547753768.436232) can0 0CF00300#FF0028FF06FFFFFF
(1547753768.436831) can0 0CEFFF00#6406207DFFFFFFFF
(1547753768.437404) can0 18EF0600#640E4D00FFFFFFFF
(1547753768.446333) can0 0CF00400#F0FF98321CFFFFFF
(1547753768.451286) can0 0DEF0603#0101FFFFFFFFFFF5
(1547753768.452505) can0 04EF0006#641513F00719930E
(1547753768.453081) can0 0CFFFE06#5C271D271DFFFFFF
(1547753768.453631) can0 18FEF147#FF0000FFFFFFFFFF
(1547753768.454256) can0 18F00503#7DFFFFFFFFFFFFFF
(1547753768.456308) can0 0CF00300#FF0029FF06FFFFFF
(1547753768.456881) can0 0CEFFF00#64063A7DFFFFFFFF
(1547753768.457454) can0 18EFFF00#64100101D202047D
(1547753768.458010) can0 18FEF700#FFFFFFFFFFFFF000
(1547753768.466297) can0 0CF00400#F0FFA21A1CFFFFFF
(1547753768.471318) can0 0DEF0603#0101FFFFFFFFFFF5
(1547753768.472557) can0 04EF0006#641514F00419930E
(1547753768.476258) can0 0CF00300#FF002AFF06FFFFFF
(1547753768.476832) can0 0CEFFF00#64063D7DFFFFFFFF
(1547753768.486411) can0 0CF00400#F0FFA2261CFFFFFF
(1547753768.490983) can0 0DEF0647#0104FFFFFFFFFFF1
(1547753768.491632) can0 0DEF0603#0101FFFFFFFFFFF5
(1547753768.492656) can0 04EF0006#641515F00B19930E
(1547753768.493231) can0 18FFFB06#0005BDF8FFFFFFFF
(1547753768.495534) can0 18FECA06#00FF00000000FFFF
(1547753768.496483) can0 0CF00300#FF0028FF06FFFFFF
(1547753768.497058) can0 0CEFFF00#64063A7DFFFFFFFF
(1547753768.497633) can0 18FECA47#00FF00000000FFFF
(1547753768.498232) can0 18FECA03#00FF00000000FFFF
(1547753768.506310) can0 0CF00400#F0FFA2301CFFFFFF
(1547753768.511335) can0 0DEF0603#0101FFFFFFFFFFF5
(1547753768.512533) can0 04EF0006#641516F00719930E
(1547753768.516285) can0 0CF00300#FF0027FF06FFFFFF
(1547753768.516859) can0 0CEFFF00#6406387DFFFFFFFF
(1547753768.517433) can0 18FEF200#2800FFFFFFFFFFFF
(1547753768.526261) can0 0CF00400#F0FFA14C1CFFFFFF
(1547753768.531343) can0 0DEF0603#0101FFFFFFFFFFF5
(1547753768.532544) can0 04EF0006#641517F00B19930E
(1547753768.533119) can0 0CFE4947#FFFFFFFFFFFFFFFF
(1547753768.533718) can0 0CFE4347#0000FFFF3FFFFFFF
(1547753768.534323) can0 0CFE4447#0000FFFF3FFFFFFF
(1547753768.534895) can0 0CFFFE06#5C271D271DFFFFFF
(1547753768.536395) can0 0CF00300#FF0025FF06FFFFFF
(1547753768.536968) can0 0CEFFF00#6406347DFFFFFFFF
(1547753768.537546) can0 18EF0600#640E5700FFFFFFFF
(1547753768.546300) can0 0CF00400#F0FF9F741CFFFFFF
(1547753768.551312) can0 0DEF0603#0101FFFFFFFFFFF5
(1547753768.552546) can0 04EF0006#641518F0C718930E
(1547753768.556301) can0 0CF00300#FF0023FF06FFFFFF
(1547753768.556870) can0 0CEFFF00#64062E7DFFFFFFFF
(1547753768.557441) can0 18EFFF00#64100101D702047D
(1547753768.558049) can0 18FED500#FFFFFDFFFFFFFFFF
(1547753768.566267) can0 0CF00400#F0FF9D821CFFFFFF
(1547753768.571351) can0 0DEF0603#0101FFFFFFFFFFF5
(1547753768.572545) can0 04EF0006#641519F02A19930E
(1547753768.573145) can0 18FEF147#FF0000FFFFFFFFFF
(1547753768.573747) can0 18F00503#7DFFFFFFFFFFFFFF
(1547753768.576401) can0 0CF00300#FF0023FF07FFFFFF
(1547753768.576972) can0 0CEFFF00#64062C7DFFFFFFFF
(1547753768.584021) can0 18EEFF17#0C6E240400130220
(1547753768.586475) can0 0CF00400#F0FF9C8C1CFFFFFF
(1547753768.591051) can0 0DEF0647#0104FFFFFFFFFFF1
(1547753768.591671) can0 0DEF0603#0101FFFFFFFFFFF5
(1547753768.592846) can0 04EF0006#64151AF03019A90E
(1547753768.596327) can0 0CF00300#FF0022FF06FFFFFF
(1547753768.596896) can0 0CEFFF00#64062A7DFFFFFFFF
(1547753768.597472) can0 18FDB300#FFFF4228FFFFFFFF
(1547753768.606302) can0 0CF00400#FEFF9B961CFFFFFF
(1547753768.610577) can0 18EAFF06#E5FE00
(1547753768.611574) can0 0DEF0603#0101FFFFFFFFFFF5
(1547753768.612772) can0 04EF0006#64151BF08C18930E
(1547753768.613345) can0 0CFE4947#FFFFFFFFFFFFFFFF
(1547753768.613927) can0 18FFFB06#0005AAF8FFFFFFFF
(1547753768.614494) can0 0CFE4347#0000FFFF3FFFFFFF
(1547753768.615073) can0 18FEE706#CC0A0000FFFFFFFF
(1547753768.615676) can0 0CFE4447#0000FFFF3FFFFFFF
(1547753768.616246) can0 0CFFFE06#5C271D271DFFFFFF
(1547753768.616775) can0 0CEFFF00#6406057DFFFFFFFF
(1547753768.617354) can0 0CF00300#FF001BFF06FFFFFF
(1547753768.617954) can0 18FEF200#0F00FFFFFFFFFFFF
(1547753768.626500) can0 0CF00400#FEFF8D961CFFFFFF
(1547753768.631479) can0 0DEF0603#0101FFFFFFFFFFF5
(1547753768.632663) can0 04EF0006#64151CF07F18930E
(1547753768.636302) can0 0CF00300#FF001AFF06FFFFFF
(1547753768.636874) can0 0CEFFF00#6406077DFFFFFFFF
(1547753768.637448) can0 18EF0600#640E6100FFFFFFFF
(1547753768.646304) can0 0CF00400#FEFF8E8E1CFFFFFF
(1547753768.651504) can0 0DEF0603#0101FFFFFFFFFFF5
(1547753768.652699) can0 04EF0006#64151DF03019930E
(1547753768.653272) can0 18FEF147#FF0000FFFFFFFFFF
(1547753768.653878) can0 18F00503#7DFFFFFFFFFFFFFF
(1547753768.656300) can0 0CF00300#FF001AFF06FFFFFF
(1547753768.656875) can0 0CEFFF00#6406177DFFFFFFFF
(1547753768.657448) can0 18EFFF00#64100101D402057D
(1547753768.658029) can0 18FEDF00#8B4E1CFFFFFFFFFF
(1547753768.659125) can0 18FEE500#CC0A0000FFFFFFFF
(1547753768.666319) can0 0CF00400#FEFF94801CFFFFFF
(1547753768.671459) can0 0DEF0603#0101FFFFFFFFFFF5
(1547753768.672631) can0 04EF0006#64151EF02A19930E
(1547753768.676261) can0 0CF00300#FF001CFF06FFFFFF
(1547753768.676833) can0 0CEFFF00#64061A7DFFFFFFFF
(1547753768.677430) can0 18FEEF00#FFFFFF65FFFFFFFA
(1547753768.686260) can0 0CF00400#FEFF956C1CFFFFFF
(1547753768.690985) can0 0DEF0647#0104FFFFFFFFFFF1
(1547753768.691682) can0 0DEF0603#0101FFFFFFFFFFF5
(1547753768.692882) can0 04EF0006#64151FF0C118930E
(1547753768.696236) can0 0CF00300#FF001FFF06FFFFFF
(1547753768.696833) can0 0CEFFF00#6406207DFFFFFFFF
(1547753768.706335) can0 0CF00400#FEFF984C1CFFFFFF
(1547753768.711460) can0 0DEF0603#0101FFFFFFFFFFF5
(1547753768.712658) can0 04EF0006#641510F00B19930E
(1547753768.716360) can0 0CF00300#FF0021FF06FFFFFF
(1547753768.716935) can0 0CEFFF00#6406277DFFFFFFFF
(1547753768.717532) can0 18FEF200#1F00FFFFFFFFFFFF
(1547753768.726288) can0 0CF00400#F0FF9A301CFFFFFF
(1547753768.731462) can0 0DEF0603#0101FFFFFFFFFFF5
(1547753768.732658) can0 04EF0006#641511F00719930E
(1547753768.733233) can0 0CFE4947#FFFFFFFFFFFFFFFF
(1547753768.733809) can0 18FFFB06#0005A7F8FFFFFFFF
(1547753768.734408) can0 0CFFFF47#5DFFFFF3FFFFFFFF
(1547753768.735009) can0 0CFE4347#0000FFFF3FFFFFFF
(1547753768.735634) can0 0CFE4447#0000FFFF3FFFFFFF
(1547753768.736182) can0 0CFFFE06#5C271D271DFFFFFF
(1547753768.736742) can0 0CEFFF00#6406317DFFFFFFFF
(1547753768.737315) can0 0CF00300#FF0025FF06FFFFFF
(1547753768.737895) can0 18EF0600#640E6B00FFFFFFFF
(1547753768.746269) can0 0CF00400#F0FF9E221CFFFFFF
(1547753768.751463) can0 0DEF0603#0101FFFFFFFFFFF5
(1547753768.752659) can0 04EF0006#641512F00B19930E
(1547753768.756335) can0 0CF00300#FF0026FF06FFFFFF
(1547753768.756910) can0 0CEFFF00#6406327DFFFFFFFF
(1547753768.757483) can0 18EFFF00#64100101CF02047D
(1547753768.758063) can0 18FEF600#FF0040FF00FFFFFF
(1547753768.766313) can0 0CF00400#F0FF9E101CFFFFFF
(1547753768.771488) can0 0DEF0603#0101FFFFFFFFFFF5
(1547753768.772710) can0 04EF0006#641513F00919930E
(1547753768.773284) can0 18FEF147#FF0000FFFFFFFFFF
(1547753768.773888) can0 18FFFB06#001BFFFFFFFFFFFF
(1547753768.774484) can0 18F00503#7DFFFFFFFFFFFFFF
(1547753768.776286) can0 0CF00300#FF0027FF06FFFFFF
(1547753768.776861) can0 0CEFFF00#6406367DFFFFFFFF
(1547753768.786314) can0 0CF00400#F0FFA0141CFFFFFF
(1547753768.791014) can0 0DEF0647#0104FFFFFFFFFFF1
(1547753768.791636) can0 0DEF0603#0101FFFFFFFFFFF5
(1547753768.792836) can0 04EF0006#641514F00919930E
(1547753768.796287) can0 0CF00300#FF0025FF06FFFFFF
(1547753768.796862) can0 0CEFFF00#6406357DFFFFFFFF
(1547753768.806413) can0 0CF00400#F0FF9F2C1CFFFFFF
(1547753768.807012) can0 18FFFA00#022C0000180C0081
(1547753768.811465) can0 0DEF0603#0101FFFFFFFFFFF5
(1547753768.812662) can0 04EF0006#641515F01119930E
(1547753768.813261) can0 0CFE4947#FFFFFFFFFFFFFFFF
(1547753768.813838) can0 18FE6847#3CFFFFFFFFFFFFFF
(1547753768.814412) can0 0CFE4347#0000FFFF3FFFFFFF
(1547753768.815013) can0 18FFFF06#73FFFFFFFFFFFFFF
(1547753768.815586) can0 0CFE4447#0000FFFF3FFFFFFF
(1547753768.816145) can0 0CFFFE06#5C271D271DFFFFFF
(1547753768.816720) can0 0CEFFF00#6406317DFFFFFFFF
(1547753768.817294) can0 0CF00300#FF0024FF06FFFFFF
(1547753768.817896) can0 18FEF200#2400FFFFFFFFFFFF
(1547753768.826288) can0 0CF00400#F0FF9E3C1CFFFFFF
(1547753768.831466) can0 0DEF0603#0101FFFFFFFFFFF5
(1547753768.832662) can0 04EF0006#641516F0CC18930E
(1547753768.836288) can0 0CF00300#FF0024FF06FFFFFF
(1547753768.836863) can0 0CEFFF00#64062E7DFFFFFFFF
(1547753768.837436) can0 18EF0600#640E7500FFFFFFFF
(1547753768.838016) can0 18FEF500#C8FFFFFFFF3BFFFF
(1547753768.846565) can0 0CF00400#F0FF9D461CFFFFFF
(1547753768.851464) can0 0DEF0603#0101FFFFFFFFFFF5
(1547753768.852663) can0 04EF0006#641517F07319930E
(1547753768.853238) can0 0CFFFF47#5EFFFFFFFFFFFFFF
(1547753768.853814) can0 18FEF147#FF0000FFFFFFFFFF
(1547753768.854413) can0 18FEFC47#FFFFFFFFFFFFFFFF
(1547753768.854989) can0 18EF0047#F220610FFFFFFFFF
(1547753768.855587) can0 18F00647#FFCFFFFFFFFFFFFF
(1547753768.856190) can0 1CFDDF47#FCFFFFFFFFFFFFFF
(1547753768.856747) can0 0CEFFF00#64062D7DFFFFFFFF
(1547753768.857345) can0 0CF00300#FF0023FF07FFFFFF
(1547753768.857900) can0 18EFFF00#64100101D202057D
(1547753768.858495) can0 18FFFB06#0005AFF8FFFFFFFF
(1547753768.859098) can0 18F00503#7DFFFFFFFFFFFFFF
(1547753768.864565) can0 18EAFF17#00EE00
(1547753768.866342) can0 0CF00400#F0FF9D541CFFFFFF
(1547753768.869314) can0 18EEFF47#4D74300400340220
(1547753768.869892) can0 18EEFF06#4D743004000E0020
(1547753768.870463) can0 18EEFF03#4D74300400030220
(1547753768.871590) can0 0DEF0603#0101FFFFFFFFFFF5
(1547753768.872789) can0 04EF0006#641518F0D018A90E
(1547753768.876292) can0 0CF00300#FF0022FF06FFFFFF
(1547753768.876865) can0 0CEFFF00#64062B7DFFFFFFFF
(1547753768.877438) can0 18FE6900#2025F026FFFF60FE
(1547753768.884669) can0 1CFFFF17#22FFFF3CFFFFFFFF
(1547753768.886342) can0 0CF00400#FEFF9C5A1CFFFFFF
(1547753768.891018) can0 0DEF0647#0104FFFFFFFFFFF1
(1547753768.891641) can0 0DEF0603#0101FFFFFFFFFFF5
(1547753768.892791) can0 04EF0006#641519F0C618930E
(1547753768.893364) can0 0CFFFE06#5C271D271DFFFFFF
(1547753768.896292) can0 0CF00300#FF0020FF06FFFFFF
(1547753768.896866) can0 0CEFFF00#64061C7DFFFFFFFF
(1547753768.906305) can0 0CF00400#F0FF96561CFFFFFF
(1547753768.906879) can0 18FEDF00#8B201CFFFFFFFFFF
(1547753768.911356) can0 18EEFF00#56F5290400000220
(1547753768.911953) can0 0DEF0603#0101FFFFFFFFFFF5
(1547753768.912703) can0 04EF0006#64151AF0C918930E
(1547753768.916306) can0 0CF00300#FF0022FF06FFFFFF
(1547753768.916879) can0 0CEFFF00#64062A7DFFFFFFFF
(1547753768.917452) can0 18FEF200#2000FFFFFFFFFFFF
(1547753768.926472) can0 0CF00400#F0FF9B4E1CFFFFFF
(1547753768.931524) can0 0DEF0603#0101FFFFFFFFFFF5
(1547753768.932720) can0 04EF0006#64151BF00B19930E
(1547753768.933292) can0 0CFE4947#FFFFFFFFFFFFFFFF
(1547753768.933902) can0 0CFE4347#0000FFFF3FFFFFFF
(1547753768.934440) can0 0CFE4447#0000FFFF3FFFFFFF
(1547753768.936492) can0 0CF00300#FF0023FF06FFFFFF
(1547753768.937065) can0 0CEFFF00#64062B7DFFFFFFFF
(1547753768.937639) can0 18EF0600#640E7F00FFFFFFFF
(1547753768.946394) can0 0CF00400#F0FF9C3E1CFFFFFF
(1547753768.951471) can0 0DEF0603#0101FFFFFFFFFFF5
(1547753768.952716) can0 04EF0006#64151CF0CC18930E
(1547753768.956342) can0 0CF00300#FF0023FF06FFFFFF
(1547753768.956891) can0 0CEFFF00#64062C7DFFFFFFFF
(1547753768.957465) can0 18EFFF00#64100101D002057D
(1547753768.966383) can0 0CF00400#F0FF9C321CFFFFFF
(1547753768.971510) can0 0DEF0603#0101FFFFFFFFFFF5
(1547753768.972709) can0 04EF0006#64151DF00719930E
(1547753768.973280) can0 18FEF147#FF0000FFFFFFFFFF
(1547753768.973886) can0 18FFFB06#0005ACF8FFFFFFFF
(1547753768.974482) can0 18F00503#7DFFFFFFFFFFFFFF
(1547753768.976359) can0 0CF00300#FF0024FF06FFFFFF
(1547753768.976888) can0 0CEFFF00#64062E7DFFFFFFFF
(1547753768.986410) can0 0CF00400#F0FF9D2E1CFFFFFF
(1547753768.991063) can0 0DEF0647#0104FFFFFFFFFFF1
(1547753768.991684) can0 0DEF0603#0101FFFFFFFFFFF5
(1547753768.992857) can0 04EF0006#64151EF01119930E
(1547753768.996338) can0 0CF00300#FF0024FF06FFFFFF
(1547753768.996909) can0 0CEFFF00#64062E7DFFFFFFFF
(1547753768.997457) can0 18FD7C00#F880F1F000CF03FD
(1547753769.006361) can0 0CF00400#F0FF9D321CFFFFFF
(1547753769.011511) can0 0DEF0603#0101FFFFFFFFFFF5
(1547753769.012711) can0 04EF0006#64151FF00719930E
(1547753769.013283) can0 0CFE4947#FFFFFFFFFFFFFFFF
(1547753769.013888) can0 0CFE4347#0000FFFF3FFFFFFF
(1547753769.014482) can0 0CFE4447#0000FFFF3FFFFFFF
(1547753769.015084) can0 0CFFFE06#5C271D271DFFFFFF
(1547753769.016385) can0 0CF00300#FF0023FF06FFFFFF
(1547753769.016958) can0 0CEFFF00#64062D7DFFFFFFFF
(1547753769.017501) can0 18FEF200#2300FFFFFFFFFFFF
(1547753769.026430) can0 0CF00400#F0FF9D321CFFFFFF
(1547753769.031475) can0 0DEF0603#0101FFFFFFFFFFF5
(1547753769.032710) can0 04EF0006#641510F00719930E
(1547753769.036363) can0 0CF00300#FF0024FF06FFFFFF
(1547753769.036936) can0 0CEFFF00#64062D7DFFFFFFFF
(1547753769.037510) can0 18EF0600#640E8900FFFFFFFF
(1547753769.046341) can0 0CF00400#F0FF9D341CFFFFFF
(1547753769.051514) can0 0DEF0603#0101FFFFFFFFFFF5
(1547753769.052713) can0 04EF0006#641511F00719930E
(1547753769.053284) can0 18FEF147#FF0000FFFFFFFFFF
(1547753769.053891) can0 18F00503#7DFFFFFFFFFFFFFF
(1547753769.056312) can0 0CF00300#FF0023FF06FFFFFF
(1547753769.056886) can0 0CEFFF00#64062D7DFFFFFFFF
(1547753769.057435) can0 18EFFF00#64100101D002057D
(1547753769.064614) can0 18EA4717#09FF00
(1547753769.065010) can0 18EA0617#09FF00
(1547753769.065409) can0 18EA0317#09FF00
(1547753769.066488) can0 0CF00400#F0FF9D401CFFFFFF
(1547753769.071513) can0 0DEF0603#0101FFFFFFFFFFF5
(1547753769.072712) can0 04EF0006#641512F07319930E
(1547753769.076366) can0 0CF00300#FF0022FF06FFFFFF
(1547753769.076913) can0 0CEFFF00#64062B7DFFFFFFFF
(1547753769.086339) can0 0CF00400#F0FF9C4A1CFFFFFF
(1547753769.091067) can0 0DEF0647#0104FFFFFFFFFFF1
(1547753769.091689) can0 0DEF0603#0101FFFFFFFFFFF5
(1547753769.092862) can0 04EF0006#641513F00B19930E
(1547753769.093409) can0 0CFFFE06#5C271D271DFFFFFF
(1547753769.093990) can0 18FF0947#434355FFFFFFFFFF
(1547753769.094561) can0 18FF0906#454943FFFFFFFFFF
(1547753769.095162) can0 18FF0903#505452FFFFFFFFFF
(1547753769.095763) can0 18FFFB06#0005ACF8FFFFFFFF
(1547753769.096326) can0 0CF00300#FF0022FF06FFFFFF
(1547753769.096903) can0 0CEFFF00#6406297DFFFFFFFF
(1547753769.097481) can0 18FDB300#FFFF4228FFFFFFFF
(1547753769.098048) can0 1CEFFF00#64070000FFFFFFFF
(1547753769.104717) can0 18EA0017#09FF00
(1547753769.106441) can0 0CF00400#F0FF9B421CFFFFFF
(1547753769.111512) can0 0DEF0603#0101FFFFFFFFFFF5
(1547753769.112115) can0 18FF0900#454355FFFFFFFFFF
(1547753769.112715) can0 0C000006#30FFFFFFF8FFFFFF
(1547753769.113239) can0 04EF0006#641514F07319930E
(1547753769.116491) can0 0CF00300#FF0022FF06FFFFFF
(1547753769.117064) can0 0CEFFF00#64062A7DFFFFFFFF
(1547753769.117637) can0 18FEF200#2000FFFFFFFFFFFF
(1547753769.126391) can0 0CF00400#F0FF9B421CFFFFFF
(1547753769.131545) can0 0DEF0603#0101FFFFFFFFFFF5
(1547753769.132715) can0 04EF0006#641515F07319930E
(1547753769.133287) can0 0CFE4947#FFFFFFFFFFFFFFFF
(1547753769.133895) can0 0CFE4347#0000FFFF3FFFFFFF
(1547753769.134489) can0 0CFE4447#0000FFFF3FFFFFFF
(1547753769.136366) can0 0CF00300#FF0022FF06FFFFFF
(1547753769.136918) can0 0CEFFF00#64062A7DFFFFFFFF
(1547753769.137488) can0 18EF0600#640E9300FFFFFFFF
(1547753769.146367) can0 0CF00400#F0FF9B421CFFFFFF
(1547753769.151517) can0 0DEF0603#0101FFFFFFFFFFF5
(1547753769.152716) can0 04EF0006#641516F07319930E
(1547753769.156619) can0 0CF00300#FF0022FF06FFFFFF
(1547753769.157190) can0 0CEFFF00#64062A7DFFFFFFFF
(1547753769.157739) can0 18EFFF00#64100101D102057D
(1547753769.158339) can0 18FEDF00#8B201CFFFFFFFFFF
(1547753769.166371) can0 0CF00400#F0FF9B381CFFFFFF
(1547753769.171546) can0 0DEF0603#0101FFFFFFFFFFF5
(1547753769.172716) can0 04EF0006#641517F0D018930E
(1547753769.173316) can0 18FEF147#FF0000FFFFFFFFFF
(1547753769.173890) can0 18F00503#7DFFFFFFFFFFFFFF
(1547753769.176342) can0 0CF00300#FF0022FF06FFFFFF
(1547753769.176916) can0 0CEFFF00#64062B7DFFFFFFFF
(1547753769.177491) can0 18FEEF00#FFFFFF66FFFFFFFA
(1547753769.186396) can0 0CF00400#F0FF9C361CFFFFFF
(1547753769.191070) can0 0DEF0647#0104FFFFFFFFFFF1
(1547753769.191766) can0 0DEF0603#0101FFFFFFFFFFF5
(1547753769.192968) can0 04EF0006#641518F00719930E
(1547753769.196395) can0 0CF00300#FF0022FF06FFFFFF
(1547753769.196968) can0 0CEFFF00#64062B7DFFFFFFFF
(1547753769.206451) can0 0CF00400#F0FF9C3C1CFFFFFF
(1547753769.211552) can0 0DEF0603#0101FFFFFFFFFFF5
(1547753769.212751) can0 04EF0006#641519F0CC18930E
(1547753769.213325) can0 0CFE4947#FFFFFFFFFFFFFFFF
(1547753769.213903) can0 18FFFB06#0005ACF8FFFFFFFF
(1547753769.214478) can0 0CFFFF47#5DFFFFF3FFFFFFFF
(1547753769.215076) can0 0CFE4347#0000FFFF3FFFFFFF
(1547753769.215700) can0 0CFE4447#0000FFFF3FFFFFFF
(1547753769.216249) can0 0CFFFE06#5C271D271DFFFFFF
(1547753769.216784) can0 0CEFFF00#64062A7DFFFFFFFF
(1547753769.217363) can0 0CF00300#FF0022FF06FFFFFF
(1547753769.217938) can0 18FEF200#2000FFFFFFFFFFFF
(1547753769.226303) can0 0CF00400#F0FF9B341CFFFFFF
(1547753769.231526) can0 0DEF0603#0101FFFFFFFFFFF5
(1547753769.232727) can0 04EF0006#64151AF00719930E
(1547753769.236456) can0 0CF00300#FF0023FF06FFFFFF
(1547753769.237028) can0 0CEFFF00#64062B7DFFFFFFFF
(1547753769.237600) can0 18EF0600#640E9D00FFFFFFFF
(1547753769.246606) can0 0CF00400#F0FF9C2E1CFFFFFF
(1547753769.251529) can0 0DEF0603#0101FFFFFFFFFFF5
(1547753769.252728) can0 04EF0006#64151BF01119930E
(1547753769.253300) can0 18FEF147#FF0000FFFFFFFFFF
(1547753769.253906) can0 18F00503#7DFFFFFFFFFFFFFF
(1547753769.256330) can0 0CF00300#FF0023FF06FFFFFF
(1547753769.256902) can0 0CEFFF00#64062B7DFFFFFFFF
(1547753769.257476) can0 18EFFF00#64100101CF02057D
(1547753769.258055) can0 18FEF600#FF003FFF00FFFFFF
(1547753769.266381) can0 0CF00400#F0FF9C2C1CFFFFFF
(1547753769.269127) can0 18EEFF17#0C6E240400130220
(1547753769.271554) can0 0DEF0603#0101FFFFFFFFFFF5
(1547753769.272752) can0 04EF0006#64151CF01119930E
(1547753769.276333) can0 18EFFA00#6401FF0000FFFFFF
(1547753769.276906) can0 0CEFFF00#64062C7DFFFFFFFF
(1547753769.277479) can0 0CF00300#FF0023FF06FFFFFF
(1547753769.286407) can0 0CF00400#F0FF9C261CFFFFFF
(1547753769.291085) can0 0DEF0647#0104FFFFFFFFFFF1
(1547753769.291704) can0 0DEF0603#0101FFFFFFFFFFF5
(1547753769.292879) can0 04EF0006#64151DF00B19930E
(1547753769.293427) can0 0CFFFE06#5C271D271DFFFFFF
(1547753769.294033) can0 18FFFF06#73FFFFFFFFFFFFFF
(1547753769.296404) can0 0CF00300#FF0023FF06FFFFFF
(1547753769.296981) can0 0CEFFF00#64062C7DFFFFFFFF
(1547753769.306385) can0 0CF00400#F0FF9C1C1CFFFFFF
(1547753769.311560) can0 0DEF0603#0101FFFFFFFFFFF5
(1547753769.312806) can0 04EF0006#64151EF00419930E
(1547753769.316388) can0 0CF00300#FF0024FF06FFFFFF
(1547753769.316955) can0 0CEFFF00#64062F7DFFFFFFFF
(1547753769.317529) can0 18FEF200#2300FFFFFFFFFFFF
(1547753769.326535) can0 0CF00400#F0FF9D221CFFFFFF
(1547753769.331534) can0 0DEF0603#0101FFFFFFFFFFF5
(1547753769.332755) can0 04EF0006#64151FF00B19930E
(1547753769.333331) can0 0CFE4947#FFFFFFFFFFFFFFFF
(1547753769.333909) can0 1CFDDF47#FCFFFFFFFFFFFFFF
(1547753769.334481) can0 0CFE4347#0000FFFF3FFFFFFF
(1547753769.335058) can0 18FFFB06#0005AFF8FFFFFFFF
(1547753769.335655) can0 0CFE4447#0000FFFF3FFFFFFF
(1547753769.336583) can0 0CF00300#FF0023FF06FFFFFF
(1547753769.337156) can0 0CEFFF00#64062D7DFFFFFFFF
(1547753769.337682) can0 18EF0600#640EA700FFFFFFFF
(1547753769.346369) can0 0CF00400#F0FF9D2A1CFFFFFF
(1547753769.351490) can0 0DEF0603#0101FFFFFFFFFFF5
(1547753769.352731) can0 04EF0006#641510F01119930E
(1547753769.356362) can0 0CF00300#FF0023FF06FFFFFF
(1547753769.356933) can0 0CEFFF00#64062C7DFFFFFFFF
(1547753769.357505) can0 18EFFF00#64100101CF02057D
(1547753769.366385) can0 0CF00400#F0FF9C201CFFFFFF
(1547753769.371513) can0 0DEF0603#0101FFFFFFFFFFF5
(1547753769.372757) can0 04EF0006#641511F00B19930E
(1547753769.373331) can0 18FEF147#FF0000FFFFFFFFFF
(1547753769.373932) can0 18F00647#FFCFFFFFFFFFFFFF
(1547753769.374538) can0 18F00503#7DFFFFFFFFFFFFFF
(1547753769.376390) can0 0CF00300#FF0024FF06FFFFFF
(1547753769.376963) can0 0CEFFF00#64062D7DFFFFFFFF
(1547753769.377538) can0 18FEEE00#4E41FFFFFFFFFFFF
(1547753769.386409) can0 0CF00400#F0FF9D1C1CFFFFFF
(1547753769.391107) can0 0DEF0647#0104FFFFFFFFFFF1
(1547753769.391708) can0 0DEF0603#0101FFFFFFFFFFF5
(1547753769.392921) can0 04EF0006#641512F00419930E
(1547753769.396384) can0 0CF00300#FF0024FF06FFFFFF
(1547753769.396959) can0 0CEFFF00#64062E7DFFFFFFFF
(1547753769.406385) can0 0CF00400#F0FF9D1E1CFFFFFF
(1547753769.406961) can0 18FEDF00#8B201CFFFFFFFFFF
(1547753769.411561) can0 0DEF0603#0101FFFFFFFFFFF5
(1547753769.412808) can0 04EF0006#641513F00419930E
(1547753769.413384) can0 0CFE4947#FFFFFFFFFFFFFFFF
(1547753769.413934) can0 0CFE4347#0000FFFF3FFFFFFF
(1547753769.414585) can0 0CFE4447#0000FFFF3FFFFFFF
(1547753769.415159) can0 0CFFFE06#5C271D271DFFFFFF
(1547753769.416410) can0 0CF00300#FF0024FF06FFFFFF
(1547753769.416985) can0 0CEFFF00#64062E7DFFFFFFFF
(1547753769.417560) can0 18FEF200#2100FFFFFFFFFFFF
(1547753769.426445) can0 0CF00400#F0FF9D161CFFFFFF
(1547753769.431518) can0 0DEF0603#0101FFFFFFFFFFF5
(1547753769.432783) can0 04EF0006#641514F00919930E
(1547753769.436387) can0 0CF00300#FF0024FF06FFFFFF
(1547753769.436960) can0 0CEFFF00#64062F7DFFFFFFFF
(1547753769.437532) can0 18EF0600#640EB100FFFFFFFF
(1547753769.446387) can0 0CF00400#F0FF9D121CFFFFFF
(1547753769.451563) can0 0DEF0603#0101FFFFFFFFFFF5
(1547753769.452810) can0 04EF0006#641515F00919930E
(1547753769.453359) can0 18FEF147#FF0000FFFFFFFFFF
(1547753769.453919) can0 18FFFB06#0005AFF8FFFFFFFF
(1547753769.454560) can0 18F00503#7DFFFFFFFFFFFFFF
(1547753769.456361) can0 0CF00300#FF0024FF06FFFFFF
(1547753769.456934) can0 0CEFFF00#6406307DFFFFFFFF
(1547753769.457510) can0 18EFFF00#64100101CD02057D
(1547753769.458057) can0 18FEF700#FFFFFFFFFFFF0601
(1547753769.466171) can0 18FECA17#00FF00000000FFFF
(1547753769.466744) can0 0CF00400#F0FF9D1A1CFFFFFF
(1547753769.471561) can0 0DEF0603#0101FFFFFFFFFFF5
(1547753769.472785) can0 04EF0006#641516F00419930E
(1547753769.476412) can0 0CF00300#FF0024FF06FFFFFF
(1547753769.476984) can0 0CEFFF00#64062F7DFFFFFFFF
(1547753769.486366) can0 0CF00400#F0FF9D1E1CFFFFFF
(1547753769.491115) can0 0DEF0647#0104FFFFFFFFFFF1
(1547753769.491710) can0 0DEF0603#0101FFFFFFFFFFF5
(1547753769.492935) can0 04EF0006#641517F00419930E
(1547753769.493508) can0 0CFFFE06#5C271D271DFFFFFF
(1547753769.496362) can0 0CF00300#FF0024FF06FFFFFF
(1547753769.496936) can0 0CEFFF00#64062F7DFFFFFFFF
(1547753769.506487) can0 0CF00400#F0FF9D161CFFFFFF
(1547753769.511592) can0 0DEF0603#0101FFFFFFFFFFF5
(1547753769.512789) can0 04EF0006#641518F00919930E
(1547753769.516536) can0 0CF00300#FF0024FF06FFFFFF
(1547753769.517087) can0 0CEFFF00#6406307DFFFFFFFF
(1547753769.517715) can0 18FEF200#2300FFFFFFFFFFFF
(1547753769.526389) can0 0CF00400#F0FF9D181CFFFFFF
(1547753769.531563) can0 0DEF0603#0101FFFFFFFFFFF5
(1547753769.532815) can0 04EF0006#641519F00419930E
(1547753769.533388) can0 0CFE4947#FFFFFFFFFFFFFFFF
(1547753769.533966) can0 0CFE4347#0000FFFF3FFFFFFF
(1547753769.534560) can0 0CFE4447#0000FFFF3FFFFFFF
(1547753769.536389) can0 0CF00300#FF0024FF06FFFFFF
(1547753769.536964) can0 0CEFFF00#64062F7DFFFFFFFF
(1547753769.537535) can0 18EF0600#640EBB00FFFFFFFF
(1547753769.544967) can0 1CFFFF17#22FFFF3CFFFFFFFF
(1547753769.545363) can0 18EA0017#E5FE00
(1547753769.546440) can0 0CF00400#F0FF9D181CFFFFFF
(1547753769.551568) can0 0DEF0603#0101FFFFFFFFFFF5
(1547753769.552813) can0 04EF0006#64151AF00419930E
(1547753769.556639) can0 0CF00300#FF0025FF06FFFFFF
(1547753769.557215) can0 0CEFFF00#64062F7DFFFFFFFF
(1547753769.557788) can0 18EFFF00#64100101CE02057D
(1547753769.558388) can0 18FED500#FFFFFDFFFFFFFFFF
(1547753769.559715) can0 18FEE500#CC0A0000FFFFFFFF
(1547753769.566416) can0 0CF00400#F0FF9D0C1CFFFFFF
(1547753769.571520) can0 0DEF0603#0101FFFFFFFFFFF5
(1547753769.572735) can0 04EF0006#64151BF00219930E
(1547753769.573309) can0 18FEF147#FF0000FFFFFFFFFF
(1547753769.573913) can0 18F00503#7DFFFFFFFFFFFFFF
(1547753769.576337) can0 0CF00300#FF0025FF06FFFFFF
(1547753769.576887) can0 0CEFFF00#6406317DFFFFFFFF
(1547753769.586418) can0 0CF00400#F0FF9E0C1CFFFFFF
(1547753769.591141) can0 0DEF0647#0104FFFFFFFFFFF1
(1547753769.591742) can0 0DEF0603#0101FFFFFFFFFFF5
(1547753769.592942) can0 04EF0006#64151CF00219930E
(1547753769.596414) can0 0CF00300#FF0025FF06FFFFFF
(1547753769.596994) can0 0CEFFF00#6406317DFFFFFFFF
(1547753769.597563) can0 18FDB300#FFFF4E28FFFFFFFF
(1547753769.606542) can0 0CF00400#F0FF9E181CFFFFFF
(1547753769.611594) can0 0DEF0603#0101FFFFFFFFFFF5
(1547753769.612817) can0 04EF0006#64151DF00419930E
(1547753769.613389) can0 0CFE4947#FFFFFFFFFFFFFFFF
(1547753769.613971) can0 18FFFB06#0005B2F8FFFFFFFF
(1547753769.614564) can0 0CFE4347#0000FFFF3FFFFFFF
(1547753769.615167) can0 0CFE4447#0000FFFF3FFFFFFF
(1547753769.615741) can0 0CFFFE06#5C271D271DFFFFFF
(1547753769.616440) can0 0CF00300#FF0024FF06FFFFFF
(1547753769.616950) can0 0CEFFF00#6406307DFFFFFFFF
(1547753769.617528) can0 18FEF200#2300FFFFFFFFFFFF
(1547753769.626328) can0 0CF00400#F0FF9D141CFFFFFF
(1547753769.630601) can0 18EAFF06#E5FE00
(1547753769.631643) can0 0DEF0603#0101FFFFFFFFFFF5
(1547753769.632868) can0 04EF0006#64151EF00919930E
(1547753769.636370) can0 0CF00300#FF0025FF06FFFFFF
(1547753769.636943) can0 0CEFFF00#6406307DFFFFFFFF
(1547753769.637516) can0 18EF0600#640EC500FFFFFFFF
(1547753769.646699) can0 0CF00400#F0FF9D0C1CFFFFFF
(1547753769.651573) can0 0DEF0603#0101FFFFFFFFFFF5
(1547753769.652792) can0 04EF0006#64151FF00219930E
(1547753769.653365) can0 18FEF147#FF0000FFFFFFFFFF
(1547753769.653973) can0 18FEE706#CC0A0000FFFFFFFF
(1547753769.654566) can0 18F00503#7DFFFFFFFFFFFFFF
(1547753769.656392) can0 0CF00300#FF0025FF06FFFFFF
(1547753769.656967) can0 0CEFFF00#6406327DFFFFFFFF
(1547753769.657539) can0 18EFFF00#64100101CD02057D
(1547753769.658120) can0 18FEDF00#8A201CFFFFFFFFFF
(1547753769.659206) can0 18FEE500#CC0A0000FFFFFFFF
(1547753769.666348) can0 0CF00400#F0FF9E0C1CFFFFFF
(1547753769.671536) can0 0DEF0603#0101FFFFFFFFFFF5
(1547753769.672758) can0 04EF0006#641510F00219930E
(1547753769.676335) can0 0CF00300#FF0025FF06FFFFFF
(1547753769.676908) can0 0CEFFF00#6406327DFFFFFFFF
(1547753769.677482) can0 18FEEF00#FFFFFF65FFFFFFFA
(1547753769.686411) can0 0CF00400#F0FF9E061CFFFFFF
(1547753769.691086) can0 0DEF0647#0104FFFFFFFFFFF1
(1547753769.691785) can0 0DEF0603#0101FFFFFFFFFFF5
(1547753769.693009) can0 04EF0006#641511F01319930E
(1547753769.693582) can0 0CFFFE06#5C271D271DFFFFFF
(1547753769.696386) can0 0CF00300#FF0026FF06FFFFFF
(1547753769.696960) can0 0CEFFF00#6406337DFFFFFFFF
(1547753769.706386) can0 0CF00400#F0FF9EF81BFFFFFF
(1547753769.711561) can0 0DEF0603#0101FFFFFFFFFFF5
(1547753769.712784) can0 04EF0006#641512F00C19930E
(1547753769.716361) can0 0CF00300#FF0026FF06FFFFFF
(1547753769.716935) can0 0CEFFF00#6406357DFFFFFFFF
(1547753769.717516) can0 18FEF200#2500FFFFFFFFFFFF
(1547753769.726488) can0 0CF00400#F0FF9F041CFFFFFF
(1547753769.731564) can0 0DEF0603#0101FFFFFFFFFFF5
(1547753769.732785) can0 04EF0006#641513F01319930E
(1547753769.733360) can0 0CFE4947#FFFFFFFFFFFFFFFF
(1547753769.733963) can0 18FFFB06#0005B7F8FFFFFFFF
(1547753769.734535) can0 0CFFFF47#5DFFFFF3FFFFFFFF
(1547753769.735135) can0 0CFE4347#0000FFFF3FFFFFFF
(1547753769.735737) can0 0CFE4447#0000FFFF3FFFFFFF
(1547753769.736534) can0 0CF00300#FF0026FF06FFFFFF
(1547753769.737111) can0 0CEFFF00#6406337DFFFFFFFF
(1547753769.737658) can0 18EF0600#640ECF00FFFFFFFF
(1547753769.746373) can0 0CF00400#F0FF9E101CFFFFFF
(1547753769.751547) can0 0DEF0603#0101FFFFFFFFFFF5
(1547753769.752787) can0 04EF0006#641514F00919930E
(1547753769.756339) can0 0CF00300#FF0025FF06FFFFFF
(1547753769.756912) can0 0CEFFF00#6406327DFFFFFFFF
(1547753769.757460) can0 18EFFF00#64100101CE02057D
(1547753769.758018) can0 18FEF600#FF003FFF00FFFFFF
(1547753769.766390) can0 0CF00400#F0FF9E0C1CFFFFFF
(1547753769.771539) can0 0DEF0603#0101FFFFFFFFFFF5
(1547753769.772787) can0 04EF0006#641515F00219930E
(1547753769.773362) can0 18FEF147#FF0000FFFFFFFFFF
(1547753769.773964) can0 18FFFB06#001BFFFFFFFFFFFF
(1547753769.774561) can0 18F00503#7DFFFFFFFFFFFFFF
(1547753769.776362) can0 0CF00300#FF0026FF06FFFFFF
(1547753769.776938) can0 0CEFFF00#6406337DFFFFFFFF
(1547753769.786440) can0 0CF00400#F0FF9E0C1CFFFFFF
(1547753769.791090) can0 0DEF0647#0104FFFFFFFFFFF1
(1547753769.791714) can0 0DEF0603#0101FFFFFFFFFFF5
(1547753769.792913) can0 04EF0006#641516F00219930E
(1547753769.796365) can0 0CF00300#FF0025FF06FFFFFF
(1547753769.796939) can0 0CEFFF00#6406337DFFFFFFFF
(1547753769.806365) can0 0CF00400#F0FF9E101CFFFFFF
(1547753769.806938) can0 18FFFA00#022C0000180C0081
(1547753769.811566) can0 0DEF0603#0101FFFFFFFFFFF5
(1547753769.812788) can0 04EF0006#641517F00919930E
(1547753769.813363) can0 0CFE4947#FFFFFFFFFFFFFFFF
(1547753769.813941) can0 18FE6847#3CFFFFFFFFFFFFFF
(1547753769.814514) can0 0CFE4347#0000FFFF3FFFFFFF
(1547753769.815115) can0 18FFFF06#73FFFFFFFFFFFFFF
(1547753769.815689) can0 0CFE4447#0000FFFF3FFFFFFF
(1547753769.816247) can0 0CFFFE06#5C271D271DFFFFFF
(1547753769.816824) can0 0CEFFF00#6406327DFFFFFFFF
(1547753769.817397) can0 0CF00300#FF0025FF06FFFFFF
(1547753769.818002) can0 18FEF200#2400FFFFFFFFFFFF
(1547753769.826477) can0 0CF00400#F0FF9E0E1CFFFFFF
(1547753769.831567) can0 0DEF0603#0101FFFFFFFFFFF5
(1547753769.832765) can0 04EF0006#641518F00219930E
(1547753769.836392) can0 0CF00300#FF0026FF06FFFFFF
(1547753769.836966) can0 0CEFFF00#6406337DFFFFFFFF
(1547753769.837538) can0 18EF0600#640ED900FFFFFFFF
(1547753769.838117) can0 18FEF500#C8FFFFFFFF3BFFFF
(1547753769.846393) can0 0CF00400#F0FF9E0C1CFFFFFF
(1547753769.851566) can0 0DEF0603#0101FFFFFFFFFFF5
(1547753769.852791) can0 04EF0006#641519F00219930E
(1547753769.853364) can0 0CFFFF47#5EFFFFFFFFFFFFFF
(1547753769.853943) can0 18FEF147#FF0000FFFFFFFFFF
(1547753769.854540) can0 18FEFC47#FFFFFFFFFFFFFFFF
(1547753769.855141) can0 18EF0047#F220610FFFFFFFFF
(1547753769.855717) can0 18F00647#FFCFFFFFFFFFFFFF
(1547753769.856314) can0 1CFDDF47#FCFFFFFFFFFFFFFF
(1547753769.856861) can0 0CEFFF00#6406337DFFFFFFFF
(1547753769.857448) can0 0CF00300#FF0025FF06FFFFFF
(1547753769.858028) can0 18EFFF00#64100101CE02057D
(1547753769.858615) can0 18FFFB06#0005B4F8FFFFFFFF
(1547753769.859198) can0 18F00503#7DFFFFFFFFFFFFFF
(1547753769.866444) can0 0CF00400#F0FF9E181CFFFFFF
(1547753769.871569) can0 0DEF0603#0101FFFFFFFFFFF5
(1547753769.872792) can0 04EF0006#64151AF00419930E
(1547753769.876393) can0 0CF00300#FF0024FF06FFFFFF
(1547753769.876967) can0 0CEFFF00#6406327DFFFFFFFF
(1547753769.877539) can0 18FE6900#0225F226FFFF60FE
(1547753769.886393) can0 0CF00400#F0FF9E201CFFFFFF
(1547753769.891095) can0 0DEF0647#0104FFFFFFFFFFF1
(1547753769.891693) can0 0DEF0603#0101FFFFFFFFFFF5
(1547753769.892868) can0 04EF0006#64151BF00B19930E
(1547753769.893440) can0 0CFFFE06#5C271D271DFFFFFF
(1547753769.896368) can0 0CF00300#FF0025FF06FFFFFF
(1547753769.896942) can0 0CEFFF00#6406307DFFFFFFFF
(1547753769.906395) can0 0CF00400#F0FF9E1C1CFFFFFF
(1547753769.906950) can0 18FEDF00#8A201CFFFFFFFFFF
(1547753769.911571) can0 0DEF0603#0101FFFFFFFFFFF5
(1547753769.912793) can0 04EF0006#64151CF00419930E
(1547753769.916545) can0 0CF00300#FF0025FF06FFFFFF
(1547753769.917075) can0 0CEFFF00#6406317DFFFFFFFF
(1547753769.917695) can0 18FEF200#2300FFFFFFFFFFFF
(1547753769.926458) can0 0CF00400#F0FF9E201CFFFFFF
(1547753769.931580) can0 0DEF0603#0101FFFFFFFFFFF5
(1547753769.932781) can0 04EF0006#64151DF00B19930E
(1547753769.933354) can0 0CFE4947#FFFFFFFFFFFFFFFF
(1547753769.933931) can0 0CFE4347#0000FFFF3FFFFFFF
(1547753769.934551) can0 0CFE4447#0000FFFF3FFFFFFF
(1547753769.936428) can0 0CF00300#FF0024FF06FFFFFF
(1547753769.937004) can0 0CEFFF00#6406307DFFFFFFFF
(1547753769.937576) can0 18EF0600#640EE300FFFFFFFF
(1547753769.946434) can0 0CF00400#F0FF9E221CFFFFFF
(1547753769.951580) can0 0DEF0603#0101FFFFFFFFFFF5
(1547753769.952781) can0 04EF0006#64151EF00B19930E
(1547753769.956505) can0 0CF00300#FF0024FF06FFFFFF
(1547753769.957080) can0 0CEFFF00#64062F7DFFFFFFFF
(1547753769.957654) can0 18EFFF00#64100101D002057D
(1547753769.966433) can0 0CF00400#F0FF9D1A1CFFFFFF
(1547753769.971607) can0 0DEF0603#0101FFFFFFFFFFF5
(1547753769.972829) can0 04EF0006#64151FF00419930E
(1547753769.973404) can0 18FEF147#FF0000FFFFFFFFFF
(1547753769.974009) can0 18FFFB06#0005B2F8FFFFFFFF
(1547753769.974604) can0 18F00503#7DFFFFFFFFFFFFFF
(1547753769.976406) can0 0CF00300#FF0025FF06FFFFFF
(1547753769.976981) can0 0CEFFF00#6406327DFFFFFFFF
(1547753769.986461) can0 0CF00400#F0FF9E1E1CFFFFFF
(1547753769.991156) can0 0DEF0647#0104FFFFFFFFFFF1
(1547753769.991756) can0 0DEF0603#0101FFFFFFFFFFF5
(1547753769.992958) can0 04EF0006#641510F00419930E
(1547753769.996481) can0 0CF00300#FF0024FF06FFFFFF
(1547753769.997033) can0 0CEFFF00#6406317DFFFFFFFF
(1547753769.997606) can0 18FD7C00#F880F1F000CF03FD
(1547753770.006587) can0 0CF00400#F0FF9E281CFFFFFF
(1547753770.011606) can0 0DEF0603#0101FFFFFFFFFFF5
(1547753770.012782) can0 04EF0006#641511F01119930E
(1547753770.013380) can0 0CFE4947#FFFFFFFFFFFFFFFF
(1547753770.013964) can0 0CFE4347#0000FFFF3FFFFFFF
(1547753770.014556) can0 0CFE4447#0000FFFF3FFFFFFF
(1547753770.015133) can0 0CFFFE06#5C271D271DFFFFFF
(1547753770.016458) can0 0CF00300#FF0024FF06FFFFFF
(1547753770.017034) can0 0CEFFF00#64062F7DFFFFFFFF
(1547753770.017607) can0 18FEF200#2300FFFFFFFFFFFF
(1547753770.026388) can0 0CF00400#F0FF9D281CFFFFFF
(1547753770.031524) can0 0DEF0603#0101FFFFFFFFFFF5
(1547753770.032782) can0 04EF0006#641512F01119930E
(1547753770.036414) can0 0CF00300#FF0024FF06FFFFFF
(1547753770.036983) can0 0CEFFF00#64062F7DFFFFFFFF
(1547753770.037555) can0 18EF0600#640EED00FFFFFFFF
(1547753770.046687) can0 0CF00400#F0FF9D261CFFFFFF
(1547753770.051588) can0 0DEF0603#0101FFFFFFFFFFF5
(1547753770.052784) can0 04EF0006#641513F00B19930E
(1547753770.053358) can0 18FEF147#FF0000FFFFFFFFFF
(1547753770.053962) can0 18F00503#7DFFFFFFFFFFFFFF
(1547753770.056434) can0 0CF00300#FF0024FF06FFFFFF
(1547753770.056985) can0 0CEFFF00#64062F7DFFFFFFFF
(1547753770.057555) can0 18EFFF00#64100101D102057D
(1547753770.066489) can0 0CF00400#F0FF9D281CFFFFFF
(1547753770.071590) can0 0DEF0603#0101FFFFFFFFFFF5
(1547753770.072783) can0 04EF0006#641514F01119930E
(1547753770.076411) can0 0CF00300#FF0024FF06FFFFFF
(1547753770.076984) can0 0CEFFF00#64062F7DFFFFFFFF
(1547753770.086488) can0 0CF00400#F0FF9D261CFFFFFF
(1547753770.091140) can0 0DEF0647#0104FFFFFFFFFFF1
(1547753770.091737) can0 0DEF0603#0101FFFFFFFFFFF5
(1547753770.092910) can0 04EF0006#641515F00B19930E
(1547753770.093482) can0 0CFFFE06#5C271D271DFFFFFF
(1547753770.094066) can0 18FFFB06#0005B2F8FFFFFFFF
(1547753770.096511) can0 0CF00300#FF0024FF06FFFFFF
(1547753770.097061) can0 0CEFFF00#64062F7DFFFFFFFF
(1547753770.097661) can0 18FDB300#FFFF4E28FFFFFFFF
(1547753770.098241) can0 1CEFFF00#64070000FFFFFFFF
(1547753770.106389) can0 0CF00400#F0FF9D1C1CFFFFFF
(1547753770.111616) can0 0DEF0603#0101FFFFFFFFFFF5
(1547753770.112811) can0 0C000006#30FFFFFFF8FFFFFF
(1547753770.113361) can0 04EF0006#641516F00419930E
(1547753770.116441) can0 0CF00300#FF0024FF06FFFFFF
(1547753770.117037) can0 0CEFFF00#6406317DFFFFFFFF
(1547753770.117610) can0 18FEF200#2300FFFFFFFFFFFF
(1547753770.126567) can0 0CF00400#F0FF9E281CFFFFFF
(1547753770.131592) can0 0DEF0603#0101FFFFFFFFFFF5
(1547753770.132788) can0 04EF0006#641517F01119930E
(1547753770.133344) can0 0CFE4947#FFFFFFFFFFFFFFFF
(1547753770.133966) can0 0CFE4347#0000FFFF3FFFFFFF
(1547753770.134561) can0 0CFE4447#0000FFFF3FFFFFFF
(1547753770.136563) can0 0CF00300#FF0024FF06FFFFFF
(1547753770.137138) can0 0CEFFF00#64062E7DFFFFFFFF
(1547753770.137737) can0 18EF0600#640EF700FFFFFFFF
(1547753770.146492) can0 0CF00400#F0FF9D341CFFFFFF
(1547753770.151592) can0 0DEF0603#0101FFFFFFFFFFF5
(1547753770.152788) can0 04EF0006#641518F00719930E
(1547753770.156418) can0 0CF00300#FF0023FF06FFFFFF
(1547753770.156989) can0 0CEFFF00#64062D7DFFFFFFFF
(1547753770.157560) can0 18EFFF00#64100101D202057D
(1547753770.158142) can0 18FEDF00#8A201CFFFFFFFFFF
(1547753770.166408) can0 0CF00400#F0FF9D301CFFFFFF
(1547753770.171548) can0 0DEF0603#0101FFFFFFFFFFF5
(1547753770.172745) can0 04EF0006#641519F00719930E
(1547753770.173320) can0 18FEF147#FF0000FFFFFFFFFF
(1547753770.173924) can0 18F00503#7DFFFFFFFFFFFFFF
(1547753770.176371) can0 0CF00300#FF0023FF06FFFFFF
(1547753770.176945) can0 0CEFFF00#64062D7DFFFFFFFF
(1547753770.177544) can0 18FEEF00#FFFFFF65FFFFFFFA
(1547753770.186424) can0 0CF00400#F0FF9D2E1CFFFFFF
(1547753770.191098) can0 0DEF0647#0104FFFFFFFFFFF1
(1547753770.191796) can0 0DEF0603#0101FFFFFFFFFFF5
(1547753770.192971) can0 04EF0006#64151AF01119930E
(1547753770.196415) can0 0CF00300#FF0023FF06FFFFFF
(1547753770.196988) can0 0CEFFF00#64062D7DFFFFFFFF
(1547753770.206466) can0 0CF00400#F0FF9D301CFFFFFF
(1547753770.211617) can0 0DEF0603#0101FFFFFFFFFFF5
(1547753770.212790) can0 04EF0006#64151BF00719930E
(1547753770.213363) can0 0CFE4947#FFFFFFFFFFFFFFFF
(1547753770.213935) can0 18FFFB06#0005B2F8FFFFFFFF
(1547753770.214512) can0 0CFFFF47#5DFFFFF3FFFFFFFF
(1547753770.215140) can0 0CFE4347#0000FFFF3FFFFFFF
(1547753770.215742) can0 0CFE4447#0000FFFF3FFFFFFF
(1547753770.216312) can0 0CFFFE06#5C271D271DFFFFFF
(1547753770.216844) can0 0CEFFF00#64062D7DFFFFFFFF
(1547753770.217425) can0 0CF00300#FF0023FF06FFFFFF
(1547753770.218019) can0 18FEF200#2100FFFFFFFFFFFF
(1547753770.225005) can0 1CFFFF17#22FFFF3CFFFFFFFF
(1547753770.226603) can0 0CF00400#F0FF9D281CFFFFFF
(1547753770.231630) can0 0DEF0603#0101FFFFFFFFFFF5
(1547753770.232799) can0 04EF0006#64151CF01119930E
(1547753770.236428) can0 0CF00300#FF0024FF06FFFFFF
(1547753770.237026) can0 0CEFFF00#64062E7DFFFFFFFF
(1547753770.237600) can0 18EF0600#640E0100FFFFFFFF
(1547753770.246453) can0 0CF00400#F0FF9D261CFFFFFF
(1547753770.251629) can0 0DEF0603#0101FFFFFFFFFFF5
(1547753770.252802) can0 04EF0006#64151DF00B19930E
(1547753770.253374) can0 18FEF147#FF0000FFFFFFFFFF
(1547753770.254004) can0 18F00503#7DFFFFFFFFFFFFFF
(1547753770.256402) can0 0CF00300#FF0024FF06FFFFFF
(1547753770.256977) can0 0CEFFF00#64062E7DFFFFFFFF
(1547753770.257524) can0 18EFFF00#64100101D102057D
(1547753770.258133) can0 18FEF600#FF003EFF00FFFFFF
(1547753770.259351) can0 1CECFF00#20220005FFE3FE00
(1547753770.266558) can0 0CF00400#F0FF9D2E1CFFFFFF
(1547753770.271610) can0 0DEF0603#0101FFFFFFFFFFF5
(1547753770.272802) can0 04EF0006#64151EF01119930E
(1547753770.276425) can0 18EFFA00#6401FF0000FFFFFF
(1547753770.276978) can0 0CEFFF00#64062D7DFFFFFFFF
(1547753770.277577) can0 0CF00300#FF0023FF06FFFFFF
(1547753770.286454) can0 0CF00400#F0FF9D341CFFFFFF
(1547753770.291155) can0 0DEF0647#0104FFFFFFFFFFF1
(1547753770.291752) can0 0DEF0603#0101FFFFFFFFFFF5
(1547753770.292928) can0 04EF0006#64151FF00719930E
(1547753770.293500) can0 0CFFFE06#5C271D271DFFFFFF
(1547753770.294081) can0 18FFFF06#73FFFFFFFFFFFFFF
(1547753770.296429) can0 0CF00300#FF0023FF06FFFFFF
(1547753770.297005) can0 0CEFFF00#64062C7DFFFFFFFF
(1547753770.306529) can0 0CF00400#F0FF9C2C1CFFFFFF
(1547753770.311608) can0 0DEF0603#0101FFFFFFFFFFF5
(1547753770.312177) can0 1CEBFF00#01201CEC6842EAA0
(1547753770.312829) can0 04EF0006#641510F01119930E
(1547753770.316552) can0 0CF00300#FF0023FF06FFFFFF
(1547753770.317128) can0 0CEFFF00#64062D7DFFFFFFFF
(1547753770.317657) can0 18FEF200#2100FFFFFFFFFFFF
(1547753770.326407) can0 0CF00400#F0FF9D2E1CFFFFFF
(1547753770.331608) can0 0DEF0603#0101FFFFFFFFFFF5
(1547753770.332830) can0 04EF0006#641511F01119930E
(1547753770.333403) can0 0CFE4947#FFFFFFFFFFFFFFFF
(1547753770.333982) can0 1CFDDF47#FCFFFFFFFFFFFFFF
(1547753770.334552) can0 0CFE4347#0000FFFF3FFFFFFF
(1547753770.335155) can0 18FFFB06#0005B2F8FFFFFFFF
(1547753770.335757) can0 0CFE4447#0000FFFF3FFFFFFF
(1547753770.336432) can0 0CF00300#FF0023FF06FFFFFF
(1547753770.336984) can0 0CEFFF00#64062D7DFFFFFFFF
(1547753770.337562) can0 18EF0600#640E0B00FFFFFFFF
(1547753770.346438) can0 0CF00400#F0FF9D2E1CFFFFFF
(1547753770.351586) can0 0DEF0603#0101FFFFFFFFFFF5
(1547753770.352808) can0 04EF0006#641512F01119930E
(1547753770.356713) can0 0CF00300#FF0024FF06FFFFFF
(1547753770.357279) can0 0CEFFF00#64062D7DFFFFFFFF
(1547753770.357853) can0 18EFFF00#64100101D102057D
(1547753770.359630) can0 1CEBFF00#020FE38D20F17A31
(1547753770.366485) can0 0CF00400#F0FF9D241CFFFFFF
(1547753770.371637) can0 0DEF0603#0101FFFFFFFFFFF5
(1547753770.372831) can0 04EF0006#641513F00B19930E
(1547753770.373403) can0 18FEF147#FF0000FFFFFFFFFF
(1547753770.374009) can0 18F00647#FFCFFFFFFFFFFFFF
(1547753770.374604) can0 18F00503#7DFFFFFFFFFFFFFF
(1547753770.376457) can0 0CF00300#FF0024FF06FFFFFF
(1547753770.377035) can0 0CEFFF00#64062E7DFFFFFFFF
(1547753770.377604) can0 18FEEE00#4E41FFFFFFFFFFFF
(1547753770.386486) can0 0CF00400#F0FF9D261CFFFFFF
(1547753770.391160) can0 0DEF0647#0104FFFFFFFFFFF1
(1547753770.391760) can0 0DEF0603#0101FFFFFFFFFFF5
(1547753770.392958) can0 04EF0006#641514F00B19930E
(1547753770.396481) can0 0CF00300#FF0023FF06FFFFFF
(1547753770.397085) can0 0CEFFF00#64062E7DFFFFFFFF
(1547753770.406613) can0 0CF00400#F0FF9D321CFFFFFF
(1547753770.407184) can0 18FEDF00#8B201CFFFFFFFFFF
(1547753770.411639) can0 0DEF0603#0101FFFFFFFFFFF5
(1547753770.412211) can0 1CEBFF00#03FAC044FFFF0401
(1547753770.412857) can0 04EF0006#641515F00719930E
(1547753770.413431) can0 0CFE4947#FFFFFFFFFFFFFFFF
(1547753770.414012) can0 0CFE4347#0000FFFF3FFFFFFF
(1547753770.414560) can0 0CFE4447#0000FFFF3FFFFFFF
(1547753770.415137) can0 0CFFFE06#5C271D271DFFFFFF
(1547753770.416436) can0 0CF00300#FF0023FF06FFFFFF
(1547753770.417084) can0 0CEFFF00#64062C7DFFFFFFFF
(1547753770.417605) can0 18FEF200#2100FFFFFFFFFFFF
(1547753770.426417) can0 0CF00400#F0FF9C301CFFFFFF
(1547753770.431639) can0 0DEF0603#0101FFFFFFFFFFF5
(1547753770.432834) can0 04EF0006#641516F00719930E
(1547753770.436562) can0 0CF00300#FF0023FF06FFFFFF
(1547753770.437135) can0 0CEFFF00#64062C7DFFFFFFFF
(1547753770.437708) can0 18EF0600#640E1500FFFFFFFF
(1547753770.446689) can0 0CF00400#F0FF9C2C1CFFFFFF
(1547753770.451614) can0 0DEF0603#0101FFFFFFFFFFF5
(1547753770.452812) can0 04EF0006#641517F01119930E
(1547753770.453410) can0 18FEF147#FF0000FFFFFFFFFF
(1547753770.453963) can0 18FFFB06#0005ACF8FFFFFFFF
(1547753770.454599) can0 18F00503#7DFFFFFFFFFFFFFF
(1547753770.456426) can0 0CF00300#FF0023FF06FFFFFF
(1547753770.457003) can0 0CEFFF00#64062D7DFFFFFFFF
(1547753770.457551) can0 18EFFF00#64100101D102057D
(1547753770.458127) can0 18FEF700#FFFFFFFFFFFF1901
(1547753770.459253) can0 1CEBFF00#04204E0001FAC9FA
(1547753770.466430) can0 0CF00400#F0FF9D2C1CFFFFFF
(1547753770.471628) can0 0DEF0603#0101FFFFFFFFFFF5
(1547753770.472802) can0 04EF0006#641518F01119930E
(1547753770.476430) can0 0CF00300#FF0023FF06FFFFFF
(1547753770.477003) can0 0CEFFF00#64062D7DFFFFFFFF
(1547753770.486531) can0 0CF00400#F0FF9D261CFFFFFF
(1547753770.491180) can0 0DEF0647#0104FFFFFFFFFFF1
(1547753770.491778) can0 0DEF0603#0101FFFFFFFFFFF5
(1547753770.492953) can0 04EF0006#641519F00B19930E
(1547753770.493527) can0 0CFFFE06#5C271D271DFFFFFF
(1547753770.496533) can0 0CF00300#FF0024FF06FFFFFF
(1547753770.497107) can0 0CEFFF00#64062D7DFFFFFFFF
(1547753770.506459) can0 0CF00400#F0FF9D1E1CFFFFFF
(1547753770.511454) can0 1CEBFF00#05C05D0000FFFFFF
(1547753770.512027) can0 0DEF0603#0101FFFFFFFFFFF5
(1547753770.512904) can0 04EF0006#64151AF00419930E
(1547753770.516459) can0 0CF00300#FF0024FF06FFFFFF
(1547753770.517028) can0 0CEFFF00#64062F7DFFFFFFFF
(1547753770.517601) can0 18FEF200#2300FFFFFFFFFFFF
(1547753770.526631) can0 0CF00400#F0FF9D241CFFFFFF
(1547753770.531630) can0 0DEF0603#0101FFFFFFFFFFF5
(1547753770.532828) can0 04EF0006#64151BF00B19930E
(1547753770.533402) can0 0CFE4947#FFFFFFFFFFFFFFFF
(1547753770.534008) can0 0CFE4347#0000FFFF3FFFFFFF
(1547753770.534603) can0 0CFE4447#0000FFFF3FFFFFFF
(1547753770.536706) can0 0CF00300#FF0023FF06FFFFFF
(1547753770.537280) can0 0CEFFF00#64062D7DFFFFFFFF
(1547753770.537855) can0 18EF0600#640E1F00FFFFFFFF
(1547753770.546484) can0 0CF00400#F0FF9D2E1CFFFFFF
(1547753770.551632) can0 0DEF0603#0101FFFFFFFFFFF5
(1547753770.552806) can0 04EF0006#64151CF01119930E
(1547753770.556436) can0 0CF00300#FF0023FF06FFFFFF
(1547753770.557005) can0 0CEFFF00#64062C7DFFFFFFFF
(1547753770.557579) can0 18EFFF00#64100101D102057D
(1547753770.558160) can0 18FED500#FFFFFDFFFFFFFFFF
(1547753770.566486) can0 0CF00400#F0FF9C261CFFFFFF
(1547753770.571630) can0 0DEF0603#0101FFFFFFFFFFF5
(1547753770.572831) can0 04EF0006#64151DF00B19930E
(1547753770.573406) can0 18FEF147#FF0000FFFFFFFFFF
(1547753770.574009) can0 18FFFB06#0005ACF8FFFFFFFF
(1547753770.574604) can0 18F00503#7DFFFFFFFFFFFFFF
(1547753770.576424) can0 0CF00300#FF0023FF06FFFFFF
(1547753770.576987) can0 0CEFFF00#64062D7DFFFFFFFF
(1547753770.586486) can0 0CF00400#F0FF9D241CFFFFFF
(1547753770.591181) can0 0DEF0647#0104FFFFFFFFFFF1
(1547753770.591782) can0 0DEF0603#0101FFFFFFFFFFF5
(1547753770.592983) can0 04EF0006#64151EF00B19930E
(1547753770.596435) can0 0CF00300#FF0023FF06FFFFFF
(1547753770.597006) can0 0CEFFF00#64062D7DFFFFFFFF
(1547753770.597579) can0 18FDB300#FFFF4E28FFFFFFFF
(1547753770.606461) can0 0CF00400#F0FF9D261CFFFFFF
(1547753770.611632) can0 0DEF0603#0101FFFFFFFFFFF5
(1547753770.612833) can0 04EF0006#64151FF00B19930E
(1547753770.613407) can0 0CFE4947#FFFFFFFFFFFFFFFF
(1547753770.613808) can0 18EA0006#E3FE00
(1547753770.614383) can0 0CFE4347#0000FFFF3FFFFFFF
(1547753770.614982) can0 0CFE4447#0000FFFF3FFFFFFF
(1547753770.615557) can0 0CFFFE06#5C271D271DFFFFFF
(1547753770.616508) can0 0CF00300#FF0023FF06FFFFFF
(1547753770.617084) can0 0CEFFF00#64062D7DFFFFFFFF
(1547753770.617682) can0 18FEF200#2100FFFFFFFFFFFF
(1547753770.626588) can0 0CF00400#F0FF9D1E1CFFFFFF
(1547753770.631634) can0 0DEF0603#0101FFFFFFFFFFF5
(1547753770.632857) can0 04EF0006#641510F00419930E
(1547753770.636467) can0 0CF00300#FF0024FF06FFFFFF
(1547753770.637034) can0 0CEFFF00#64062F7DFFFFFFFF
(1547753770.637607) can0 18EF0600#640E2900FFFFFFFF
(1547753770.646492) can0 0CF00400#F0FF9D1C1CFFFFFF
(1547753770.650714) can0 18EAFF06#E5FE00
(1547753770.651676) can0 0DEF0603#0101FFFFFFFFFFF5
(1547753770.652960) can0 04EF0006#641511F00419930E
(1547753770.653532) can0 18FEF147#FF0000FFFFFFFFFF
(1547753770.654138) can0 18FEE706#CC0A0000FFFFFFFF
(1547753770.654761) can0 18F00503#7DFFFFFFFFFFFFFF
(1547753770.656460) can0 0CF00300#FF0023FF06FFFFFF
(1547753770.657035) can0 0CEFFF00#64062F7DFFFFFFFF
(1547753770.657584) can0 18EFFF00#64100101D002057D
(1547753770.658190) can0 18FEDF00#8B201CFFFFFFFFFF
(1547753770.659437) can0 18FEE500#CC0A0000FFFFFFFF
(1547753770.659988) can0 1CEC0600#1022000505E3FE00
(1547753770.664566) can0 1CEC0006#110501FFFFE3FE00
(1547753770.666550) can0 0CF00400#F0FF9D281CFFFFFF
(1547753770.671640) can0 0DEF0603#0101FFFFFFFFFFF5
(1547753770.672836) can0 04EF0006#641512F01119930E
(1547753770.676464) can0 0CF00300#FF0023FF06FFFFFF
(1547753770.677036) can0 0CEFFF00#64062D7DFFFFFFFF
(1547753770.677608) can0 18FEEF00#FFFFFF65FFFFFFFA
(1547753770.686515) can0 0CF00400#F0FF9D2C1CFFFFFF
(1547753770.691191) can0 0DEF0647#0104FFFFFFFFFFF1
(1547753770.691886) can0 0DEF0603#0101FFFFFFFFFFF5
(1547753770.693086) can0 04EF0006#641513F01119930E
(1547753770.693635) can0 0CFFFE06#5C271D271DFFFFFF
(1547753770.694215) can0 18FFFB06#0005AFF8FFFFFFFF
(1547753770.696437) can0 0CF00300#FF0023FF06FFFFFF
(1547753770.697035) can0 0CEFFF00#64062C7DFFFFFFFF
(1547753770.706561) can0 0CF00400#F0FF9C241CFFFFFF
(1547753770.711662) can0 0DEF0603#0101FFFFFFFFFFF5
(1547753770.712861) can0 04EF0006#641514F00B19930E
(1547753770.716588) can0 0CF00300#FF0023FF06FFFFFF
(1547753770.717188) can0 0CEFFF00#64062D7DFFFFFFFF
(1547753770.717764) can0 18FEF200#2100FFFFFFFFFFFF
(1547753770.726493) can0 0CF00400#F0FF9D241CFFFFFF
(1547753770.731643) can0 0DEF0603#0101FFFFFFFFFFF5
(1547753770.732836) can0 04EF0006#641515F00B19930E
(1547753770.733437) can0 0CFE4947#FFFFFFFFFFFFFFFF
(1547753770.734019) can0 0CFFFF47#5DFFFFF3FFFFFFFF
(1547753770.734611) can0 0CFE4347#0000FFFF3FFFFFFF
(1547753770.735214) can0 0CFE4447#0000FFFF3FFFFFFF
(1547753770.736462) can0 0CF00300#FF0023FF06FFFFFF
(1547753770.737039) can0 0CEFFF00#64062D7DFFFFFFFF
(1547753770.737612) can0 18EF0600#640E3300FFFFFFFF
(1547753770.746443) can0 0CF00400#F0FF9D221CFFFFFF
(1547753770.751590) can0 0DEF0603#0101FFFFFFFFFFF5
(1547753770.752837) can0 04EF0006#641516F00B19930E
(1547753770.756721) can0 0CF00300#FF0024FF06FFFFFF
(1547753770.757288) can0 0CEFFF00#64062D7DFFFFFFFF
(1547753770.757864) can0 18EFFF00#64100101D002057D
(1547753770.758437) can0 18FEF600#FF003EFF00FFFFFF
(1547753770.759662) can0 1CEB0600#01201CEC6842EAA0
(1547753770.766495) can0 0CF00400#F0FF9D181CFFFFFF
(1547753770.771670) can0 0DEF0603#0101FFFFFFFFFFF5
(1547753770.772887) can0 04EF0006#641517F00419930E
(1547753770.773486) can0 18FEF147#FF0000FFFFFFFFFF
(1547753770.774093) can0 18FFFB06#001BFFFFFFFFFFFF
(1547753770.774688) can0 18F00503#7DFFFFFFFFFFFFFF
(1547753770.776440) can0 0CF00300#FF0024FF06FFFFFF
(1547753770.777041) can0 0CEFFF00#6406307DFFFFFFFF
(1547753770.786494) can0 0CF00400#F0FF9D1A1CFFFFFF
(1547753770.791220) can0 0DEF0647#0104FFFFFFFFFFF1
(1547753770.791816) can0 0DEF0603#0101FFFFFFFFFFF5
(1547753770.793041) can0 04EF0006#641518F00419930E
(1547753770.796491) can0 0CF00300#FF0024FF06FFFFFF
(1547753770.797066) can0 0CEFFF00#64062F7DFFFFFFFF
(1547753770.806593) can0 0CF00400#F0FF9D241CFFFFFF
(1547753770.807165) can0 18FFFA00#022C0000180C0081
(1547753770.811671) can0 0DEF0603#0101FFFFFFFFFFF5
(1547753770.812214) can0 1CEB0600#020FE38D20F17A31
(1547753770.812867) can0 04EF0006#641519F00B19930E
(1547753770.813437) can0 0CFE4947#FFFFFFFFFFFFFFFF
(1547753770.814047) can0 18FE6847#3CFFFFFFFFFFFFFF
(1547753770.814566) can0 0CFE4347#0000FFFF3FFFFFFF
(1547753770.815143) can0 18FFFF06#73FFFFFFFFFFFFFF
(1547753770.815742) can0 0CFE4447#0000FFFF3FFFFFFF
(1547753770.816370) can0 18FFFB06#0005AFF8FFFFFFFF
(1547753770.816892) can0 0CEFFF00#64062D7DFFFFFFFF
(1547753770.817467) can0 0CF00300#FF0023FF06FFFFFF
(1547753770.818071) can0 0CFFFE06#5C271D271DFFFFFF
(1547753770.818609) can0 18FEF200#2100FFFFFFFFFFFF
(1547753770.826421) can0 0CF00400#F0FF9D221CFFFFFF
(1547753770.831671) can0 0DEF0603#0101FFFFFFFFFFF5
(1547753770.832843) can0 04EF0006#64151AF00B19930E
(1547753770.836567) can0 0CF00300#FF0024FF06FFFFFF
(1547753770.837143) can0 0CEFFF00#64062D7DFFFFFFFF
(1547753770.837714) can0 18EF0600#640E3D00FFFFFFFF
(1547753770.838272) can0 18FEF500#C8FFFFFFFF3BFFFF
(1547753770.846669) can0 0CF00400#F0FF9D201CFFFFFF
(1547753770.851643) can0 0DEF0603#0101FFFFFFFFFFF5
(1547753770.852843) can0 04EF0006#64151BF00B19930E
(1547753770.853418) can0 0CFFFF47#5EFFFFFFFFFFFFFF
(1547753770.853996) can0 18FEF147#FF0000FFFFFFFFFF
(1547753770.854592) can0 18FEFC47#FFFFFFFFFFFFFFFF
(1547753770.855194) can0 18EF0047#F220610FFFFFFFFF
(1547753770.855793) can0 18F00647#FFCFFFFFFFFFFFFF
(1547753770.856394) can0 1CFDDF47#FCFFFFFFFFFFFFFF
(1547753770.856896) can0 0CEFFF00#64062D7DFFFFFFFF
(1547753770.857498) can0 0CF00300#FF0024FF06FFFFFF
(1547753770.858069) can0 18EFFF00#64100101D002057D
(1547753770.858647) can0 18F00503#7DFFFFFFFFFFFFFF
(1547753770.859293) can0 1CEB0600#03FAC044FFFF0401
(1547753770.866496) can0 0CF00400#F0FF9D221CFFFFFF
(1547753770.871672) can0 0DEF0603#0101FFFFFFFFFFF5
(1547753770.872869) can0 04EF0006#64151CF00B19930E
(1547753770.876446) can0 0CF00300#FF0024FF06FFFFFF
(1547753770.877019) can0 0CEFFF00#64062D7DFFFFFFFF
(1547753770.877591) can0 18FE6900#E624F426FFFF60FE
(1547753770.884925) can0 1CFFFF17#22FFFF3CFFFFFFFF
(1547753770.886520) can0 0CF00400#F0FF9D1E1CFFFFFF
(1547753770.891223) can0 0DEF0647#0104FFFFFFFFFFF1
(1547753770.891820) can0 0DEF0603#0101FFFFFFFFFFF5
(1547753770.893046) can0 04EF0006#64151DF00419930E
(1547753770.893593) can0 0CFFFE06#5C271D271DFFFFFF
(1547753770.896545) can0 0CF00300#FF0024FF06FFFFFF
(1547753770.897094) can0 0CEFFF00#64062F7DFFFFFFFF
(1547753770.906509) can0 0CF00400#F0FF9D161CFFFFFF
(1547753770.907083) can0 18FEDF00#8B201CFFFFFFFFFF
(1547753770.911532) can0 1CEB0600#04204E0001FAC9FA
(1547753770.912130) can0 0DEF0603#0101FFFFFFFFFFF5
(1547753770.912929) can0 04EF0006#64151EF00919930E
(1547753770.916505) can0 0CF00300#FF0024FF06FFFFFF
(1547753770.917080) can0 0CEFFF00#6406307DFFFFFFFF
(1547753770.917653) can0 18FEF200#2300FFFFFFFFFFFF
(1547753770.926628) can0 0CF00400#F0FF9D201CFFFFFF
(1547753770.931686) can0 0DEF0603#0101FFFFFFFFFFF5
(1547753770.932854) can0 04EF0006#64151FF00B19930E
(1547753770.933454) can0 0CFE4947#FFFFFFFFFFFFFFFF
(1547753770.933984) can0 0CFE4347#0000FFFF3FFFFFFF
(1547753770.934627) can0 0CFE4447#0000FFFF3FFFFFFF
(1547753770.936681) can0 0CF00300#FF0023FF06FFFFFF
(1547753770.937281) can0 0CEFFF00#64062E7DFFFFFFFF
(1547753770.937829) can0 18EF0600#640E4700FFFFFFFF
(1547753770.946500) can0 0CF00400#F0FF9D2C1CFFFFFF
(1547753770.951684) can0 0DEF0603#0101FFFFFFFFFFF5
(1547753770.952857) can0 04EF0006#641510F01119930E
(1547753770.956480) can0 0CF00300#FF0023FF06FFFFFF
(1547753770.957057) can0 0CEFFF00#64062C7DFFFFFFFF
(1547753770.957629) can0 18EFFF00#64100101D102057D
(1547753770.959055) can0 1CEB0600#05C05D0000FFFFFF
(1547753770.966509) can0 0CF00400#F0FF9C261CFFFFFF
(1547753770.969557) can0 1CEC0006#13220005FFE3FE00
(1547753770.971785) can0 0DEF0603#0101FFFFFFFFFFF5
(1547753770.972956) can0 04EF0006#641511F00B19930E
(1547753770.973530) can0 18FEF147#FF0000FFFFFFFFFF
(1547753770.974137) can0 18FFFB06#000586F8FFFFFFFF
(1547753770.974730) can0 18F00503#7DFFFFFFFFFFFFFF
(1547753770.976483) can0 0CF00300#FF0023FF06FFFFFF
(1547753770.977058) can0 0CEFFF00#64062D7DFFFFFFFF
(1547753770.986563) can0 0CF00400#F0FF9D221CFFFFFF
(1547753770.991211) can0 0DEF0647#0104FFFFFFFFFFF1
