(1547753658.443668) can0 18EEFF47#4D74300400340220
(1547753658.444242) can0 18EEFF06#4D743004000E0020
(1547753658.444816) can0 18EEFF03#4D74300400030220
(1547753658.468594) can0 18EEFF00#56F5290400000220
(1547753658.470790) can0 0CF00400#F0FF000000FFFFFF
(1547753658.471213) can0 18EAFF00#00EE00
(1547753658.480691) can0 0CF00300#FF0000FF00FFFFFF
(1547753658.481264) can0 0CEFFF00#6406007DFFFFFFFF
(1547753658.481862) can0 18FEF200#0000FFFFFFFFFFFF
(1547753658.490917) can0 0CF00400#F0FF7D0000FFFFFF
(1547753658.500790) can0 0CF00300#FF0000FF06FFFFFF
(1547753658.501365) can0 0CEFFF00#6406007DFFFFFFFF
(1547753658.501963) can0 18EF0600#640E0302FFFFFFFF
(1547753658.510841) can0 0CF00400#F0FF7D0000FFFFFF
(1547753658.520841) can0 0CF00300#FF0000FF06FFFFFF
(1547753658.521414) can0 0CEFFF00#6406007DFFFFFFFF
(1547753658.521990) can0 18EFFF00#64100B0B0000007D
(1547753658.522564) can0 18FEDF00#7D001DFFFFFFFFFF
(1547753658.523138) can0 1CECFF00#20220005FFE3FE00
(1547753658.530815) can0 0CF00400#F0FF7D0000FFFFFF
(1547753658.540793) can0 0CF00300#FF0000FF06FFFFFF
(1547753658.541391) can0 0CEFFF00#6406007DFFFFFFFF
(1547753658.541965) can0 18FEEF00#FFFFFFFEFFFFFFFA
(1547753658.550842) can0 0CF00400#F0FF7D0000FFFFFF
(1547753658.560793) can0 0CF00300#FF0000FF06FFFFFF
(1547753658.561392) can0 0CEFFF00#6406007DFFFFFFFF
(1547753658.570869) can0 0CF00400#F0FF7D0000FFFFFF
(1547753658.573993) can0 1CEBFF00#01201CDD6842DCA0
(1547753658.580844) can0 0CF00300#FF0000FF06FFFFFF
(1547753658.581443) can0 0CEFFF00#6406007DFFFFFFFF
(1547753658.582017) can0 18FEF200#0000FFFFFFFFFFFF
(1547753658.590870) can0 0CF00400#F0FF7D0000FFFFFF
(1547753658.600820) can0 0CF00300#FF0000FF06FFFFFF
(1547753658.601393) can0 0CEFFF00#6406007DFFFFFFFF
(1547753658.601966) can0 18EF0600#640E0D02FFFFFFFF
(1547753658.610845) can0 0CF00400#F0FF7D0000FFFFFF
(1547753658.620820) can0 0CF00300#FF0000FF06FFFFFF
(1547753658.621394) can0 0CEFFF00#6406007DFFFFFFFF
(1547753658.621945) can0 18EFFF00#64100B0B0000007D
(1547753658.622544) can0 18FEF600#FF0045FF00FFFFFF
(1547753658.623117) can0 1CEBFF00#020FD58D20E37A31
(1547753658.630857) can0 0CF00400#F0FF7D0000FFFFFF
(1547753658.640821) can0 18EFFA00#6401FF0000FFFFFF
(1547753658.641394) can0 0CEFFF00#6406007DFFFFFFFF
(1547753658.641993) can0 0CF00300#FF0000FF06FFFFFF
(1547753658.650857) can0 0CF00400#F0FF7D0000FFFFFF
(1547753658.660846) can0 0CF00300#FF0000FF06FFFFFF
(1547753658.661421) can0 0CEFFF00#6406007DFFFFFFFF
(1547753658.670871) can0 0CF00400#F0FF7D0000FFFFFF
(1547753658.674072) can0 1CEBFF00#03F1C044FFFF0401
(1547753658.680847) can0 0CF00300#FF0000FF07FFFFFF
(1547753658.681447) can0 0CEFFF00#6406007DFFFFFFFF
(1547753658.682020) can0 18FEF200#0000FFFFFFFFFFFF
(1547753658.690873) can0 0CF00400#F0FF7D0000FFFFFF
(1547753658.700846) can0 0CF00300#FF0000FF06FFFFFF
(1547753658.701424) can0 0CEFFF00#6406007DFFFFFFFF
(1547753658.701995) can0 18EF0600#640E1706FFFFFFFF
(1547753658.705047) can0 0DEF0603#0101FFFFFFFFFFF5
(1547753658.705596) can0 04EF0006#641510F00000930E
(1547753658.706172) can0 0C000006#30FFFFFFF8FFFFFF
(1547753658.710873) can0 0CF00400#F0FF7D0000FFFFFF
(1547753658.720822) can0 0CF00300#FF0000FF06FFFFFF
(1547753658.721423) can0 0CEFFF00#6406007DFFFFFFFF
(1547753658.721971) can0 18EEFF00#56F5290400000220
(1547753658.722547) can0 18EFFF00#64100B0B0000007D
(1547753658.723120) can0 1CEBFF00#04204E0001FAC9FA
(1547753658.724933) can0 0DEF0647#0104FFFFFFFFFFF1
(1547753658.725547) can0 0DEF0603#0101FFFFFFFFFFF5
(1547753658.726121) can0 04EF0006#641510F00000930E
(1547753658.726658) can0 0CFFFE06#5C271D271DFFFFFF
(1547753658.727258) can0 18FFFB06#00057DF8FFFFFFFF
(1547753658.727655) can0 18EAFF47#00EE00
(1547753658.730859) can0 0CF00400#F0FF7D0000FFFFFF
(1547753658.740847) can0 0CF00300#FF0000FF06FFFFFF
(1547753658.741423) can0 0CEFFF00#6406007DFFFFFFFF
(1547753658.741998) can0 18FEEE00#4C42FFFFFFFFFFFF
(1547753658.745049) can0 0DEF0603#0101FFFFFFFFFFF5
(1547753658.745597) can0 04EF0006#641510F00000930E
(1547753658.750899) can0 0CF00400#F0FF7D0000FFFFFF
(1547753658.760848) can0 0CF00300#FF0000FF06FFFFFF
(1547753658.761424) can0 0CEFFF00#6406007DFFFFFFFF
(1547753658.765051) can0 0DEF0603#0101FFFFFFFFFFF5
(1547753658.765598) can0 04EF0006#641510F00000930E
(1547753658.766173) can0 0CFE4947#FFFFFFFFFFFFFFFF
(1547753658.766750) can0 0CFE4347#FFFFFFFFFFFFFFFF
(1547753658.767374) can0 0CFE4447#0000FFFF3FFFFFFF
(1547753658.770876) can0 0CF00400#F0FF7D0000FFFFFF
(1547753658.771450) can0 18FEDF00#7D261DFFFFFFFFFF
(1547753658.774311) can0 18EEFF00#56F5290400000220
(1547753658.774898) can0 1CEBFF00#05C05D0000FFFFFF
(1547753658.780860) can0 0CF00300#FF0000FF06FFFFFF
(1547753658.781449) can0 0CEFFF00#6406007DFFFFFFFF
(1547753658.782023) can0 18FEF200#0000FFFFFFFFFFFF
(1547753658.785050) can0 0DEF0603#0101FFFFFFFFFFF5
(1547753658.785600) can0 04EF0006#641510F00000930E
(1547753658.790877) can0 0CF00400#F0FF7D0000FFFFFF
(1547753658.800826) can0 0CF00300#FF0000FF07FFFFFF
(1547753658.801401) can0 0CEFFF00#6406007DFFFFFFFF
(1547753658.801973) can0 18EF0600#640E2100FFFFFFFF
(1547753658.805029) can0 0DEF0603#0101FFFFFFFFFFF5
(1547753658.805600) can0 04EF0006#641510F00000A90E
(1547753658.806175) can0 0CFFFE06#5C531D531DFFFFFF
(1547753658.806750) can0 18FEF147#FF0000FFFFFFFFFF
(1547753658.807350) can0 18F00503#FFFFFFFFFFFFFFFF
(1547753658.810888) can0 0CF00400#F0FF7D0000FFFFFF
(1547753658.820836) can0 0CF00300#FF0000FF07FFFFFF
(1547753658.821426) can0 0CEFFF00#6406007DFFFFFFFF
(1547753658.822000) can0 18EFFF00#64100B0B0000007D
(1547753658.822547) can0 18FEF700#FFFFFFFFFFFFA700
(1547753658.824936) can0 0DEF0647#0104FFFFFFFFFFF1
(1547753658.825551) can0 0DEF0603#0101FFFFFFFFFFF5
(1547753658.826099) can0 04EF0006#641510F00000A90E
(1547753658.830902) can0 0CF00400#F0FF7D0000FFFFFF
(1547753658.840851) can0 0CF00300#FF0000FF07FFFFFF
(1547753658.841426) can0 0CEFFF00#6406007DFFFFFFFF
(1547753658.845053) can0 0DEF0603#0101FFFFFFFFFFF5
(1547753658.845626) can0 04EF0006#641510F00000A90E
(1547753658.846227) can0 0CFE4947#FFFFFFFFFFFFFFFF
(1547753658.846776) can0 0CFE4347#FFFFFFFFFFFFFFFF
(1547753658.847376) can0 0CFE4447#0000FFFF3FFFFFFF
(1547753658.850902) can0 0CF00400#F0FF7D0000FFFFFF
(1547753658.860828) can0 0CF00300#FF0000FF06FFFFFF
(1547753658.861403) can0 0CEFFF00#6406007DFFFFFFFF
(1547753658.865053) can0 0DEF0603#0101FFFFFFFFFFF5
(1547753658.865579) can0 04EF0006#641510F00000930E
(1547753658.870879) can0 0CF00400#F0FF7D0000FFFFFF
(1547753658.873653) can0 18EEFF47#4D74300400340220
(1547753658.874235) can0 18EEFF06#4D743004000E0020
(1547753658.874806) can0 18EEFF03#4D74300400030220
(1547753658.880875) can0 0CF00300#FF0000FF07FFFFFF
(1547753658.881451) can0 0CEFFF00#6406007DFFFFFFFF
(1547753658.882025) can0 18FEF200#0000FFFFFFFFFFFF
(1547753658.885051) can0 0DEF0603#0101FFFFFFFFFFF5
(1547753658.885600) can0 04EF0006#641510F00000A90E
(1547753658.886149) can0 0CFFFE06#5C531D531DFFFFFF
(1547753658.886737) can0 18FEF147#FF0000FFFFFFFFFF
(1547753658.887339) can0 18F00503#FFFFFFFFFFFFFFFF
(1547753658.890862) can0 0CF00400#F0FF7D0000FFFFFF
(1547753658.900853) can0 0CF00300#FF0000FF06FFFFFF
(1547753658.901430) can0 0CEFFF00#6406007DFFFFFFFF
(1547753658.902029) can0 18EF0600#640E2B00FFFFFFFF
(1547753658.905077) can0 0DEF0603#0101FFFFFFFFFFF5
(1547753658.905627) can0 04EF0006#641510F00000930E
(1547753658.910929) can0 0CF00400#F0FF7D8403FFFFFF
(1547753658.920882) can0 0CF00300#FF0000FF06FFFFFF
(1547753658.921452) can0 0CEFFF00#6406FB7CFFFFFFFF
(1547753658.922049) can0 18EFFF00#641000000000007D
(1547753658.922627) can0 18FED500#FFFFFCFFFFFFFFFF
(1547753658.925327) can0 0DEF0647#0104FFFFFFFFFFF1
(1547753658.925927) can0 0DEF0603#0101FFFFFFFFFFF5
(1547753658.926802) can0 04EF0006#641510F00000930E
(1547753658.927352) can0 0CFFFE06#5C271D271DFFFFFF
(1547753658.930929) can0 0CF00400#F0FF7D8805FFFFFF
(1547753658.940903) can0 0CF00300#FF0000FF06FFFFFF
(1547753658.941478) can0 0CEFFF00#6406F77CFFFFFFFF
(1547753658.945428) can0 0DEF0603#0101FFFFFFFFFFF5
(1547753658.946653) can0 04EF0006#641510F00000930E
(1547753658.950928) can0 0CF00400#F0FF7D9205FFFFFF
(1547753658.960903) can0 0CF00300#FF0000FF06FFFFFF
(1547753658.961478) can0 0CEFFF00#6406F77CFFFFFFFF
(1547753658.962076) can0 18FDB300#FFFF0E28FFFFFFFF
(1547753658.965404) can0 0DEF0603#0101FFFFFFFFFFF5
(1547753658.966653) can0 04EF0006#641510F00000930E
(1547753658.967229) can0 0CFE4947#FFFFFFFFFFFFFFFF
(1547753658.967803) can0 0CFE4347#FFFFFFFFFFFFFFFF
(1547753658.968429) can0 0CFE4447#0000FFFF3FFFFFFF
(1547753658.970929) can0 0CF00400#F0FF7D9205FFFFFF
(1547753658.980929) can0 0CF00300#FF0000FF06FFFFFF
(1547753658.981504) can0 0CEFFF00#6406F77CFFFFFFFF
(1547753658.982103) can0 18FEF200#0000FFFFFFFFFFFF
(1547753658.985429) can0 0DEF0603#0101FFFFFFFFFFF5
(1547753658.986654) can0 04EF0006#641510F00000930E
(1547753658.990929) can0 0CF00400#F0FF7D9205FFFFFF
(1547753659.000905) can0 0CF00300#FF0000FF06FFFFFF
(1547753659.001480) can0 0CEFFF00#6406F77CFFFFFFFF
(1547753659.002054) can0 18EF0600#640E3500FFFFFFFF
(1547753659.005430) can0 0DEF0603#0101FFFFFFFFFFF5
(1547753659.006655) can0 04EF0006#641510F00000930E
(1547753659.007230) can0 18FEF147#FF0000FFFFFFFFFF
(1547753659.007828) can0 18F00503#FFFFFFFFFFFFFFFF
(1547753659.010930) can0 0CF00400#F0FF7D9205FFFFFF
(1547753659.020880) can0 0CF00300#FF0000FF06FFFFFF
(1547753659.021455) can0 0CEFFF00#6406F77CFFFFFFFF
(1547753659.022053) can0 18EFFF00#641000000000007D
(1547753659.022631) can0 18FEDF00#80261DFFFFFFFFFF
(1547753659.025330) can0 0DEF0647#0104FFFFFFFFFFF1
(1547753659.025929) can0 0DEF0603#0101FFFFFFFFFFF5
(1547753659.027155) can0 04EF0006#641510F00000930E
(1547753659.030931) can0 0CF00400#F0FF7D9205FFFFFF
(1547753659.040906) can0 0CF00300#FF0000FF07FFFFFF
(1547753659.041481) can0 0CEFFF00#6406F77CFFFFFFFF
(1547753659.042055) can0 18FEEF00#FFFFFF1AFFFFFFFA
(1547753659.045706) can0 0DEF0603#0101FFFFFFFFFFF5
(1547753659.046932) can0 04EF0006#641510F00000A90E
(1547753659.047507) can0 0CFE4947#FFFFFFFFFFFFFFFF
(1547753659.048106) can0 0CFFFF47#5DFFFFF3FFFFFFFF
(1547753659.050979) can0 0CF00400#F0FF7D0805FFFFFF
(1547753659.060907) can0 0CF00300#FF0000FF07FFFFFF
(1547753659.061482) can0 0CEFFF00#6406F87CFFFFFFFF
(1547753659.070957) can0 0CF00400#F0FF7D0605FFFFFF
(1547753659.080933) can0 0CF00300#FF0000FF06FFFFFF
(1547753659.081533) can0 0CEFFF00#6406F87CFFFFFFFF
(1547753659.082107) can0 18FEF200#0000FFFFFFFFFFFF
(1547753659.090933) can0 0CF00400#F0FF7D0605FFFFFF
(1547753659.100933) can0 0CF00300#FF0000FF06FFFFFF
(1547753659.101508) can0 0CEFFF00#6406F87CFFFFFFFF
(1547753659.102082) can0 18EF0600#640E3F00FFFFFFFF
(1547753659.110933) can0 0CF00400#F0FF7D0605FFFFFF
(1547753659.120896) can0 0CF00300#FF0000FF07FFFFFF
(1547753659.121484) can0 0CEFFF00#6406F87CFFFFFFFF
(1547753659.122082) can0 18EFFF00#641000000000007D
(1547753659.122659) can0 18FEF600#FF0041FF00FFFFFF
(1547753659.130959) can0 0CF00400#F0FF7D0206FFFFFF
(1547753659.140910) can0 0CF00300#FF0000FF06FFFFFF
(1547753659.141485) can0 0CEFFF00#6406F77CFFFFFFFF
(1547753659.150936) can0 0CF00400#F0FF7D9006FFFFFF
(1547753659.160910) can0 0CF00300#FF0000FF07FFFFFF
(1547753659.161487) can0 0CEFFF00#6406F67CFFFFFFFF
(1547753659.170960) can0 0CF00400#F0FF7D9406FFFFFF
(1547753659.171561) can0 18FFFA00#022C0000180C0000
(1547753659.180962) can0 0CF00300#FF0000FF07FFFFFF
(1547753659.181537) can0 0CEFFF00#6406F67CFFFFFFFF
(1547753659.182110) can0 18FEF200#0000FFFFFFFFFFFF
(1547753659.190937) can0 0CF00400#F0FF7D9406FFFFFF
(1547753659.200913) can0 0CF00300#FF0000FF06FFFFFF
(1547753659.201487) can0 0CEFFF00#6406F67CFFFFFFFF
(1547753659.202060) can0 18EF0600#640E4900FFFFFFFF
(1547753659.202637) can0 18FEF500#C8FFFFFFFF3CFFFF
(1547753659.210988) can0 0CF00400#F0FF7D9406FFFFFF
(1547753659.220939) can0 0CF00300#FF0000FF06FFFFFF
(1547753659.221513) can0 0CEFFF00#6406F67CFFFFFFFF
(1547753659.222111) can0 18EFFF00#641000000000007D
(1547753659.230939) can0 0CF00400#F0FF7D9406FFFFFF
(1547753659.240914) can0 0CF00300#FF0000FF07FFFFFF
(1547753659.241501) can0 0CEFFF00#6406F67CFFFFFFFF
(1547753659.242062) can0 18FE6900#4225AC26FFFF60FE
(1547753659.250964) can0 0CF00400#F0FF7D6404FFFFFF
(1547753659.260890) can0 0CF00300#FF0000FF06FFFFFF
(1547753659.261464) can0 0CEFFF00#6406F97CFFFFFFFF
(1547753659.270941) can0 0CF00400#F0FF7D4804FFFFFF
(1547753659.271540) can0 18FEDF00#80041DFFFFFFFFFF
(1547753659.280940) can0 0CF00300#FF0000FF06FFFFFF
(1547753659.281515) can0 0CEFFF00#6406F97CFFFFFFFF
(1547753659.282113) can0 18FEF200#0000FFFFFFFFFFFF
(1547753659.290941) can0 0CF00400#F0FF7D4804FFFFFF
(1547753659.300916) can0 0CF00300#FF0000FF07FFFFFF
(1547753659.301491) can0 0CEFFF00#6406F97CFFFFFFFF
(1547753659.302088) can0 18EF0600#640E5306FFFFFFFF
(1547753659.310967) can0 0CF00400#F0FF7DF808FFFFFF
(1547753659.320917) can0 0CF00300#FF0000FF07FFFFFF
(1547753659.321491) can0 0CEFFF00#6406F27CFFFFFFFF
(1547753659.322089) can0 18EFFF00#641000000000007D
(1547753659.330992) can0 0CF00400#FEFF7D4607FFFFFF
(1547753659.340944) can0 0CF00300#FF0064FF06FFFFFF
(1547753659.341517) can0 0CEFFF00#64068C7DFFFFFFFF
(1547753659.350946) can0 0CF00400#FEFFB7A606FFFFFF
(1547753659.360944) can0 0CF00300#FF0064FF06FFFFFF
(1547753659.361518) can0 0CEFFF00#64068C7DFFFFFFFF
(1547753659.362091) can0 18FD7C00#F880F0F000CF03FC
(1547753659.370995) can0 0CF00400#FEFFB7E805FFFFFF
(1547753659.381020) can0 0CF00300#FF0064FF06FFFFFF
(1547753659.381569) can0 0CEFFF00#64068C7DFFFFFFFF
(1547753659.382167) can0 18FEF200#1700FFFFFFFFFFFF
(1547753659.390995) can0 0CF00400#FEFFB62005FFFFFF
(1547753659.400944) can0 0CF00300#FF0064FF06FFFFFF
(1547753659.401520) can0 0CEFFF00#64068C7DFFFFFFFF
(1547753659.402092) can0 18EF0600#640E5D06FFFFFFFF
(1547753659.410970) can0 0CF00400#FEFFB6B205FFFFFF
(1547753659.420995) can0 0CF00300#FF0064FF06FFFFFF
(1547753659.421570) can0 0CEFFF00#64068C7DFFFFFFFF
(1547753659.422169) can0 18EFFF00#641000000000007D
(1547753659.430996) can0 0CF00400#FEFFB6DC06FFFFFF
(1547753659.440946) can0 0CF00300#FF0064FF06FFFFFF
(1547753659.441521) can0 0CEFFF00#64068C7DFFFFFFFF
(1547753659.450997) can0 0CF00400#FEFFB77207FFFFFF
(1547753659.460947) can0 0CF00300#FF0064FF06FFFFFF
(1547753659.461521) can0 0CEFFF00#64068C7DFFFFFFFF
(1547753659.462094) can0 18FDB300#FFFF0E28FFFFFFFF
(1547753659.462696) can0 1CEFFF00#64070000FFFFFFFF
(1547753659.471023) can0 0CF00400#FEFFB77A07FFFFFF
(1547753659.480998) can0 0CF00300#FF0064FF06FFFFFF
(1547753659.481572) can0 0CEFFF00#64068C7DFFFFFFFF
(1547753659.482171) can0 18FEF200#1E00FFFFFFFFFFFF
(1547753659.491049) can0 0CF00400#FEFFB74C07FFFFFF
(1547753659.501074) can0 0CF00300#FF0064FF07FFFFFF
(1547753659.501673) can0 0CEFFF00#64068C7DFFFFFFFF
(1547753659.502249) can0 18EF0600#640E6706FFFFFFFF
(1547753659.511024) can0 0CF00400#FEFFB7FC06FFFFFF
(1547753659.521000) can0 0CF00300#FF0064FF06FFFFFF
(1547753659.521573) can0 0CEFFF00#64068C7DFFFFFFFF
(1547753659.522172) can0 18EFFF00#641000000000007D
(1547753659.522748) can0 18FEDF00#81201CFFFFFFFFFF
(1547753659.531024) can0 0CF00400#FEFFB7C006FFFFFF
(1547753659.540976) can0 0CF00300#FF0064FF06FFFFFF
(1547753659.541550) can0 0CEFFF00#64068C7DFFFFFFFF
(1547753659.542124) can0 18FEEF00#FFFFFF44FFFFFFFA
(1547753659.551025) can0 0CF00400#FEFFB73606FFFFFF
(1547753659.560951) can0 0CF00300#FF0064FF06FFFFFF
(1547753659.561526) can0 0CEFFF00#64068C7DFFFFFFFF
(1547753659.571052) can0 0CF00400#FEFFB75E05FFFFFF
(1547753659.581026) can0 0CF00300#FF0064FF07FFFFFF
(1547753659.581601) can0 0CEFFF00#64068C7DFFFFFFFF
(1547753659.582200) can0 18FEF200#1500FFFFFFFFFFFF
(1547753659.591026) can0 0CF00400#FEFFB62405FFFFFF
(1547753659.601003) can0 0CF00300#FF0064FF06FFFFFF
(1547753659.601577) can0 0CEFFF00#64068C7DFFFFFFFF
(1547753659.602150) can0 18EF0600#640E7106FFFFFFFF
(1547753659.611028) can0 0CF00400#FEFFB62809FFFFFF
(1547753659.621002) can0 0CF00300#FF0064FF07FFFFFF
(1547753659.621579) can0 0CEFFF00#64068C7DFFFFFFFF
(1547753659.622150) can0 18EFFF00#641000000000007D
(1547753659.622728) can0 18FEF600#FF0040FF00FFFFFF
(1547753659.631054) can0 0CF00400#FEFFB9DE0BFFFFFF
(1547753659.640954) can0 18EFFA00#6401FF0000FFFFFF
(1547753659.641553) can0 0CEFFF00#64068C7DFFFFFFFF
(1547753659.642126) can0 0CF00300#FF0064FF07FFFFFF
(1547753659.651055) can0 0CF00400#FEFFBA4E0CFFFFFF
(1547753659.661030) can0 0CF00300#FF0064FF06FFFFFF
(1547753659.661604) can0 0CEFFF00#64068C7DFFFFFFFF
(1547753659.671054) can0 0CF00400#FEFFBBEE0BFFFFFF
(1547753659.681081) can0 0CF00300#FF0064FF07FFFFFF
(1547753659.681629) can0 0CEFFF00#64068C7DFFFFFFFF
(1547753659.682255) can0 18FEF200#3300FFFFFFFFFFFF
(1547753659.691255) can0 0CF00400#FEFFBA480AFFFFFF
(1547753659.701032) can0 0CF00300#FF0064FF06FFFFFF
(1547753659.701580) can0 0CEFFF00#64068C7DFFFFFFFF
(1547753659.702179) can0 18EF0600#640E7B06FFFFFFFF
(1547753659.711032) can0 0CF00400#FEFFB9400AFFFFFF
(1547753659.721032) can0 0CF00300#FF0064FF06FFFFFF
(1547753659.721606) can0 0CEFFF00#64068C7DFFFFFFFF
(1547753659.722203) can0 18EFFF00#641000000000007D
(1547753659.731057) can0 0CF00400#FEFFB9AC0EFFFFFF
(1547753659.741007) can0 0CF00300#FF0064FF06FFFFFF
(1547753659.741581) can0 0CEFFF00#64068C7DFFFFFFFF
(1547753659.742155) can0 18FEEE00#4C42FFFFFFFFFFFF
(1547753659.751083) can0 0CF00400#FEFFBCD40EFFFFFF
(1547753659.761008) can0 0CF00300#FF0064FF06FFFFFF
(1547753659.761583) can0 0CEFFF00#64068C7DFFFFFFFF
(1547753659.771034) can0 0CF00400#FEFFBCF00EFFFFFF
(1547753659.771608) can0 18FEDF00#85201CFFFFFFFFFF
(1547753659.781159) can0 0CF00300#FF0064FF06FFFFFF
(1547753659.781733) can0 0CEFFF00#64068C7DFFFFFFFF
(1547753659.782283) can0 18FEF200#4200FFFFFFFFFFFF
(1547753659.791035) can0 0CF00400#FEFFBC500DFFFFFF
(1547753659.801010) can0 0CF00300#FF0064FF06FFFFFF
(1547753659.801585) can0 0CEFFF00#64068C7DFFFFFFFF
(1547753659.802158) can0 18EF0600#640E8506FFFFFFFF
(1547753659.811085) can0 0CF00400#FEFFBBB010FFFFFF
(1547753659.820963) can0 0CF00300#FF0064FF07FFFFFF
(1547753659.821560) can0 0CEFFF00#64068C7DFFFFFFFF
(1547753659.822157) can0 18EFFF00#641000000000007D
(1547753659.822734) can0 18FEF700#FFFFFFFFFFFFCB00
(1547753659.831060) can0 0CF00400#FEFFBDB611FFFFFF
(1547753659.841111) can0 0CF00300#FF0064FF06FFFFFF
(1547753659.841686) can0 0CEFFF00#64068C7DFFFFFFFF
(1547753659.851035) can0 0CF00400#FEFFBE7210FFFFFF
(1547753659.861036) can0 0CF00300#FF0064FF06FFFFFF
(1547753659.861611) can0 0CEFFF00#64068C7DFFFFFFFF
(1547753659.871062) can0 0CF00400#FEFFBD5211FFFFFF
(1547753659.881061) can0 0CF00300#FF0064FF06FFFFFF
(1547753659.881637) can0 0CEFFF00#64068C7DFFFFFFFF
(1547753659.882210) can0 18FEF200#4D00FFFFFFFFFFFF
(1547753659.891039) can0 0CF00400#FEFFBE4012FFFFFF
(1547753659.901038) can0 0CF00300#FF0064FF07FFFFFF
(1547753659.901613) can0 0CEFFF00#64068C7DFFFFFFFF
(1547753659.902186) can0 18EF0600#640E8F06FFFFFFFF
(1547753659.911164) can0 0CF00400#FEFFBE0A13FFFFFF
(1547753659.921214) can0 0CF00300#FF0064FF06FFFFFF
(1547753659.921787) can0 0CEFFF00#64068C7DFFFFFFFF
(1547753659.922413) can0 18EFFF00#641000000000007D
(1547753659.922990) can0 18FED500#FFFFFCFFFFFFFFFF
(1547753659.931092) can0 0CF00400#FEFFBF0814FFFFFF
(1547753659.941069) can0 0CF00300#FF0064FF07FFFFFF
(1547753659.941641) can0 0CEFFF00#64068C7DFFFFFFFF
(1547753659.951094) can0 0CF00400#FEFFBFEE14FFFFFF
(1547753659.961016) can0 0CF00300#FF0064FF06FFFFFF
(1547753659.961591) can0 0CEFFF00#64068C7DFFFFFFFF
(1547753659.962191) can0 18FDB300#FFFF0E28FFFFFFFF
(1547753659.971148) can0 0CF00400#FEFFBFC415FFFFFF
(1547753659.981077) can0 0CF00300#FF0064FF06FFFFFF
(1547753659.981647) can0 0CEFFF00#64068C7DFFFFFFFF
(1547753659.982246) can0 18FEF200#6400FFFFFFFFFFFF
(1547753659.991076) can0 0CF00400#FEFFBFD816FFFFFF
(1547753660.001074) can0 0CF00300#FF0064FF06FFFFFF
(1547753660.001648) can0 0CEFFF00#64068D7DFFFFFFFF
(1547753660.002223) can0 18EF0600#640E9906FFFFFFFF
(1547753660.011251) can0 0CF00400#FEFFC09A17FFFFFF
(1547753660.021101) can0 0CF00300#FF0064FF06FFFFFF
(1547753660.021675) can0 0CEFFF00#6406907DFFFFFFFF
(1547753660.022299) can0 18EFFF00#641000000000007D
(1547753660.022848) can0 18FEDF00#89201CFFFFFFFFFF
(1547753660.031175) can0 0CF00400#FEFFC17018FFFFFF
(1547753660.041078) can0 0CF00300#FF0064FF07FFFFFF
(1547753660.041649) can0 0CEFFF00#6406927DFFFFFFFF
(1547753660.042224) can0 18FEEF00#FFFFFF5CFFFFFFFA
(1547753660.051127) can0 0CF00400#FEFFC25819FFFFFF
(1547753660.061099) can0 0CF00300#FF0064FF07FFFFFF
(1547753660.061674) can0 0CEFFF00#6406957DFFFFFFFF
(1547753660.071380) can0 0CF00400#FEFFC42E1AFFFFFF
(1547753660.081100) can0 0CF00300#FF0064FF06FFFFFF
(1547753660.081678) can0 0CEFFF00#6406987DFFFFFFFF
(1547753660.082250) can0 18FEF200#7A00FFFFFFFFFFFF
(1547753660.091052) can0 0CF00400#FEFFC5141BFFFFFF
(1547753660.101301) can0 0CF00300#FF0064FF06FFFFFF
(1547753660.101876) can0 0CEFFF00#64069B7DFFFFFFFF
(1547753660.102427) can0 18EF0600#640EA306FFFFFFFF
(1547753660.111179) can0 0CF00400#F8FFC6FE1BFFFFFF
(1547753660.121176) can0 0CF00300#FF0064FF06FFFFFF
(1547753660.121754) can0 0CEFFF00#64069E7DFFFFFFFF
(1547753660.122328) can0 18EFFF00#64100101D602007D
(1547753660.122901) can0 18FEF600#FF003FFF00FFFFFF
(1547753660.131130) can0 0CF00400#F8FFC8D41CFFFFFF
(1547753660.141079) can0 0CF00300#FF0064FF06FFFFFF
(1547753660.141652) can0 0CEFFF00#6406A17DFFFFFFFF
(1547753660.151105) can0 0CF00400#F8FFC90E1DFFFFFF
(1547753660.161254) can0 0CF00300#FF0064FF06FFFFFF
(1547753660.161804) can0 0CEFFF00#6406A27DFFFFFFFF
(1547753660.171033) can0 0CF00400#F8FFCA2A1DFFFFFF
(1547753660.171678) can0 18FFFA00#022C0000180C0081
(1547753660.181104) can0 0CF00300#FF0064FF06FFFFFF
(1547753660.181680) can0 0CEFFF00#6406A27DFFFFFFFF
(1547753660.182256) can0 18FEF200#5500FFFFFFFFFFFF
(1547753660.191106) can0 0CF00400#F8FFCA941DFFFFFF
(1547753660.201455) can0 0CF00300#FF0062FF06FFFFFF
(1547753660.202031) can0 0CEFFF00#6406A27DFFFFFFFF
(1547753660.202608) can0 18EF0600#640EAD06FFFFFFFF
(1547753660.203180) can0 18FEF500#C8FFFFFFFF3CFFFF
(1547753660.211105) can0 0CF00400#F0FFCA0A1EFFFFFF
(1547753660.221081) can0 0CF00300#FF004CFF06FFFFFF
(1547753660.221634) can0 0CEFFF00#64068B7DFFFFFFFF
(1547753660.222206) can0 18EFFF00#641001010403007D
(1547753660.231132) can0 0CF00400#F0FFC1941EFFFFFF
(1547753660.241357) can0 0CF00300#FF002BFF06FFFFFF
(1547753660.241934) can0 0CEFFF00#6406537DFFFFFFFF
(1547753660.242482) can0 18FE6900#0425AE26FFFF60FE
(1547753660.251082) can0 0CF00400#F0FFAC361FFFFFFF
(1547753660.261056) can0 0CF00300#FF000AFF06FFFFFF
(1547753660.261632) can0 0CEFFF00#6406077DFFFFFFFF
(1547753660.271057) can0 0CF00400#F0FF8E8A1FFFFFFF
(1547753660.271658) can0 18FEDF00#8B201CFFFFFFFFFF
(1547753660.281061) can0 0CF00300#FF0000FF06FFFFFF
(1547753660.281658) can0 0CEFFF00#6406DE7CFFFFFFFF
(1547753660.282234) can0 18FEF200#0100FFFFFFFFFFFF
(1547753660.291036) can0 0CF00400#F1FF7FB41FFFFFFF
(1547753660.301064) can0 0CF00300#FF0000FF06FFFFFF
(1547753660.301635) can0 0CEFFF00#6406D97CFFFFFFFF
(1547753660.302208) can0 18EF0600#640EB706FFFFFFFF
(1547753660.311087) can0 0CF00400#F1FF7D721FFFFFFF
(1547753660.320688) can0 18EEFF47#4D74300400340220
(1547753660.321258) can0 0CF00300#FF0000FF06FFFFFF
(1547753660.321836) can0 0CEFFF00#6406D97CFFFFFFFF
(1547753660.322385) can0 18EEFF06#4D743004000E0020
(1547753660.322959) can0 18EFFF00#641001010A03057D
(1547753660.323475) can0 18EEFF03#4D74300400030220
(1547753660.331052) can0 0CF00400#F1FF7D041FFFFFFF
(1547753660.341065) can0 0CF00300#FF0000FF06FFFFFF
(1547753660.341636) can0 0CEFFF00#6406DA7CFFFFFFFF
(1547753660.351054) can0 0CF00400#F1FF7D941EFFFFFF
(1547753660.361116) can0 0CF00300#FF000DFF06FFFFFF
(1547753660.361686) can0 0CEFFF00#6406E47CFFFFFFFF
(1547753660.362215) can0 18FD7C00#F880F1F500CF03FD
(1547753660.371111) can0 0CF00400#F1FF81221EFFFFFF
(1547753660.381088) can0 0CF00300#FF0017FF06FFFFFF
(1547753660.381646) can0 0CEFFF00#6406FE7CFFFFFFFF
(1547753660.382265) can0 18FEF200#0C00FFFFFFFFFFFF
(1547753660.391090) can0 0CF00400#F1FF8BBA1DFFFFFF
(1547753660.391788) can0 18EEFF17#0C6E240400130220
(1547753660.401117) can0 0CF00300#FF001CFF06FFFFFF
(1547753660.401690) can0 0CEFFF00#64060A7DFFFFFFFF
(1547753660.402314) can0 18EF0600#640EC106FFFFFFFF
(1547753660.411142) can0 0CF00400#F1FF8F4E1DFFFFFF
(1547753660.421038) can0 0CF00300#FF001FFF06FFFFFF
(1547753660.421612) can0 0CEFFF00#64061A7DFFFFFFFF
(1547753660.422144) can0 18EFFF00#64100101E302037D
(1547753660.431117) can0 0CF00400#F0FF95081DFFFFFF
(1547753660.441193) can0 0CF00300#FF0050FF06FFFFFF
(1547753660.441765) can0 0CEFFF00#6406747DFFFFFFFF
(1547753660.451342) can0 0CF00400#F0FFB8C61CFFFFFF
(1547753660.461118) can0 0CF00300#FF0055FF06FFFFFF
(1547753660.461692) can0 0CEFFF00#6406807DFFFFFFFF
(1547753660.462265) can0 18FDB300#FFFF1A28FFFFFFFF
(1547753660.462866) can0 1CEFFF00#64070000FFFFFFFF
(1547753660.471092) can0 0CF00400#F0FFBCC01CFFFFFF
(1547753660.481087) can0 0CF00300#FF004DFF07FFFFFF
(1547753660.481686) can0 0CEFFF00#64067E7DFFFFFFFF
(1547753660.482286) can0 18FEF200#4200FFFFFFFFFFFF
(1547753660.491487) can0 0CF00400#F0FFBC281DFFFFFF
(1547753660.501088) can0 0CF00300#FF003CFF06FFFFFF
(1547753660.501663) can0 0CEFFF00#6406637DFFFFFFFF
(1547753660.502287) can0 18EF0600#640ECB06FFFFFFFF
(1547753660.511088) can0 0CF00400#F0FFB1861DFFFFFF
(1547753660.521063) can0 0CF00300#FF002FFF07FFFFFF
(1547753660.521638) can0 0CEFFF00#6406457DFFFFFFFF
(1547753660.522211) can0 18EFFF00#64100101F402037D
(1547753660.522787) can0 18FEDF00#8B201CFFFFFFFFFF
(1547753660.531105) can0 0CF00400#F0FFA6D21DFFFFFF
(1547753660.541082) can0 0CF00300#FF0020FF07FFFFFF
(1547753660.541654) can0 0CEFFF00#64062B7DFFFFFFFF
(1547753660.542229) can0 18FEEF00#FFFFFF65FFFFFFFA
(1547753660.551109) can0 0CF00400#F0FF9C1E1EFFFFFF
(1547753660.561034) can0 0CF00300#FF0015FF06FFFFFF
(1547753660.561605) can0 0CEFFF00#64060D7DFFFFFFFF
(1547753660.571133) can0 0CF00400#F0FF91361EFFFFFF
(1547753660.581059) can0 0CF00300#FF000DFF06FFFFFF
(1547753660.581631) can0 0CEFFF00#6406FB7CFFFFFFFF
(1547753660.582230) can0 0DEF0603#0101FFFFFFFFFFF5
(1547753660.582806) can0 18FEF200#0C00FFFFFFFFFFFF
(1547753660.591059) can0 0CF00400#F1FF8A361EFFFFFF
(1547753660.601057) can0 0CF00300#FF0000FF06FFFFFF
(1547753660.601632) can0 0CEFFF00#6406DA7CFFFFFFFF
(1547753660.602207) can0 0DEF0647#0104FFFFFFFFFFF1
(1547753660.602781) can0 18EF0600#640ED506FFFFFFFF
(1547753660.603340) can0 0DEF0603#0101FFFFFFFFFFF5
(1547753660.603712) can0 18EAFF47#00EE00
(1547753660.604315) can0 0CFFFE06#5CFFFFFFFFFFFFFF
(1547753660.611085) can0 0CF00400#F1FF7D061EFFFFFF
(1547753660.621033) can0 0CF00300#FF0000FF07FFFFFF
(1547753660.621608) can0 0CEFFF00#6406DA7CFFFFFFFF
(1547753660.622181) can0 0DEF0603#0101FFFFFFFFFFF5
(1547753660.622757) can0 18EFFF00#64100101EF02067D
(1547753660.623357) can0 18FEF600#FF003FFF00FFFFFF
(1547753660.623905) can0 18EEFF00#56F5290400000220
(1547753660.631060) can0 0CF00400#F1FF7DCA1DFFFFFF
(1547753660.641036) can0 18EFFA00#6401FF0000FFFFFF
(1547753660.641608) can0 0CEFFF00#6406EA7CFFFFFFFF
(1547753660.642165) can0 0CF00300#FF0012FF06FFFFFF
(1547753660.642741) can0 0DEF0603#0101FFFFFFFFFFF5
(1547753660.643358) can0 0CFE4947#FFFFFFFFFFFFFFFF
(1547753660.643959) can0 0CFE4347#FFFFFFFFFFFFFFFF
(1547753660.644559) can0 0CFE4447#0000FFFF3FFFFFFF
(1547753660.651193) can0 0CF00400#F1FF835A1DFFFFFF
(1547753660.661194) can0 0CF00300#FF0018FF06FFFFFF
(1547753660.661767) can0 0CEFFF00#64060A7DFFFFFFFF
(1547753660.662385) can0 0DEF0603#0101FFFFFFFFFFF5
(1547753660.671039) can0 0CF00400#F1FF8FF81CFFFFFF
(1547753660.672334) can0 18EAFF17#00EE00
(1547753660.681088) can0 0CF00300#FF001FFF07FFFFFF
(1547753660.681639) can0 0CEFFF00#6406157DFFFFFFFF
(1547753660.682285) can0 0DEF0603#0101FFFFFFFFFFF5
(1547753660.682808) can0 18FEF147#FF0000FFFFFFFFFF
(1547753660.683410) can0 18FEF200#1600FFFFFFFFFFFF
(1547753660.683983) can0 18F00503#FFFFFFFFFFFFFFFF
(1547753660.691087) can0 0CF00400#F1FF93B61CFFFFFF
(1547753660.692435) can0 1CFFFF17#22FFFF3CFFFFFFFF
(1547753660.701074) can0 0CF00300#FF0022FF06FFFFFF
(1547753660.701648) can0 0CEFFF00#6406147DFFFFFFFF
(1547753660.702247) can0 0DEF0647#0104FFFFFFFFFFF1
(1547753660.702822) can0 18EF0600#640EDF06FFFFFFFF
(1547753660.703397) can0 0DEF0603#0101FFFFFFFFFFF5
(1547753660.711100) can0 0CF00400#F0FF937A1CFFFFFF
(1547753660.721101) can0 0CF00300#FF003AFF06FFFFFF
(1547753660.721673) can0 0CEFFF00#64064C7DFFFFFFFF
(1547753660.722248) can0 0DEF0603#0101FFFFFFFFFFF5
(1547753660.722806) can0 18EFFF00#64100101DE02037D
(1547753660.723382) can0 0CFE4947#FFFFFFFFFFFFFFFF
(1547753660.723946) can0 18EEFF00#56F5290400000220
(1547753660.724524) can0 0CFE4347#FFFFFFFFFFFFFFFF
(1547753660.725122) can0 0CFE4447#0000FFFF3FFFFFFF
(1547753660.725718) can0 0CFFFE06#5CFFFFFFFFFFFFFF
(1547753660.731108) can0 0CF00400#F0FFA84C1CFFFFFF
(1547753660.741100) can0 0CF00300#FF003CFF06FFFFFF
(1547753660.741674) can0 0CEFFF00#6406507DFFFFFFFF
(1547753660.742301) can0 0DEF0603#0101FFFFFFFFFFF5
(1547753660.742831) can0 18FEEE00#4C42FFFFFFFFFFFF
(1547753660.751220) can0 0CF00400#F0FFAA341CFFFFFF
(1547753660.761144) can0 0CF00300#FF003DFF06FFFFFF
(1547753660.761716) can0 0CEFFF00#6406527DFFFFFFFF
(1547753660.762342) can0 0DEF0603#0101FFFFFFFFFFF5
(1547753660.762881) can0 18FEF147#FF0000FFFFFFFFFF
(1547753660.763447) can0 18F00503#FFFFFFFFFFFFFFFF
(1547753660.771123) can0 0CF00400#F0FFAB2C1CFFFFFF
(1547753660.771741) can0 18FEDF00#8B201CFFFFFFFFFF
(1547753660.781168) can0 0CF00300#FF003CFF06FFFFFF
(1547753660.781741) can0 0CEFFF00#6406537DFFFFFFFF
(1547753660.782347) can0 0DEF0603#0101FFFFFFFFFFF5
(1547753660.782869) can0 18FEF200#3000FFFFFFFFFFFF
(1547753660.791348) can0 0CF00400#F0FFAB5A1CFFFFFF
(1547753660.792408) can0 18EA0017#09FF00
(1547753660.801157) can0 0CF00300#FF0038FF06FFFFFF
(1547753660.801733) can0 0CEFFF00#64064C7DFFFFFFFF
(1547753660.802342) can0 0DEF0647#0104FFFFFFFFFFF1
(1547753660.802888) can0 18EF0600#640EE906FFFFFFFF
(1547753660.803466) can0 0DEF0603#0101FFFFFFFFFFF5
(1547753660.804088) can0 0CFFFE06#5CFFFFFFFFFFFFFF
(1547753660.811141) can0 0CF00400#F0FFA88C1CFFFFFF
(1547753660.821120) can0 0CF00300#FF0034FF06FFFFFF
(1547753660.821693) can0 0CEFFF00#6406457DFFFFFFFF
(1547753660.822220) can0 18EFFF00#64100101E002037D
(1547753660.822795) can0 0DEF0603#0101FFFFFFFFFFF5
(1547753660.823443) can0 18FEF700#FFFFFFFFFFFFED00
(1547753660.823992) can0 04EF0006#641510F00000480D
(1547753660.824593) can0 0C000006#30FFFFFFF8FFFFFF
(1547753660.825164) can0 18FF0900#454355FFFFFFFFFF
(1547753660.831222) can0 0CF00400#F0FFA6BA1CFFFFFF
(1547753660.841172) can0 0CF00300#FF0030FF07FFFFFF
(1547753660.841742) can0 0CEFFF00#64063E7DFFFFFFFF
(1547753660.842473) can0 0DEF0603#0101FFFFFFFFFFF5
(1547753660.843668) can0 04EF0006#641510F00000930E
(1547753660.844242) can0 0CFE4947#FFFFFFFFFFFFFFFF
(1547753660.844817) can0 18FFFB06#0005E1F8FFFFFFFF
(1547753660.845419) can0 0CFE4347#FFFFFFFFFFFFFFFF
(1547753660.846020) can0 0CFE4447#0000FFFF3FFFFFFF
(1547753660.846546) can0 0CFFFE06#5C271D271DFFFFFF
(1547753660.851124) can0 0CF00400#F0FFA3E81CFFFFFF
(1547753660.861118) can0 0CF00300#FF002AFF06FFFFFF
(1547753660.861672) can0 0CEFFF00#6406347DFFFFFFFF
(1547753660.862471) can0 0DEF0603#0101FFFFFFFFFFF5
(1547753660.863667) can0 04EF0006#641510F00000A90E
(1547753660.871218) can0 0CF00400#F0FF9F0E1DFFFFFF
(1547753660.881245) can0 0CF00300#FF0023FF07FFFFFF
(1547753660.881818) can0 0CEFFF00#6406297DFFFFFFFF
(1547753660.882390) can0 18FEF200#2000FFFFFFFFFFFF
(1547753660.882987) can0 0DEF0603#0101FFFFFFFFFFF5
(1547753660.883688) can0 04EF0006#641510F00000930E
(1547753660.884260) can0 0CFFFE06#5C271D271DFFFFFF
(1547753660.884813) can0 18FEF147#FF0000FFFFFFFFFF
(1547753660.885437) can0 18F00503#FFFFFFFFFFFFFFFF
(1547753660.891073) can0 0CF00400#F0FF9B401DFFFFFF
(1547753660.901063) can0 0CF00300#FF001EFF07FFFFFF
(1547753660.901623) can0 0CEFFF00#6406187DFFFFFFFF
(1547753660.902236) can0 18EF0600#640EF300FFFFFFFF
(1547753660.902830) can0 0DEF0647#0104FFFFFFFFFFF1
(1547753660.903429) can0 0DEF0603#0101FFFFFFFFFFF5
(1547753660.904152) can0 04EF0006#641510F00000A90E
(1547753660.911182) can0 0CF00400#F0FF943E1DFFFFFF
(1547753660.921329) can0 0CF00300#FF0000FF06FFFFFF
(1547753660.921904) can0 0CEFFF00#6406167DFFFFFFFF
(1547753660.922408) can0 18EFFF00#64100101E802057D
(1547753660.922999) can0 0DEF0603#0101FFFFFFFFFFF5
(1547753660.923577) can0 18FED500#FFFFFDFFFFFFFFFF
(1547753660.924203) can0 04EF0006#641510F00000A90E
(1547753660.924779) can0 0CFE4947#FFFFFFFFFFFFFFFF
(1547753660.925322) can0 0CFFFF47#5DFFFFF3FFFFFFFF
(1547753660.925922) can0 0CFE4347#0000FFFF3FFFFFFF
(1547753660.926509) can0 0CFE4447#0000FFFF3FFFFFFF
(1547753660.927101) can0 0CFFFE06#5C531D531DFFFFFF
(1547753660.931053) can0 0CF00400#FEFF943C1DFFFFFF
(1547753660.941078) can0 0CF00300#FF0014FF06FFFFFF
(1547753660.941683) can0 0CEFFF00#6406F37CFFFFFFFF
(1547753660.942731) can0 0DEF0603#0101FFFFFFFFFFF5
(1547753660.943930) can0 04EF0006#641510F00000930E
(1547753660.951133) can0 0CF00400#FEFF86261DFFFFFF
(1547753660.961106) can0 0CF00300#FF000EFF07FFFFFF
(1547753660.961680) can0 0CEFFF00#6406087DFFFFFFFF
(1547753660.962257) can0 18FDB300#FFFF0E28FFFFFFFF
(1547753660.962856) can0 0DEF0603#0101FFFFFFFFFFF5
(1547753660.963956) can0 04EF0006#641510F00000930E
(1547753660.964504) can0 0CFFFE06#5C271D271DFFFFFF
(1547753660.965079) can0 18FEF147#FF0000FFFFFFFFFF
(1547753660.965681) can0 18FFFB06#000597F8FFFFFFFF
(1547753660.966248) can0 18F00503#7DFFFFFFFFFFFFFF
(1547753660.971125) can0 0CF00400#FEFF8EFC1CFFFFFF
(1547753660.981122) can0 0CF00300#FF0019FF07FFFFFF
(1547753660.981757) can0 0CEFFF00#6406097DFFFFFFFF
(1547753660.982335) can0 18FEF200#1100FFFFFFFFFFFF
(1547753660.982896) can0 0DEF0603#0101FFFFFFFFFFF5
(1547753660.983922) can0 04EF0006#641510F00000A90E
(1547753660.991159) can0 0CF00400#FEFF8FCC1CFFFFFF
(1547753661.001158) can0 0CF00300#FF0025FF07FFFFFF
(1547753661.001733) can0 0CEFFF00#6406107DFFFFFFFF
(1547753661.002335) can0 18EF0600#640EFD00FFFFFFFF
(1547753661.002903) can0 0DEF0647#0104FFFFFFFFFFF1
(1547753661.003506) can0 0DEF0603#0101FFFFFFFFFFF5
(1547753661.004107) can0 04EF0006#641510F00000A90E
(1547753661.004658) can0 0CFFFE06#5C531D531DFFFFFF
(1547753661.005223) can0 18FFFF06#73FFFFFFFFFFFFFF
(1547753661.005762) can0 18EEFF47#4D74300400340220
(1547753661.006349) can0 18EEFF06#4D743004000E0020
(1547753661.006924) can0 18EEFF17#0C6E240400130220
(1547753661.007506) can0 18EEFF03#4D74300400030220
(1547753661.011227) can0 0CF00400#FEFF91A41CFFFFFF
(1547753661.021156) can0 0CF00300#FF0024FF06FFFFFF
(1547753661.021733) can0 0CEFFF00#64061D7DFFFFFFFF
(1547753661.022307) can0 18EFFF00#64100101DA02057D
(1547753661.022891) can0 0DEF0603#0101FFFFFFFFFFF5
(1547753661.023459) can0 18FEDF00#8B521CFFFFFFFFFF
(1547753661.023996) can0 04EF0006#641510F00000A90E
(1547753661.031125) can0 0CF00400#FEFF967E1CFFFFFF
(1547753661.041160) can0 0CF00300#FF0024FF06FFFFFF
(1547753661.041710) can0 0CEFFF00#64061F7DFFFFFFFF
(1547753661.042250) can0 18FEEF00#FFFFFF64FFFFFFFA
(1547753661.042851) can0 0DEF0603#0101FFFFFFFFFFF5
(1547753661.043958) can0 04EF0006#641510F00000930E
(1547753661.044534) can0 0CFE4947#FFFFFFFFFFFFFFFF
(1547753661.045131) can0 1CFDDF47#FCFFFFFFFFFFFFFF
(1547753661.045709) can0 0CFE4347#0000FFFF3FFFFFFF
(1547753661.046335) can0 0CFE4447#0000FFFF3FFFFFFF
(1547753661.046847) can0 0CFFFE06#5C271D271DFFFFFF
(1547753661.051351) can0 0CF00400#FEFF976A1CFFFFFF
(1547753661.061161) can0 0CF00300#FF002DFF07FFFFFF
(1547753661.061758) can0 0CEFFF00#6406207DFFFFFFFF
(1547753661.062728) can0 0DEF0603#0101FFFFFFFFFFF5
(1547753661.063959) can0 04EF0006#641510F00000930E
(1547753661.071161) can0 0CF00400#F0FF98621CFFFFFF
(1547753661.081136) can0 0CF00300#FF002DFF06FFFFFF
(1547753661.081711) can0 0CEFFF00#6406347DFFFFFFFF
(1547753661.082338) can0 18FEF200#2500FFFFFFFFFFFF
(1547753661.082884) can0 0DEF0603#0101FFFFFFFFFFF5
(1547753661.083959) can0 04EF0006#641510F00000A90E
(1547753661.084535) can0 0CFFFE06#5C531D531DFFFFFF
(1547753661.085110) can0 18FEF147#FF0000FFFFFFFFFF
(1547753661.085709) can0 18F00647#FFCFFFFFFFFFFFFF
(1547753661.086303) can0 18FFFB06#0005A1F8FFFFFFFF
(1547753661.086879) can0 18F00503#7DFFFFFFFFFFFFFF
(1547753661.091202) can0 0CF00400#F0FF9F541CFFFFFF
(1547753661.101212) can0 0CF00300#FF002EFF06FFFFFF
(1547753661.101787) can0 0CEFFF00#6406357DFFFFFFFF
(1547753661.102363) can0 18EF0600#640E0700FFFFFFFF
(1547753661.102933) can0 0DEF0647#0104FFFFFFFFFFF1
(1547753661.103537) can0 0DEF0603#0101FFFFFFFFFFF5
(1547753661.104114) can0 04EF0006#641511F0D018930E
(1547753661.111162) can0 0CF00400#F0FFA0421CFFFFFF
(1547753661.121166) can0 0CF00300#FF0027FF07FFFFFF
(1547753661.121736) can0 0CEFFF00#6406377DFFFFFFFF
(1547753661.122303) can0 18EFFF00#64100101D602037D
(1547753661.122855) can0 0DEF0603#0101FFFFFFFFFFF5
(1547753661.123446) can0 18FEF600#FF003EFF00FFFFFF
(1547753661.124011) can0 04EF0006#641512F07319930E
(1547753661.124588) can0 0CFE4947#FFFFFFFFFFFFFFFF
(1547753661.125183) can0 0CFE4347#0000FFFF3FFFFFFF
(1547753661.125753) can0 0CFE4447#0000FFFF3FFFFFFF
(1547753661.126332) can0 0CFFFE06#5C271D271DFFFFFF
(1547753661.131259) can0 0CF00400#F0FFA0541CFFFFFF
(1547753661.141259) can0 0CF00300#FF0025FF07FFFFFF
(1547753661.141864) can0 0CEFFF00#6406347DFFFFFFFF
(1547753661.142729) can0 0DEF0603#0101FFFFFFFFFFF5
(1547753661.143938) can0 04EF0006#641513F0D018A90E
(1547753661.151195) can0 0CF00400#F0FF9F721CFFFFFF
(1547753661.161191) can0 0CF00300#FF0024FF06FFFFFF
(1547753661.161763) can0 0CEFFF00#64062F7DFFFFFFFF
(1547753661.162739) can0 0DEF0603#0101FFFFFFFFFFF5
(1547753661.163937) can0 04EF0006#641514F0C718A90E
(1547753661.164513) can0 0CFFFE06#5C531D531DFFFFFF
(1547753661.165086) can0 18FEF147#FF0000FFFFFFFFFF
(1547753661.165687) can0 18F00503#7DFFFFFFFFFFFFFF
(1547753661.171165) can0 0CF00400#F0FF9D781CFFFFFF
(1547753661.171739) can0 18FFFA00#022C0000180C0081
(1547753661.181190) can0 0CF00300#FF0023FF06FFFFFF
(1547753661.181713) can0 0CEFFF00#64062E7DFFFFFFFF
(1547753661.182341) can0 18FEF200#2300FFFFFFFFFFFF
(1547753661.182912) can0 0DEF0603#0101FFFFFFFFFFF5
(1547753661.183964) can0 04EF0006#641515F02F19930E
(1547753661.191185) can0 0CF00400#F0FF9D801CFFFFFF
(1547753661.192485) can0 18EA4717#09FF00
(1547753661.192859) can0 18EA0617#09FF00
(1547753661.193257) can0 18EA0317#09FF00
(1547753661.201166) can0 0CF00300#FF0022FF06FFFFFF
(1547753661.201737) can0 0CEFFF00#64062D7DFFFFFFFF
(1547753661.202338) can0 18EF0600#640E1100FFFFFFFF
(1547753661.202885) can0 0DEF0647#0104FFFFFFFFFFF1
(1547753661.203461) can0 18FEF500#C8FFFFFFFF3BFFFF
(1547753661.204059) can0 0DEF0603#0101FFFFFFFFFFF5
(1547753661.204586) can0 04EF0006#641516F02A19930E
(1547753661.205159) can0 0CFFFE06#5C271D271DFFFFFF
(1547753661.205679) can0 18FF0947#434355FFFFFFFFFF
(1547753661.206273) can0 18FF0906#454943FFFFFFFFFF
(1547753661.206879) can0 18FF0903#505452FFFFFFFFFF
(1547753661.207494) can0 18FFFB06#0005B0F8FFFFFFFF
(1547753661.208116) can0 18FECA06#00FF00000000FFFF
(1547753661.208711) can0 18FECA47#00FF00000000FFFF
(1547753661.209510) can0 18FECA03#00FF00000000FFFF
(1547753661.211163) can0 0CF00400#F0FF9D8E1CFFFFFF
(1547753661.221236) can0 0CF00300#FF0022FF06FFFFFF
(1547753661.221809) can0 0CEFFF00#64062A7DFFFFFFFF
(1547753661.222413) can0 18EFFF00#64100101DB02057D
(1547753661.222987) can0 0DEF0603#0101FFFFFFFFFFF5
(1547753661.223987) can0 04EF0006#641517F03019930E
(1547753661.231290) can0 0CF00400#F0FF9B8E1CFFFFFF
(1547753661.241162) can0 0CF00300#FF0022FF06FFFFFF
(1547753661.241764) can0 0CEFFF00#6406297DFFFFFFFF
(1547753661.242345) can0 18FE6900#F824B026FFFF60FE
(1547753661.242910) can0 0DEF0603#0101FFFFFFFFFFF5
(1547753661.243962) can0 04EF0006#641518F03019930E
(1547753661.244539) can0 0CFE4947#FFFFFFFFFFFFFFFF
(1547753661.245138) can0 0CFE4347#0000FFFF3FFFFFFF
(1547753661.245738) can0 0CFE4447#0000FFFF3FFFFFFF
(1547753661.251134) can0 0CF00400#F0FF9B921CFFFFFF
(1547753661.261109) can0 0CF00300#FF0020FF06FFFFFF
(1547753661.261715) can0 0CEFFF00#6406287DFFFFFFFF
(1547753661.262765) can0 0DEF0603#0101FFFFFFFFFFF5
(1547753661.263935) can0 04EF0006#641519F08C18930E
(1547753661.271438) can0 0CF00400#F0FF9BA01CFFFFFF
(1547753661.272037) can0 18FEDF00#8B201CFFFFFFFFFF
(1547753661.273992) can0 18FECA17#00FF00000000FFFF
(1547753661.281191) can0 0CF00300#FF001FFF07FFFFFF
(1547753661.281765) can0 0CEFFF00#6406257DFFFFFFFF
(1547753661.282367) can0 18FEF200#1F00FFFFFFFFFFFF
(1547753661.282894) can0 0DEF0603#0101FFFFFFFFFFF5
(1547753661.283965) can0 04EF0006#64151AF03419930E
(1547753661.284542) can0 18FEF147#FF0000FFFFFFFFFF
(1547753661.285137) can0 18F00503#7DFFFFFFFFFFFFFF
(1547753661.291142) can0 0CF00400#F0FF99A61CFFFFFF
(1547753661.301142) can0 0CF00300#FF001FFF06FFFFFF
(1547753661.301717) can0 0CEFFF00#6406247DFFFFFFFF
(1547753661.302288) can0 18EF0600#640E1B00FFFFFFFF
(1547753661.302864) can0 0DEF0647#0104FFFFFFFFFFF1
(1547753661.303491) can0 0DEF0603#0101FFFFFFFFFFF5
(1547753661.304232) can0 04EF0006#64151BF03419A90E
(1547753661.311192) can0 0CF00400#F0FF999E1CFFFFFF
(1547753661.321142) can0 0CF00300#FF0015FF06FFFFFF
(1547753661.321718) can0 0CEFFF00#6406247DFFFFFFFF
(1547753661.322116) can0 18EAFF06#E5FE00
(1547753661.322690) can0 18EFFF00#64100101D602057D
(1547753661.323263) can0 0DEF0603#0101FFFFFFFFFFF5
(1547753661.324190) can0 04EF0006#64151CF02D19930E
(1547753661.324767) can0 0CFE4947#FFFFFFFFFFFFFFFF
(1547753661.325341) can0 18FFFB06#0005A4F8FFFFFFFF
(1547753661.325889) can0 0CFE4347#0000FFFF3FFFFFFF
(1547753661.326452) can0 18FEE706#CC0A0000FFFFFFFF
(1547753661.327048) can0 0CFE4447#0000FFFF3FFFFFFF
(1547753661.327637) can0 0CFFFE06#5C271D271DFFFFFF
(1547753661.331170) can0 0CF00400#FEFF999A1CFFFFFF
(1547753661.341145) can0 0CF00300#FF0013FF07FFFFFF
(1547753661.341716) can0 0CEFFF00#6406197DFFFFFFFF
(1547753661.342894) can0 0DEF0603#0101FFFFFFFFFFF5
(1547753661.344091) can0 04EF0006#64151DF02D19930E
(1547753661.351192) can0 0CF00400#FEFF95901CFFFFFF
(1547753661.352585) can0 1CFFFF17#22FFFF3CFFFFFFFF
(1547753661.353066) can0 18EA0017#E5FE00
(1547753661.361246) can0 0CF00300#FF001BFF06FFFFFF
(1547753661.361817) can0 0CEFFF00#6406157DFFFFFFFF
(1547753661.362367) can0 18FD7C00#F880F1F400CF03FD
(1547753661.362965) can0 0DEF0603#0101FFFFFFFFFFF5
(1547753661.364091) can0 04EF0006#64151EF08918A90E
(1547753661.364643) can0 0CFFFE06#5C531D531DFFFFFF
(1547753661.365240) can0 18FEF147#FF0000FFFFFFFFFF
(1547753661.365810) can0 18F00503#7DFFFFFFFFFFFFFF
(1547753661.371137) can0 0CF00400#FEFF93781CFFFFFF
(1547753661.376319) can0 18FEE500#CC0A0000FFFFFFFF
(1547753661.376941) can0 18FEE500#CC0A0000FFFFFFFF
(1547753661.381193) can0 0CF00300#FF0026FF06FFFFFF
(1547753661.381775) can0 0CEFFF00#64061D7DFFFFFFFF
(1547753661.382372) can0 18FEF200#1A00FFFFFFFFFFFF
(1547753661.382941) can0 0DEF0603#0101FFFFFFFFFFF5
(1547753661.384122) can0 04EF0006#64151FF02F19930E
(1547753661.391146) can0 0CF00400#FEFF96601CFFFFFF
(1547753661.401187) can0 0CF00300#FF0022FF07FFFFFF
(1547753661.401791) can0 0CEFFF00#6406297DFFFFFFFF
(1547753661.402394) can0 18EF0600#640E2500FFFFFFFF
(1547753661.402966) can0 0DEF0647#0104FFFFFFFFFFF1
(1547753661.403568) can0 0DEF0603#0101FFFFFFFFFFF5
(1547753661.404344) can0 04EF0006#641510F07319930E
(1547753661.404891) can0 0CFFFE06#5C271D271DFFFFFF
(1547753661.411195) can0 0CF00400#F0FF9B461CFFFFFF
(1547753661.421148) can0 0CF00300#FF0023FF07FFFFFF
(1547753661.421719) can0 0CEFFF00#64062B7DFFFFFFFF
(1547753661.422291) can0 18EFFF00#64100101D402057D
(1547753661.422921) can0 0DEF0603#0101FFFFFFFFFFF5
(1547753661.424074) can0 04EF0006#641511F07319A90E
(1547753661.431198) can0 0CF00400#F0FF9C341CFFFFFF
(1547753661.441247) can0 0CF00300#FF0024FF06FFFFFF
(1547753661.441818) can0 0CEFFF00#64062E7DFFFFFFFF
(1547753661.442896) can0 0DEF0603#0101FFFFFFFFFFF5
(1547753661.444093) can0 04EF0006#641512F00719A90E
(1547753661.444671) can0 0CFE4947#FFFFFFFFFFFFFFFF
(1547753661.445244) can0 18FFFB06#0005ACF8FFFFFFFF
(1547753661.445819) can0 0CFFFF47#5DFFFFF3FFFFFFFF
(1547753661.446421) can0 0CFE4347#0000FFFF3FFFFFFF
(1547753661.447021) can0 0CFE4447#0000FFFF3FFFFFFF
(1547753661.447562) can0 0CFFFE06#5C531D531DFFFFFF
(1547753661.451314) can0 0CF00400#FEFF9D341CFFFFFF
(1547753661.461140) can0 0CF00300#FF0022FF06FFFFFF
(1547753661.461706) can0 0CEFFF00#64062C7DFFFFFFFF
(1547753661.462347) can0 18FDB300#FFFF1A28FFFFFFFF
(1547753661.462866) can0 0DEF0603#0101FFFFFFFFFFF5
(1547753661.463468) can0 1CEFFF00#64070000FFFFFFFF
(1547753661.464102) can0 04EF0006#641513F00719930E
(1547753661.471148) can0 0CF00400#FEFF9C3A1CFFFFFF
(1547753661.481196) can0 0CF00300#FF0023FF06FFFFFF
(1547753661.481770) can0 0CEFFF00#6406297DFFFFFFFF
(1547753661.482321) can0 18FEF200#2000FFFFFFFFFFFF
(1547753661.482932) can0 0DEF0603#0101FFFFFFFFFFF5
(1547753661.484070) can0 04EF0006#641514F0CC18930E
(1547753661.484644) can0 0CFFFE06#5C271D271DFFFFFF
(1547753661.485218) can0 18FEF147#FF0000FFFFFFFFFF
(1547753661.485820) can0 18FFFB06#001BFFFFFFFFFFFF
(1547753661.486421) can0 18F00503#7DFFFFFFFFFFFFFF
(1547753661.491421) can0 0CF00400#F0FF9B3E1CFFFFFF
(1547753661.501170) can0 0CF00300#FF0023FF07FFFFFF
(1547753661.501746) can0 0CEFFF00#64062C7DFFFFFFFF
(1547753661.502320) can0 18EF0600#640E2F00FFFFFFFF
(1547753661.502880) can0 0DEF0647#0104FFFFFFFFFFF1
(1547753661.503496) can0 0DEF0603#0101FFFFFFFFFFF5
(1547753661.504219) can0 04EF0006#641515F0CC18930E
(1547753661.511121) can0 0CF00400#F0FF9C421CFFFFFF
(1547753661.521147) can0 0CF00300#FF0022FF06FFFFFF
(1547753661.521696) can0 0CEFFF00#64062B7DFFFFFFFF
(1547753661.522269) can0 18EFFF00#64100101D402057D
(1547753661.522847) can0 18FEDF00#8B201CFFFFFFFFFF
(1547753661.523447) can0 0DEF0603#0101FFFFFFFFFFF5
(1547753661.524094) can0 04EF0006#641516F07319A90E
(1547753661.524671) can0 0CFE4947#FFFFFFFFFFFFFFFF
(1547753661.525257) can0 18FE6847#3CFFFFFFFFFFFFFF
(1547753661.525833) can0 0CFE4347#0000FFFF3FFFFFFF
(1547753661.526448) can0 18FFFF06#73FFFFFFFFFFFFFF
(1547753661.527021) can0 0CFE4447#0000FFFF3FFFFFFF
(1547753661.527597) can0 0CFFFE06#5C531D531DFFFFFF
(1547753661.531247) can0 0CF00400#F0FF9C501CFFFFFF
(1547753661.541198) can0 0CF00300#FF001CFF07FFFFFF
(1547753661.541771) can0 0CEFFF00#6406297DFFFFFFFF
(1547753661.542348) can0 18FEEF00#FFFFFF65FFFFFFFA
(1547753661.542945) can0 0DEF0603#0101FFFFFFFFFFF5
(1547753661.544072) can0 04EF0006#641517F0D018930E
(1547753661.551148) can0 0CF00400#FEFF9B5C1CFFFFFF
(1547753661.561149) can0 0CF00300#FF0021FF06FFFFFF
(1547753661.561722) can0 0CEFFF00#6406237DFFFFFFFF
(1547753661.562873) can0 0DEF0603#0101FFFFFFFFFFF5
(1547753661.564048) can0 04EF0006#641518F0C618A90E
(1547753661.564648) can0 0CFFFF47#5EFFFFFFFFFFFFFF
(1547753661.565222) can0 18FEF147#FF0000FFFFFFFFFF
(1547753661.565772) can0 0CFFFE06#5C531D531DFFFFFF
(1547753661.566349) can0 18FEFC47#FFFFFFFFFFFFFFFF
(1547753661.566947) can0 18EF0047#F220610FFFFFFFFF
(1547753661.567510) can0 18F00647#FFCFFFFFFFFFFFFF
(1547753661.568109) can0 1CFDDF47#FCFFFFFFFFFFFFFF
(1547753661.568723) can0 18FFFB06#0005AAF8FFFFFFFF
(1547753661.569323) can0 18F00503#7DFFFFFFFFFFFFFF
(1547753661.571273) can0 0CF00400#F0FF99521CFFFFFF
(1547753661.581323) can0 0CF00300#FF0021FF07FFFFFF
(1547753661.581872) can0 0CEFFF00#6406287DFFFFFFFF
(1547753661.582474) can0 18FEF200#1F00FFFFFFFFFFFF
(1547753661.583047) can0 0DEF0603#0101FFFFFFFFFFF5
(1547753661.584097) can0 04EF0006#641519F0C918930E
(1547753661.591150) can0 0CF00400#FEFF9B4E1CFFFFFF
(1547753661.601124) can0 0CF00300#FF0021FF07FFFFFF
(1547753661.601699) can0 0CEFFF00#6406277DFFFFFFFF
(1547753661.602324) can0 18EF0600#640E3900FFFFFFFF
(1547753661.602873) can0 0DEF0647#0104FFFFFFFFFFF1
(1547753661.603474) can0 0DEF0603#0101FFFFFFFFFFF5
(1547753661.604222) can0 04EF0006#64151AF00B19A90E
(1547753661.604774) can0 0CFFFE06#5C531D531DFFFFFF
(1547753661.611176) can0 0CF00400#F0FF9A4A1CFFFFFF
(1547753661.621151) can0 0CF00300#FF0022FF07FFFFFF
(1547753661.621724) can0 0CEFFF00#6406287DFFFFFFFF
(1547753661.622325) can0 18EFFF00#64100101D402057D
(1547753661.622872) can0 18FEF600#FF003EFF00FFFFFF
(1547753661.623450) can0 0DEF0603#0101FFFFFFFFFFF5
(1547753661.624098) can0 04EF0006#64151BF00B19A90E
(1547753661.631164) can0 0CF00400#FEFF9B3C1CFFFFFF
(1547753661.641125) can0 18EFFA00#6401FF0000FFFFFF
(1547753661.641700) can0 0CEFFF00#64062C7DFFFFFFFF
(1547753661.642260) can0 0CF00300#FF0023FF06FFFFFF
(1547753661.642862) can0 0DEF0603#0101FFFFFFFFFFF5
(1547753661.644075) can0 04EF0006#64151CF0CC18A90E
(1547753661.644651) can0 0CFE4947#FFFFFFFFFFFFFFFF
(1547753661.645249) can0 0CFE4347#0000FFFF3FFFFFFF
(1547753661.645851) can0 0CFE4447#0000FFFF3FFFFFFF
(1547753661.651176) can0 0CF00400#FEFF9C3A1CFFFFFF
(1547753661.661152) can0 0CF00300#FF0022FF07FFFFFF
(1547753661.661726) can0 0CEFFF00#6406297DFFFFFFFF
(1547753661.662877) can0 0DEF0603#0101FFFFFFFFFFF5
(1547753661.664075) can0 04EF0006#64151DF0CC18930E
(1547753661.671278) can0 0CF00400#FEFF9B401CFFFFFF
(1547753661.681177) can0 0CF00300#FF0021FF07FFFFFF
(1547753661.681751) can0 0CEFFF00#6406287DFFFFFFFF
(1547753661.682353) can0 18FEF200#1F00FFFFFFFFFFFF
(1547753661.682925) can0 0DEF0603#0101FFFFFFFFFFF5
(1547753661.684077) can0 04EF0006#64151EF07319A90E
(1547753661.684652) can0 0CFFFE06#5C531D531DFFFFFF
(1547753661.685225) can0 18FEF147#FF0000FFFFFFFFFF
(1547753661.685827) can0 18FFFB06#0005AAF8FFFFFFFF
(1547753661.686415) can0 18F00503#7DFFFFFFFFFFFFFF
(1547753661.691165) can0 0CF00400#F0FF9B3C1CFFFFFF
(1547753661.701165) can0 0CF00300#FF0023FF07FFFFFF
(1547753661.701752) can0 0CEFFF00#6406297DFFFFFFFF
(1547753661.702327) can0 18EF0600#640E4300FFFFFFFF
(1547753661.702887) can0 0DEF0647#0104FFFFFFFFFFF1
(1547753661.703503) can0 0DEF0603#0101FFFFFFFFFFF5
(1547753661.704225) can0 04EF0006#64151FF0D018A90E
(1547753661.711254) can0 0CF00400#FEFF9B321CFFFFFF
(1547753661.721179) can0 0CF00300#FF0023FF06FFFFFF
(1547753661.721754) can0 0CEFFF00#64062C7DFFFFFFFF
(1547753661.722328) can0 18EFFF00#64100101D202057D
(1547753661.722902) can0 0DEF0603#0101FFFFFFFFFFF5
(1547753661.724078) can0 04EF0006#641510F00719A90E
(1547753661.724654) can0 0CFE4947#FFFFFFFFFFFFFFFF
(1547753661.725253) can0 0CFE4347#0000FFFF3FFFFFFF
(1547753661.725854) can0 0CFE4447#0000FFFF3FFFFFFF
(1547753661.731167) can0 0CF00400#FEFF9C301CFFFFFF
(1547753661.741156) can0 0CF00300#FF0022FF06FFFFFF
(1547753661.741729) can0 0CEFFF00#64062B7DFFFFFFFF
(1547753661.742330) can0 18FEEE00#4C42FFFFFFFFFFFF
(1547753661.742876) can0 0DEF0603#0101FFFFFFFFFFF5
(1547753661.744078) can0 04EF0006#641511F00719930E
(1547753661.751255) can0 0CF00400#FEFF9C301CFFFFFF
(1547753661.761331) can0 0CF00300#FF0023FF07FFFFFF
(1547753661.761878) can0 0CEFFF00#64062C7DFFFFFFFF
(1547753661.762880) can0 0DEF0603#0101FFFFFFFFFFF5
(1547753661.764054) can0 04EF0006#641512F00719930E
(1547753661.764632) can0 0CFFFE06#5C271D271DFFFFFF
(1547753661.765203) can0 18FEF147#FF0000FFFFFFFFFF
(1547753661.765806) can0 18F00503#7DFFFFFFFFFFFFFF
(1547753661.771180) can0 0CF00400#F0FF9C281CFFFFFF
(1547753661.771756) can0 18FEDF00#8B201CFFFFFFFFFF
(1547753661.781180) can0 0CF00300#FF0022FF06FFFFFF
(1547753661.781755) can0 0CEFFF00#64062C7DFFFFFFFF
(1547753661.782332) can0 18FEF200#2100FFFFFFFFFFFF
(1547753661.782929) can0 0DEF0603#0101FFFFFFFFFFF5
(1547753661.784080) can0 04EF0006#641513F01119A90E
(1547753661.791157) can0 0CF00400#F0FF9C321CFFFFFF
(1547753661.801433) can0 0CF00300#FF0022FF07FFFFFF
(1547753661.802005) can0 0CEFFF00#64062A7DFFFFFFFF
(1547753661.802580) can0 0DEF0647#0104FFFFFFFFFFF1
(1547753661.803155) can0 18EF0600#640E4D00FFFFFFFF
(1547753661.803733) can0 0DEF0603#0101FFFFFFFFFFF5
(1547753661.804279) can0 04EF0006#641514F00719930E
(1547753661.804857) can0 0CFFFE06#5C271D271DFFFFFF
(1547753661.805418) can0 18FFFB06#0005ACF8FFFFFFFF
(1547753661.811171) can0 0CF00400#FEFF9B3A1CFFFFFF
(1547753661.821120) can0 0CF00300#FF0022FF07FFFFFF
(1547753661.821693) can0 0CEFFF00#6406287DFFFFFFFF
(1547753661.822280) can0 18EFFF00#64100101D202057D
(1547753661.822858) can0 18FEF700#FFFFFFFFFFFFFD00
(1547753661.823457) can0 0DEF0603#0101FFFFFFFFFFF5
(1547753661.824080) can0 0C000006#30FFFFFFF8FFFFFF
(1547753661.824632) can0 04EF0006#641515F0CC18A90E
(1547753661.831183) can0 0CF00400#F0FF9B321CFFFFFF
(1547753661.841209) can0 0CF00300#FF0024FF07FFFFFF
(1547753661.841784) can0 0CEFFF00#64062A7DFFFFFFFF
(1547753661.842883) can0 0DEF0603#0101FFFFFFFFFFF5
(1547753661.844083) can0 04EF0006#641516F00719A90E
(1547753661.844658) can0 0CFE4947#FFFFFFFFFFFFFFFF
(1547753661.845257) can0 0CFE4347#0000FFFF3FFFFFFF
(1547753661.845859) can0 0CFE4447#0000FFFF3FFFFFFF
(1547753661.846433) can0 0CFFFE06#5C531D531DFFFFFF
(1547753661.851258) can0 0CF00400#FEFF9B2A1CFFFFFF
(1547753661.861183) can0 0CF00300#FF0023FF06FFFFFF
(1547753661.861758) can0 0CEFFF00#64062E7DFFFFFFFF
(1547753661.862883) can0 0DEF0603#0101FFFFFFFFFFF5
(1547753661.864083) can0 04EF0006#641517F01119A90E
(1547753661.871185) can0 0CF00400#FEFF9D2A1CFFFFFF
(1547753661.881287) can0 0CF00300#FF0023FF07FFFFFF
(1547753661.881863) can0 0CEFFF00#64062D7DFFFFFFFF
(1547753661.882435) can0 18FEF200#2100FFFFFFFFFFFF
(1547753661.883008) can0 0DEF0603#0101FFFFFFFFFFF5
(1547753661.884084) can0 04EF0006#641518F01119930E
(1547753661.884634) can0 0CFFFE06#5C271D271DFFFFFF
(1547753661.885233) can0 18FEF147#FF0000FFFFFFFFFF
(1547753661.885834) can0 18F00503#7DFFFFFFFFFFFFFF
(1547753661.891348) can0 0CF00400#FEFF9D261CFFFFFF
(1547753661.901173) can0 0CF00300#FF0023FF06FFFFFF
(1547753661.901760) can0 0CEFFF00#64062F7DFFFFFFFF
(1547753661.902336) can0 18EF0600#640E5700FFFFFFFF
(1547753661.902909) can0 0DEF0647#0104FFFFFFFFFFF1
(1547753661.903496) can0 0DEF0603#0101FFFFFFFFFFF5
(1547753661.904335) can0 04EF0006#641519F00B19A90E
(1547753661.911185) can0 0CF00400#F0FF9D221CFFFFFF
(1547753661.921186) can0 0CF00300#FF0023FF06FFFFFF
(1547753661.921761) can0 0CEFFF00#64062C7DFFFFFFFF
(1547753661.922361) can0 18EFFF00#64100101D102057D
(1547753661.922964) can0 0DEF0603#0101FFFFFFFFFFF5
(1547753661.923537) can0 18FED500#FFFFFDFFFFFFFFFF
(1547753661.924162) can0 04EF0006#64151AF00B19930E
(1547753661.924737) can0 0CFE4947#FFFFFFFFFFFFFFFF
(1547753661.925258) can0 18FFFB06#0005AFF8FFFFFFFF
(1547753661.925832) can0 0CFFFF47#5DFFFFF3FFFFFFFF
(1547753661.926445) can0 0CFE4347#0000FFFF3FFFFFFF
(1547753661.927050) can0 0CFE4447#0000FFFF3FFFFFFF
(1547753661.927621) can0 0CFFFE06#5C271D271DFFFFFF
(1547753661.931242) can0 0CF00400#FEFF9C2C1CFFFFFF
(1547753661.941239) can0 0CF00300#FF0022FF06FFFFFF
(1547753661.941764) can0 0CEFFF00#64062B7DFFFFFFFF
(1547753661.942885) can0 0DEF0603#0101FFFFFFFFFFF5
(1547753661.944112) can0 04EF0006#64151BF01119930E
(1547753661.951213) can0 0CF00400#F0FF9C301CFFFFFF
(1547753661.961165) can0 0CF00300#FF0022FF07FFFFFF
(1547753661.961741) can0 0CEFFF00#64062A7DFFFFFFFF
(1547753661.962314) can0 18FDB300#FFFF2628FFFFFFFF
(1547753661.962915) can0 0DEF0603#0101FFFFFFFFFFF5
(1547753661.964116) can0 04EF0006#64151CF00719930E
(1547753661.964689) can0 18FEF147#FF0000FFFFFFFFFF
(1547753661.965313) can0 18F00503#7DFFFFFFFFFFFFFF
(1547753661.971194) can0 0CF00400#F0FF9B2A1CFFFFFF
(1547753661.981289) can0 0CF00300#FF0022FF06FFFFFF
(1547753661.981863) can0 0CEFFF00#64062B7DFFFFFFFF
(1547753661.982438) can0 18FEF200#2000FFFFFFFFFFFF
(1547753661.983037) can0 0DEF0603#0101FFFFFFFFFFF5
(1547753661.984113) can0 04EF0006#64151DF01119A90E
(1547753661.991141) can0 0CF00400#F0FF9C281CFFFFFF
(1547753662.001165) can0 0CF00300#FF0025FF06FFFFFF
(1547753662.001739) can0 0CEFFF00#64062B7DFFFFFFFF
(1547753662.002339) can0 18EF0600#640E6100FFFFFFFF
(1547753662.002887) can0 0DEF0647#0104FFFFFFFFFFF1
(1547753662.003500) can0 0DEF0603#0101FFFFFFFFFFF5
(1547753662.004223) can0 04EF0006#64151EF01119930E
(1547753662.004789) can0 0CFFFE06#5C271D271DFFFFFF
(1547753662.005364) can0 18FFFF06#73FFFFFFFFFFFFFF
(1547753662.011214) can0 0CF00400#FEFF9C241CFFFFFF
(1547753662.021239) can0 0CF00300#FF0023FF06FFFFFF
(1547753662.021814) can0 0CEFFF00#64062F7DFFFFFFFF
(1547753662.022389) can0 18EFFF00#64100101D202057D
(1547753662.022962) can0 0DEF0603#0101FFFFFFFFFFF5
(1547753662.023564) can0 18FEDF00#8B201CFFFFFFFFFF
(1547753662.024123) can0 04EF0006#64151FF00B19930E
(1547753662.031178) can0 0CF00400#F0FF9D161CFFFFFF
(1547753662.032640) can0 1CFFFF17#22FFFF3CFFFFFFFF
(1547753662.041190) can0 0CF00300#FF0024FF06FFFFFF
(1547753662.041740) can0 0CEFFF00#64062E7DFFFFFFFF
(1547753662.042341) can0 18FEEF00#FFFFFF65FFFFFFFA
(1547753662.042914) can0 0DEF0603#0101FFFFFFFFFFF5
(1547753662.044139) can0 04EF0006#641510F00919930E
(1547753662.044741) can0 0CFE4947#FFFFFFFFFFFFFFFF
(1547753662.045340) can0 1CFDDF47#FCFFFFFFFFFFFFFF
(1547753662.045890) can0 0CFE4347#0000FFFF3FFFFFFF
(1547753662.046452) can0 18FFFB06#0005AFF8FFFFFFFF
(1547753662.047025) can0 0CFE4447#0000FFFF3FFFFFFF
(1547753662.051216) can0 0CF00400#F0FF9D161CFFFFFF
(1547753662.061293) can0 0CF00300#FF0023FF07FFFFFF
(1547753662.061866) can0 0CEFFF00#64062F7DFFFFFFFF
(1547753662.062918) can0 0DEF0603#0101FFFFFFFFFFF5
(1547753662.064141) can0 04EF0006#641511F00919930E
(1547753662.071242) can0 0CF00400#F0FF9D201CFFFFFF
(1547753662.081192) can0 0CF00300#FF0023FF07FFFFFF
(1547753662.081767) can0 0CEFFF00#64062C7DFFFFFFFF
(1547753662.082368) can0 18FEF200#2100FFFFFFFFFFFF
(1547753662.082941) can0 0DEF0603#0101FFFFFFFFFFF5
(1547753662.084117) can0 04EF0006#641512F00B19A90E
(1547753662.084667) can0 0CFFFE06#5C531D531DFFFFFF
(1547753662.085239) can0 18FEF147#FF0000FFFFFFFFFF
(1547753662.085842) can0 18F00647#FFCFFFFFFFFFFFFF
(1547753662.086428) can0 18F00503#7DFFFFFFFFFFFFFF
(1547753662.091205) can0 0CF00400#F0FF9C1E1CFFFFFF
(1547753662.101179) can0 0CF00300#FF0027FF07FFFFFF
(1547753662.101768) can0 0CEFFF00#64062E7DFFFFFFFF
(1547753662.102343) can0 18EF0600#640E6B00FFFFFFFF
(1547753662.102902) can0 0DEF0647#0104FFFFFFFFFFF1
(1547753662.103517) can0 0DEF0603#0101FFFFFFFFFFF5
(1547753662.104290) can0 04EF0006#641513F00419A90E
(1547753662.111469) can0 0CF00400#F0FF9D141CFFFFFF
(1547753662.121168) can0 0CF00300#FF0024FF07FFFFFF
(1547753662.121743) can0 0CEFFF00#64062F7DFFFFFFFF
(1547753662.122343) can0 18EFFF00#64100101D002057D
(1547753662.122890) can0 18FEF600#FF003EFF00FFFFFF
(1547753662.123493) can0 0DEF0603#0101FFFFFFFFFFF5
(1547753662.124166) can0 04EF0006#641514F00919A90E
(1547753662.124743) can0 0CFE4947#FFFFFFFFFFFFFFFF
(1547753662.125329) can0 0CFE4347#0000FFFF3FFFFFFF
(1547753662.125916) can0 0CFE4447#0000FFFF3FFFFFFF
(1547753662.131193) can0 0CF00400#F0FF9D141CFFFFFF
(1547753662.141193) can0 0CF00300#FF0026FF07FFFFFF
(1547753662.141744) can0 0CEFFF00#64062F7DFFFFFFFF
(1547753662.142919) can0 0DEF0603#0101FFFFFFFFFFF5
(1547753662.144143) can0 04EF0006#641515F00919A90E
(1547753662.151269) can0 0CF00400#F0FF9D161CFFFFFF
(1547753662.161344) can0 0CF00300#FF0024FF06FFFFFF
(1547753662.161893) can0 0CEFFF00#64062F7DFFFFFFFF
(1547753662.162919) can0 0DEF0603#0101FFFFFFFFFFF5
(1547753662.164145) can0 04EF0006#641516F00919A90E
(1547753662.164720) can0 18FEF147#FF0000FFFFFFFFFF
(1547753662.165345) can0 18FFFB06#0005AFF8FFFFFFFF
(1547753662.165918) can0 18F00503#7DFFFFFFFFFFFFFF
(1547753662.171172) can0 0CF00400#F0FF9D101CFFFFFF
(1547753662.171769) can0 18FFFA00#022C0000180C0081
(1547753662.181220) can0 0CF00300#FF0024FF06FFFFFF
(1547753662.181796) can0 0CEFFF00#6406307DFFFFFFFF
(1547753662.182371) can0 18FEF200#2300FFFFFFFFFFFF
(1547753662.182969) can0 0DEF0603#0101FFFFFFFFFFF5
(1547753662.184170) can0 04EF0006#641517F00919930E
(1547753662.191171) can0 0CF00400#FEFF9D1A1CFFFFFF
(1547753662.201499) can0 0CF00300#FF0024FF07FFFFFF
(1547753662.202071) can0 0CEFFF00#6406327DFFFFFFFF
(1547753662.202648) can0 0DEF0647#0104FFFFFFFFFFF1
(1547753662.203220) can0 18EF0600#640E7500FFFFFFFF
(1547753662.203798) can0 0DEF0603#0101FFFFFFFFFFF5
(1547753662.204373) can0 04EF0006#641518F00419930E
(1547753662.204921) can0 0CFFFE06#5C271D271DFFFFFF
(1547753662.205465) can0 18FEF500#C8FFFFFFFF3AFFFF
(1547753662.211216) can0 0CF00400#F0FF9E201CFFFFFF
(1547753662.221193) can0 0CF00300#FF0024FF07FFFFFF
(1547753662.221773) can0 0CEFFF00#64062D7DFFFFFFFF
(1547753662.222375) can0 18EFFF00#64100101D102057D
(1547753662.222970) can0 0DEF0603#0101FFFFFFFFFFF5
(1547753662.224172) can0 04EF0006#641519F00B19A90E
(1547753662.231225) can0 0CF00400#F0FF9D1A1CFFFFFF
(1547753662.241273) can0 0CF00300#FF0027FF07FFFFFF
(1547753662.241848) can0 0CEFFF00#64062F7DFFFFFFFF
(1547753662.242424) can0 18FE6900#E224B426FFFF60FE
(1547753662.242998) can0 0DEF0603#0101FFFFFFFFFFF5
(1547753662.244198) can0 04EF0006#64151AF00419A90E
(1547753662.244778) can0 0CFE4947#FFFFFFFFFFFFFFFF
(1547753662.245375) can0 0CFE4347#0000FFFF3FFFFFFF
(1547753662.245974) can0 0CFE4447#0000FFFF3FFFFFFF
(1547753662.246517) can0 0CFFFE06#5C531D531DFFFFFF
(1547753662.251269) can0 0CF00400#F0FF9D141CFFFFFF
(1547753662.261193) can0 0CF00300#FF0024FF07FFFFFF
(1547753662.261803) can0 0CEFFF00#6406307DFFFFFFFF
(1547753662.262951) can0 0DEF0603#0101FFFFFFFFFFF5
(1547753662.264176) can0 04EF0006#64151BF00919A90E
(1547753662.271229) can0 0CF00400#F0FF9D161CFFFFFF
(1547753662.271780) can0 18FEDF00#8A201CFFFFFFFFFF
(1547753662.281327) can0 0CF00300#FF0024FF06FFFFFF
(1547753662.281858) can0 0CEFFF00#6406307DFFFFFFFF
(1547753662.282477) can0 18FEF200#2300FFFFFFFFFFFF
(1547753662.283075) can0 0DEF0603#0101FFFFFFFFFFF5
(1547753662.284175) can0 04EF0006#64151CF00919A90E
(1547753662.284778) can0 18FEF147#FF0000FFFFFFFFFF
(1547753662.285377) can0 18FFFB06#0005B2F8FFFFFFFF
(1547753662.285943) can0 18F00503#7DFFFFFFFFFFFFFF
(1547753662.291342) can0 0CF00400#F0FF9D141CFFFFFF
(1547753662.301195) can0 0CF00300#FF0025FF06FFFFFF
(1547753662.301780) can0 0CEFFF00#6406307DFFFFFFFF
(1547753662.302376) can0 18EF0600#640E7F00FFFFFFFF
(1547753662.302973) can0 0DEF0647#0104FFFFFFFFFFF1
(1547753662.303545) can0 0DEF0603#0101FFFFFFFFFFF5
(1547753662.304335) can0 04EF0006#64151DF00919930E
(1547753662.311256) can0 0CF00400#F0FF9D121CFFFFFF
(1547753662.321281) can0 0CF00300#FF0024FF06FFFFFF
(1547753662.321851) can0 0CEFFF00#6406307DFFFFFFFF
(1547753662.322401) can0 18EFFF00#64100101D002057D
(1547753662.323000) can0 0DEF0603#0101FFFFFFFFFFF5
(1547753662.324203) can0 04EF0006#64151EF00919930E
(1547753662.324778) can0 0CFE4947#FFFFFFFFFFFFFFFF
(1547753662.325377) can0 0CFE4347#0000FFFF3FFFFFFF
(1547753662.325977) can0 0CFE4447#0000FFFF3FFFFFFF
(1547753662.326521) can0 0CFFFE06#5C271D271DFFFFFF
(1547753662.331246) can0 0CF00400#F0FF9D1C1CFFFFFF
(1547753662.341239) can0 0CF00300#FF0024FF06FFFFFF
(1547753662.341853) can0 0CEFFF00#64062F7DFFFFFFFF
(1547753662.342208) can0 18EAFF06#E5FE00
(1547753662.343028) can0 0DEF0603#0101FFFFFFFFFFF5
(1547753662.344252) can0 04EF0006#64151FF00419930E
(1547753662.351255) can0 0CF00400#F0FF9D221CFFFFFF
(1547753662.361230) can0 0CF00300#FF0024FF06FFFFFF
(1547753662.361779) can0 0CEFFF00#64062D7DFFFFFFFF
(1547753662.362380) can0 18FD7C00#F880F1F000CF03FD
(1547753662.362953) can0 0DEF0603#0101FFFFFFFFFFF5
(1547753662.364128) can0 04EF0006#641510F00B19930E
(1547753662.364729) can0 18FEF147#FF0000FFFFFFFFFF
(1547753662.365301) can0 18FEE706#CC0A0000FFFFFFFF
(1547753662.365907) can0 18F00503#7DFFFFFFFFFFFFFF
(1547753662.371349) can0 0CF00400#F0FF9D1C1CFFFFFF
(1547753662.376547) can0 18FEE500#CC0A0000FFFFFFFF
(1547753662.381404) can0 0CF00300#FF0024FF06FFFFFF
(1547753662.381934) can0 0CEFFF00#64062F7DFFFFFFFF
(1547753662.382554) can0 18FEF200#2300FFFFFFFFFFFF
(1547753662.383153) can0 0DEF0603#0101FFFFFFFFFFF5
(1547753662.384228) can0 04EF0006#641511F00419930E
(1547753662.391233) can0 0CF00400#F0FF9D1C1CFFFFFF
(1547753662.401233) can0 0CF00300#FF0024FF06FFFFFF
(1547753662.401782) can0 0CEFFF00#64062F7DFFFFFFFF
(1547753662.402380) can0 18EF0600#640E8900FFFFFFFF
(1547753662.402917) can0 0DEF0647#0104FFFFFFFFFFF1
(1547753662.403557) can0 0DEF0603#0101FFFFFFFFFFF5
(1547753662.404429) can0 04EF0006#641512F00419930E
(1547753662.411232) can0 0CF00400#F0FF9D1A1CFFFFFF
(1547753662.421234) can0 0CF00300#FF0024FF06FFFFFF
(1547753662.421805) can0 0CEFFF00#64062F7DFFFFFFFF
(1547753662.422380) can0 18EFFF00#64100101D202057D
(1547753662.422979) can0 0DEF0603#0101FFFFFFFFFFF5
(1547753662.424210) can0 04EF0006#641513F00419930E
(1547753662.431259) can0 0CF00400#F0FF9D121CFFFFFF
(1547753662.441234) can0 0CF00300#FF0025FF06FFFFFF
(1547753662.441806) can0 0CEFFF00#6406307DFFFFFFFF
(1547753662.442959) can0 0DEF0603#0101FFFFFFFFFFF5
(1547753662.444181) can0 04EF0006#641514F00919930E
(1547753662.444757) can0 0CFE4947#FFFFFFFFFFFFFFFF
(1547753662.445382) can0 0CFFFF47#5DFFFFF3FFFFFFFF
(1547753662.445958) can0 0CFE4347#0000FFFF3FFFFFFF
(1547753662.446557) can0 0CFE4447#0000FFFF3FFFFFFF
(1547753662.447130) can0 0CFFFE06#5C271D271DFFFFFF
(1547753662.451227) can0 0CF00400#F0FF9D141CFFFFFF
(1547753662.461237) can0 0CF00300#FF0024FF06FFFFFF
(1547753662.461806) can0 0CEFFF00#6406307DFFFFFFFF
(1547753662.462349) can0 18FDB300#FFFF2628FFFFFFFF
(1547753662.462918) can0 0DEF0603#0101FFFFFFFFFFF5
(1547753662.463557) can0 1CEFFF00#64070000FFFFFFFF
(1547753662.464201) can0 04EF0006#641515F00919930E
(1547753662.471312) can0 0CF00400#F0FF9D1E1CFFFFFF
(1547753662.481259) can0 0CF00300#FF0024FF07FFFFFF
(1547753662.481831) can0 0CEFFF00#64062F7DFFFFFFFF
(1547753662.482406) can0 18FEF200#2300FFFFFFFFFFFF
(1547753662.482980) can0 0DEF0603#0101FFFFFFFFFFF5
(1547753662.484181) can0 04EF0006#641516F00419930E
(1547753662.484757) can0 18FEF147#FF0000FFFFFFFFFF
(1547753662.485381) can0 18FFFB06#001BFFFFFFFFFFFF
(1547753662.485981) can0 18F00503#7DFFFFFFFFFFFFFF
(1547753662.491219) can0 0CF00400#F0FF9D1E1CFFFFFF
(1547753662.501219) can0 0CF00300#FF0024FF07FFFFFF
(1547753662.501806) can0 0CEFFF00#64062F7DFFFFFFFF
(1547753662.502359) can0 18EF0600#640E9300FFFFFFFF
(1547753662.502955) can0 0DEF0647#0104FFFFFFFFFFF1
(1547753662.503544) can0 0DEF0603#0101FFFFFFFFFFF5
(1547753662.504293) can0 04EF0006#641517F00419A90E
(1547753662.511359) can0 0CF00400#F0FF9D1A1CFFFFFF
(1547753662.521234) can0 0CF00300#FF0025FF07FFFFFF
(1547753662.521808) can0 0CEFFF00#6406307DFFFFFFFF
(1547753662.522357) can0 18EFFF00#64100101D202057D
(1547753662.522957) can0 0DEF0603#0101FFFFFFFFFFF5
(1547753662.523533) can0 18FEDF00#8B221CFFFFFFFFFF
(1547753662.524180) can0 04EF0006#641518F00419A90E
(1547753662.524783) can0 0CFE4947#FFFFFFFFFFFFFFFF
(1547753662.525370) can0 18FE6847#3CFFFFFFFFFFFFFF
(1547753662.525957) can0 0CFE4347#0000FFFF3FFFFFFF
(1547753662.526533) can0 18FFFF06#73FFFFFFFFFFFFFF
(1547753662.527106) can0 0CFE4447#0000FFFF3FFFFFFF
(1547753662.527708) can0 0CFFFE06#5C531D531DFFFFFF
(1547753662.531233) can0 0CF00400#F0FF9D1C1CFFFFFF
(1547753662.541234) can0 0CF00300#FF0024FF07FFFFFF
(1547753662.541783) can0 0CEFFF00#64062F7DFFFFFFFF
(1547753662.542384) can0 18FEEF00#FFFFFF65FFFFFFFA
(1547753662.542956) can0 0DEF0603#0101FFFFFFFFFFF5
(1547753662.544183) can0 04EF0006#641519F00419A90E
(1547753662.551310) can0 0CF00400#F0FF9D1A1CFFFFFF
(1547753662.561361) can0 0CF00300#FF0024FF07FFFFFF
(1547753662.561933) can0 0CEFFF00#6406307DFFFFFFFF
(1547753662.562934) can0 0DEF0603#0101FFFFFFFFFFF5
(1547753662.564184) can0 04EF0006#64151AF00419A90E
(1547753662.564760) can0 0CFFFF47#5EFFFFFFFFFFFFFF
(1547753662.565359) can0 18FEF147#FF0000FFFFFFFFFF
(1547753662.565934) can0 18FEFC47#FFFFFFFFFFFFFFFF
(1547753662.566534) can0 18EF0047#F220610FFFFFFFFF
(1547753662.567107) can0 18F00647#FFCFFFFFFFFFFFFF
(1547753662.567696) can0 1CFDDF47#FCFFFFFFFFFFFFFF
(1547753662.568295) can0 18FFFB06#0005AFF8FFFFFFFF
(1547753662.568910) can0 18F00503#7DFFFFFFFFFFFFFF
(1547753662.571260) can0 0CF00400#F0FF9D101CFFFFFF
(1547753662.581261) can0 0CF00300#FF0024FF07FFFFFF
(1547753662.581835) can0 0CEFFF00#6406317DFFFFFFFF
(1547753662.582410) can0 18FEF200#2300FFFFFFFFFFFF
(1547753662.583009) can0 0DEF0603#0101FFFFFFFFFFF5
(1547753662.584184) can0 04EF0006#64151BF00919A90E
(1547753662.591211) can0 0CF00400#F0FF9E1C1CFFFFFF
(1547753662.601486) can0 0CF00300#FF0024FF07FFFFFF
(1547753662.602059) can0 0CEFFF00#64062F7DFFFFFFFF
(1547753662.602636) can0 0DEF0647#0104FFFFFFFFFFF1
(1547753662.603209) can0 18EF0600#640E9D00FFFFFFFF
(1547753662.603786) can0 0DEF0603#0101FFFFFFFFFFF5
(1547753662.604359) can0 04EF0006#64151CF00419A90E
(1547753662.611237) can0 0CF00400#FEFF9D261CFFFFFF
(1547753662.621186) can0 0CF00300#FF0023FF07FFFFFF
(1547753662.621786) can0 0CEFFF00#64062C7DFFFFFFFF
(1547753662.622348) can0 18EFFF00#64100101D202057D
(1547753662.622921) can0 18FEF600#FF003DFF00FFFFFF
(1547753662.623511) can0 0DEF0603#0101FFFFFFFFFFF5
(1547753662.624158) can0 04EF0006#64151DF00B19A90E
(1547753662.631236) can0 0CF00400#FEFF9C241CFFFFFF
(1547753662.641262) can0 18EFFA00#6401FF0000FFFFFF
(1547753662.641812) can0 0CEFFF00#6406307DFFFFFFFF
(1547753662.642412) can0 0CF00300#FF0024FF07FFFFFF
(1547753662.642986) can0 0DEF0603#0101FFFFFFFFFFF5
(1547753662.644136) can0 04EF0006#64151EF00B19A90E
(1547753662.644713) can0 0CFE4947#FFFFFFFFFFFFFFFF
(1547753662.645312) can0 0CFE4347#0000FFFF3FFFFFFF
(1547753662.645914) can0 0CFE4447#0000FFFF3FFFFFFF
(1547753662.646473) can0 0CFFFE06#5C531D531DFFFFFF
(1547753662.651312) can0 0CF00400#FEFF9E221CFFFFFF
(1547753662.661239) can0 0CF00300#FF0024FF06FFFFFF
(1547753662.661812) can0 0CEFFF00#64062F7DFFFFFFFF
(1547753662.662938) can0 0DEF0603#0101FFFFFFFFFFF5
(1547753662.664137) can0 04EF0006#64151FF00B19A90E
(1547753662.671239) can0 0CF00400#FEFF9D241CFFFFFF
(1547753662.681364) can0 0CF00300#FF0024FF07FFFFFF
(1547753662.681912) can0 0CEFFF00#64062E7DFFFFFFFF
(1547753662.682489) can0 18FEF200#2300FFFFFFFFFFFF
(1547753662.683087) can0 0DEF0603#0101FFFFFFFFFFF5
(1547753662.684138) can0 04EF0006#641510F00B19930E
(1547753662.684714) can0 0CFFFE06#5C271D271DFFFFFF
(1547753662.685282) can0 18FEF147#FF0000FFFFFFFFFF
(1547753662.685890) can0 18FFFB06#0005AFF8FFFFFFFF
(1547753662.686475) can0 18F00503#7DFFFFFFFFFFFFFF
(1547753662.691451) can0 0CF00400#FEFF9D221CFFFFFF
(1547753662.692665) can0 1CFFFF17#22FFFF3CFFFFFFFF
(1547753662.701265) can0 0CF00300#FF0024FF06FFFFFF
(1547753662.701815) can0 0CEFFF00#64062F7DFFFFFFFF
(1547753662.702390) can0 18EF0600#640EA700FFFFFFFF
(1547753662.702987) can0 0DEF0647#0104FFFFFFFFFFF1
(1547753662.703589) can0 0DEF0603#0101FFFFFFFFFFF5
(1547753662.704312) can0 04EF0006#641511F00B19A90E
(1547753662.711239) can0 0CF00400#F0FF9D1E1CFFFFFF
(1547753662.721191) can0 0CF00300#FF0024FF07FFFFFF
(1547753662.721765) can0 0CEFFF00#64062F7DFFFFFFFF
(1547753662.722352) can0 18EFFF00#64100101D202057D
(1547753662.722987) can0 0DEF0603#0101FFFFFFFFFFF5
(1547753662.724215) can0 04EF0006#641512F00419930E
(1547753662.724790) can0 0CFE4947#FFFFFFFFFFFFFFFF
(1547753662.725390) can0 0CFE4347#0000FFFF3FFFFFFF
(1547753662.725950) can0 0CFE4447#0000FFFF3FFFFFFF
(1547753662.726565) can0 0CFFFE06#5C271D271DFFFFFF
(1547753662.731291) can0 0CF00400#FEFF9D2C1CFFFFFF
(1547753662.741266) can0 0CF00300#FF0023FF07FFFFFF
(1547753662.741841) can0 0CEFFF00#6406297DFFFFFFFF
(1547753662.742390) can0 18FEEE00#4C42FFFFFFFFFFFF
(1547753662.743000) can0 0DEF0603#0101FFFFFFFFFFF5
(1547753662.744166) can0 04EF0006#641513F01119A90E
(1547753662.751241) can0 0CF00400#F0FF9B321CFFFFFF
(1547753662.761217) can0 0CF00300#FF0023FF07FFFFFF
(1547753662.761791) can0 0CEFFF00#64062C7DFFFFFFFF
(1547753662.762943) can0 0DEF0603#0101FFFFFFFFFFF5
(1547753662.764142) can0 04EF0006#641514F00719A90E
(1547753662.764691) can0 0CFFFE06#5C531D531DFFFFFF
(1547753662.765265) can0 18FEF147#FF0000FFFFFFFFFF
(1547753662.765857) can0 18F00503#7DFFFFFFFFFFFFFF
(1547753662.771367) can0 0CF00400#FEFF9C2A1CFFFFFF
(1547753662.771965) can0 18FEDF00#8B2C1CFFFFFFFFFF
(1547753662.781368) can0 0CF00300#FF0023FF06FFFFFF
(1547753662.781940) can0 0CEFFF00#64062F7DFFFFFFFF
(1547753662.782518) can0 18FEF200#2300FFFFFFFFFFFF
(1547753662.783078) can0 0DEF0603#0101FFFFFFFFFFF5
(1547753662.784153) can0 04EF0006#641515F01119A90E
(1547753662.791218) can0 0CF00400#FEFF9D2A1CFFFFFF
(1547753662.801194) can0 0CF00300#FF0024FF06FFFFFF
(1547753662.801767) can0 0CEFFF00#64062D7DFFFFFFFF
(1547753662.802368) can0 18EF0600#640EB100FFFFFFFF
(1547753662.802916) can0 0DEF0647#0104FFFFFFFFFFF1
(1547753662.803518) can0 0DEF0603#0101FFFFFFFFFFF5
(1547753662.804290) can0 04EF0006#641516F01119930E
(1547753662.804843) can0 0CFFFE06#5C271D271DFFFFFF
(1547753662.805443) can0 18FFFB06#0005AFF8FFFFFFFF
(1547753662.811233) can0 0CF00400#FEFF9D2A1CFFFFFF
(1547753662.821306) can0 0CF00300#FF0023FF06FFFFFF
(1547753662.821893) can0 0CEFFF00#64062D7DFFFFFFFF
(1547753662.822443) can0 18EFFF00#64100101D302057D
(1547753662.823017) can0 0DEF0603#0101FFFFFFFFFFF5
(1547753662.823619) can0 18FEF700#FFFFFFFFFFFF1801
(1547753662.824178) can0 0C000006#30FFFFFFF8FFFFFF
(1547753662.824729) can0 04EF0006#641517F01119930E
(1547753662.831269) can0 0CF00400#F0FF9D221CFFFFFF
(1547753662.841220) can0 0CF00300#FF0024FF06FFFFFF
(1547753662.841795) can0 0CEFFF00#64062E7DFFFFFFFF
(1547753662.842946) can0 0DEF0603#0101FFFFFFFFFFF5
(1547753662.844146) can0 04EF0006#641518F00B19930E
(1547753662.844720) can0 0CFE4947#FFFFFFFFFFFFFFFF
(1547753662.845319) can0 0CFE4347#0000FFFF3FFFFFFF
(1547753662.845921) can0 0CFE4447#0000FFFF3FFFFFFF
(1547753662.851269) can0 0CF00400#F0FF9D241CFFFFFF
(1547753662.861245) can0 0CF00300#FF0023FF06FFFFFF
(1547753662.861820) can0 0CEFFF00#64062D7DFFFFFFFF
(1547753662.862945) can0 0DEF0603#0101FFFFFFFFFFF5
(1547753662.864145) can0 04EF0006#641519F00B19930E
(1547753662.871358) can0 0CF00400#F0FF9D2C1CFFFFFF
(1547753662.881271) can0 0CF00300#FF0023FF07FFFFFF
(1547753662.881847) can0 0CEFFF00#64062C7DFFFFFFFF
(1547753662.882446) can0 18FEF200#2100FFFFFFFFFFFF
(1547753662.883020) can0 0DEF0603#0101FFFFFFFFFFF5
(1547753662.884170) can0 04EF0006#64151AF01119930E
(1547753662.884746) can0 18FEF147#FF0000FFFFFFFFFF
(1547753662.885371) can0 18F00503#7DFFFFFFFFFFFFFF
(1547753662.891272) can0 0CF00400#F0FF9C2C1CFFFFFF
(1547753662.901247) can0 0CF00300#FF0023FF07FFFFFF
(1547753662.901822) can0 0CEFFF00#64062C7DFFFFFFFF
(1547753662.902397) can0 18EF0600#640EBB00FFFFFFFF
(1547753662.902995) can0 0DEF0647#0104FFFFFFFFFFF1
(1547753662.903597) can0 0DEF0603#0101FFFFFFFFFFF5
(1547753662.904382) can0 04EF0006#64151BF01119A90E
(1547753662.911525) can0 0CF00400#F0FF9C221CFFFFFF
(1547753662.921276) can0 0CF00300#FF0025FF07FFFFFF
(1547753662.921823) can0 0CEFFF00#64062D7DFFFFFFFF
(1547753662.922399) can0 18EFFF00#64100101D302057D
(1547753662.922997) can0 0DEF0603#0101FFFFFFFFFFF5
(1547753662.923574) can0 18FED500#FFFFFDFFFFFFFFFF
(1547753662.924223) can0 04EF0006#64151CF00B19A90E
(1547753662.924773) can0 0CFE4947#FFFFFFFFFFFFFFFF
(1547753662.925404) can0 18FFFB06#0005ACF8FFFFFFFF
(1547753662.925917) can0 0CFFFF47#5DFFFFF3FFFFFFFF
(1547753662.926509) can0 0CFE4347#0000FFFF3FFFFFFF
(1547753662.927100) can0 0CFE4447#0000FFFF3FFFFFFF
(1547753662.927671) can0 0CFFFE06#5C531D531DFFFFFF
(1547753662.931241) can0 0CF00400#FEFF9D221CFFFFFF
(1547753662.941253) can0 0CF00300#FF0024FF07FFFFFF
(1547753662.941826) can0 0CEFFF00#64062E7DFFFFFFFF
(1547753662.942973) can0 0DEF0603#0101FFFFFFFFFFF5
(1547753662.944174) can0 04EF0006#64151DF00B19A90E
(1547753662.951327) can0 0CF00400#FEFF9D1E1CFFFFFF
(1547753662.961402) can0 0CF00300#FF0025FF07FFFFFF
(1547753662.961973) can0 0CEFFF00#6406317DFFFFFFFF
(1547753662.962550) can0 18FDB300#FFFF3428FFFFFFFF
(1547753662.963123) can0 0DEF0603#0101FFFFFFFFFFF5
(1547753662.964251) can0 04EF0006#64151EF00419A90E
(1547753662.964800) can0 18FEF147#FF0000FFFFFFFFFF
(1547753662.965401) can0 18F00503#7DFFFFFFFFFFFFFF
(1547753662.971252) can0 0CF00400#F0FF9E161CFFFFFF
(1547753662.981279) can0 0CF00300#FF0024FF07FFFFFF
(1547753662.981853) can0 0CEFFF00#6406307DFFFFFFFF
(1547753662.982453) can0 18FEF200#2300FFFFFFFFFFFF
(1547753662.983025) can0 0DEF0603#0101FFFFFFFFFFF5
(1547753662.984225) can0 04EF0006#64151FF00919A90E
(1547753662.991254) can0 0CF00400#F0FF9D201CFFFFFF
(1547753663.001529) can0 0CF00300#FF0023FF07FFFFFF
(1547753663.002102) can0 0CEFFF00#64062E7DFFFFFFFF
(1547753663.002658) can0 0DEF0647#0104FFFFFFFFFFF1
(1547753663.003276) can0 18EF0600#640EC500FFFFFFFF
(1547753663.003855) can0 0DEF0603#0101FFFFFFFFFFF5
(1547753663.004402) can0 04EF0006#641510F00B19A90E
(1547753663.004949) can0 0CFFFE06#5C531D531DFFFFFF
(1547753663.005496) can0 18FFFF06#73FFFFFFFFFFFFFF
(1547753663.011265) can0 0CF00400#FEFF9D2E1CFFFFFF
(1547753663.021247) can0 0CF00300#FF0023FF07FFFFFF
(1547753663.021836) can0 0CEFFF00#6406297DFFFFFFFF
(1547753663.022426) can0 18EFFF00#64100101D302057D
(1547753663.023025) can0 0DEF0603#0101FFFFFFFFFFF5
(1547753663.023602) can0 18FEDF00#8A2C1CFFFFFFFFFF
(1547753663.024225) can0 04EF0006#641511F01119A90E
(1547753663.031251) can0 0CF00400#FEFF9B2A1CFFFFFF
(1547753663.041304) can0 0CF00300#FF0024FF07FFFFFF
(1547753663.041853) can0 0CEFFF00#64062D7DFFFFFFFF
(1547753663.042430) can0 18FEEF00#FFFFFF64FFFFFFFA
(1547753663.042996) can0 0DEF0603#0101FFFFFFFFFFF5
(1547753663.044171) can0 04EF0006#641512F01119A90E
(1547753663.044756) can0 0CFE4947#FFFFFFFFFFFFFFFF
(1547753663.045355) can0 1CFDDF47#FCFFFFFFFFFFFFFF
(1547753663.045932) can0 0CFE4347#0000FFFF3FFFFFFF
(1547753663.046462) can0 18FFFB06#0005ACF8FFFFFFFF
(1547753663.047041) can0 0CFE4447#0000FFFF3FFFFFFF
(1547753663.051303) can0 0CF00400#FEFF9D261CFFFFFF
(1547753663.061253) can0 0CF00300#FF0023FF07FFFFFF
(1547753663.061853) can0 0CEFFF00#64062E7DFFFFFFFF
(1547753663.062952) can0 0DEF0603#0101FFFFFFFFFFF5
(1547753663.064178) can0 04EF0006#641513F00B19A90E
(1547753663.071281) can0 0CF00400#FEFF9D281CFFFFFF
(1547753663.081404) can0 0CF00300#FF0023FF07FFFFFF
(1547753663.081954) can0 0CEFFF00#64062D7DFFFFFFFF
(1547753663.082529) can0 18FEF200#2300FFFFFFFFFFFF
(1547753663.083127) can0 0DEF0603#0101FFFFFFFFFFF5
(1547753663.084180) can0 04EF0006#641514F01119A90E
(1547753663.084781) can0 18FEF147#FF0000FFFFFFFFFF
(1547753663.085406) can0 18F00647#FFCFFFFFFFFFFFFF
(1547753663.085981) can0 18F00503#7DFFFFFFFFFFFFFF
(1547753663.091424) can0 0CF00400#FEFF9D261CFFFFFF
(1547753663.101248) can0 0CF00300#FF0024FF07FFFFFF
(1547753663.101857) can0 0CEFFF00#64062E7DFFFFFFFF
(1547753663.102454) can0 18EF0600#640ECF00FFFFFFFF
(1547753663.103031) can0 0DEF0647#0104FFFFFFFFFFF1
(1547753663.103599) can0 0DEF0603#0101FFFFFFFFFFF5
(1547753663.104292) can0 04EF0006#641515F00B19A90E
(1547753663.111282) can0 0CF00400#FEFF9D241CFFFFFF
(1547753663.121281) can0 0CF00300#FF0022FF06FFFFFF
(1547753663.121857) can0 0CEFFF00#64062E7DFFFFFFFF
(1547753663.122406) can0 18EFFF00#64100101D302057D
(1547753663.123005) can0 0DEF0603#0101FFFFFFFFFFF5
(1547753663.123581) can0 18FEF600#FF003DFF00FFFFFF
(1547753663.124229) can0 04EF0006#641516F00B19A90E
(1547753663.124807) can0 0CFE4947#FFFFFFFFFFFFFFFF
(1547753663.125373) can0 0CFE4347#0000FFFF3FFFFFFF
(1547753663.125948) can0 0CFE4447#0000FFFF3FFFFFFF
(1547753663.126539) can0 0CFFFE06#5C531D531DFFFFFF
(1547753663.131276) can0 0CF00400#FEFF9D301CFFFFFF
(1547753663.141306) can0 0CF00300#FF0021FF06FFFFFF
(1547753663.141860) can0 0CEFFF00#64062B7DFFFFFFFF
(1547753663.142981) can0 0DEF0603#0101FFFFFFFFFFF5
(1547753663.144182) can0 04EF0006#641517F00719930E
(1547753663.151285) can0 0CF00400#FEFF9C381CFFFFFF
(1547753663.161260) can0 0CF00300#FF0023FF06FFFFFF
(1547753663.161832) can0 0CEFFF00#64062A7DFFFFFFFF
(1547753663.162983) can0 0DEF0603#0101FFFFFFFFFFF5
(1547753663.164181) can0 04EF0006#641518F0CC18930E
(1547753663.164734) can0 0CFFFE06#5C271D271DFFFFFF
(1547753663.165307) can0 18FEF147#FF0000FFFFFFFFFF
(1547753663.165938) can0 18FFFB06#0005AFF8FFFFFFFF
(1547753663.166533) can0 18F00503#7DFFFFFFFFFFFFFF
(1547753663.171289) can0 0CF00400#F0FF9B2E1CFFFFFF
(1547753663.171887) can0 18FFFA00#022C0000180C0081
(1547753663.181439) can0 0CF00300#FF0023FF07FFFFFF
(1547753663.182016) can0 0CEFFF00#64062C7DFFFFFFFF
(1547753663.182615) can0 18FEF200#2100FFFFFFFFFFFF
(1547753663.183187) can0 0DEF0603#0101FFFFFFFFFFF5
(1547753663.184215) can0 04EF0006#641519F01119930E
(1547753663.191239) can0 0CF00400#F0FF9C2A1CFFFFFF
(1547753663.201264) can0 0CF00300#FF0023FF07FFFFFF
(1547753663.201839) can0 0CEFFF00#64062C7DFFFFFFFF
(1547753663.202415) can0 18EF0600#640ED900FFFFFFFF
(1547753663.203014) can0 0DEF0647#0104FFFFFFFFFFF1
(1547753663.203590) can0 18FEF500#C8FFFFFFFF3AFFFF
(1547753663.204164) can0 0DEF0603#0101FFFFFFFFFFF5
(1547753663.204713) can0 04EF0006#64151AF01119A90E
(1547753663.205227) can0 0CFFFE06#5C531D531DFFFFFF
(1547753663.211254) can0 0CF00400#F0FF9C261CFFFFFF
(1547753663.221330) can0 0CF00300#FF0025FF07FFFFFF
(1547753663.221898) can0 0CEFFF00#64062D7DFFFFFFFF
(1547753663.222515) can0 18EFFF00#64100101D302057D
(1547753663.223091) can0 0DEF0603#0101FFFFFFFFFFF5
(1547753663.224214) can0 04EF0006#64151BF00B19A90E
(1547753663.231317) can0 0CF00400#FEFF9D1A1CFFFFFF
(1547753663.241291) can0 0CF00300#FF0024FF07FFFFFF
(1547753663.241866) can0 0CEFFF00#6406337DFFFFFFFF
(1547753663.242415) can0 18FE6900#D024B626FFFF60FE
(1547753663.243039) can0 0DEF0603#0101FFFFFFFFFFF5
(1547753663.244265) can0 04EF0006#64151CF00419A90E
(1547753663.244841) can0 0CFE4947#FFFFFFFFFFFFFFFF
(1547753663.245442) can0 0CFE4347#0000FFFF3FFFFFFF
(1547753663.246042) can0 0CFE4447#0000FFFF3FFFFFFF
(1547753663.251282) can0 0CF00400#F0FF9E181CFFFFFF
(1547753663.261380) can0 0CF00300#FF0024FF07FFFFFF
(1547753663.261969) can0 0CEFFF00#6406307DFFFFFFFF
(1547753663.263016) can0 0DEF0603#0101FFFFFFFFFFF5
(1547753663.264241) can0 04EF0006#64151DF00419A90E
(1547753663.271411) can0 0CF00400#FEFF9D201CFFFFFF
(1547753663.272014) can0 18FEDF00#8B221CFFFFFFFFFF
(1547753663.281319) can0 0CF00300#FF0023FF07FFFFFF
(1547753663.281893) can0 0CEFFF00#64062E7DFFFFFFFF
(1547753663.282492) can0 18FEF200#2300FFFFFFFFFFFF
(1547753663.283066) can0 0DEF0603#0101FFFFFFFFFFF5
(1547753663.284218) can0 04EF0006#64151EF00B19A90E
(1547753663.284792) can0 18FEF147#FF0000FFFFFFFFFF
(1547753663.285420) can0 18FFFB06#0005AFF8FFFFFFFF
(1547753663.285959) can0 18F00503#7DFFFFFFFFFFFFFF
(1547753663.291258) can0 0CF00400#FEFF9D201CFFFFFF
(1547753663.301258) can0 0CF00300#FF0025FF07FFFFFF
(1547753663.301849) can0 0CEFFF00#6406307DFFFFFFFF
(1547753663.302445) can0 18EF0600#640EE300FFFFFFFF
(1547753663.303043) can0 0DEF0647#0104FFFFFFFFFFF1
(1547753663.303609) can0 0DEF0603#0101FFFFFFFFFFF5
(1547753663.304382) can0 04EF0006#64151FF00B19A90E
(1547753663.311597) can0 0CF00400#F0FF9E1C1CFFFFFF
(1547753663.321324) can0 0CF00300#FF0025FF07FFFFFF
(1547753663.321894) can0 0CEFFF00#64062F7DFFFFFFFF
(1547753663.322445) can0 18EFFF00#64100101D302057D
(1547753663.323042) can0 0DEF0603#0101FFFFFFFFFFF5
(1547753663.324269) can0 04EF0006#641510F00419A90E
(1547753663.324846) can0 0CFE4947#FFFFFFFFFFFFFFFF
(1547753663.325244) can0 18EA0006#E3FE00
(1547753663.325820) can0 0CFE4347#0000FFFF3FFFFFFF
(1547753663.326421) can0 0CFE4447#0000FFFF3FFFFFFF
(1547753663.326992) can0 0CFFFE06#5C531D531DFFFFFF
(1547753663.331324) can0 0CF00400#F0FF9D201CFFFFFF
(1547753663.341271) can0 0CF00300#FF0024FF06FFFFFF
(1547753663.341846) can0 0CEFFF00#64062E7DFFFFFFFF
(1547753663.342996) can0 0DEF0603#0101FFFFFFFFFFF5
(1547753663.344219) can0 04EF0006#641511F00B19A90E
(1547753663.351474) can0 0CF00400#FEFF9D201CFFFFFF
(1547753663.352796) can0 1CFFFF17#22FFFF3CFFFFFFFF
(1547753663.361447) can0 0CF00300#FF0025FF06FFFFFF
(1547753663.362020) can0 0CEFFF00#64062F7DFFFFFFFF
(1547753663.362421) can0 18EAFF06#E5FE00
(1547753663.362993) can0 18FD7C00#F880F1F400CF03FC
(1547753663.363571) can0 0DEF0603#0101FFFFFFFFFFF5
(1547753663.364269) can0 04EF0006#641512F00B19930E
(1547753663.364845) can0 0CFFFE06#5C271D271DFFFFFF
(1547753663.365421) can0 18FEF147#FF0000FFFFFFFFFF
(1547753663.366022) can0 18FEE706#CC0A0000FFFFFFFF
(1547753663.366596) can0 18F00503#7DFFFFFFFFFFFFFF
(1547753663.371301) can0 0CF00400#FEFF9D1C1CFFFFFF
(1547753663.376523) can0 18FEE500#CC0A0000FFFFFFFF
(1547753663.377100) can0 1CEC0600#1022000505E3FE00
(1547753663.380902) can0 1CEC0006#110501FFFFE3FE00
(1547753663.381477) can0 0CF00300#FF0024FF07FFFFFF
(1547753663.382043) can0 0CEFFF00#6406317DFFFFFFFF
(1547753663.382653) can0 18FEF200#2400FFFFFFFFFFFF
(1547753663.383226) can0 0DEF0603#0101FFFFFFFFFFF5
(1547753663.384351) can0 04EF0006#641513F00419930E
(1547753663.391282) can0 0CF00400#F0FF9E281CFFFFFF
(1547753663.401635) can0 0CF00300#FF0023FF07FFFFFF
(1547753663.402210) can0 0CEFFF00#64062D7DFFFFFFFF
(1547753663.402812) can0 0DEF0647#0104FFFFFFFFFFF1
(1547753663.403338) can0 18EF0600#640EED00FFFFFFFF
(1547753663.403962) can0 0DEF0603#0101FFFFFFFFFFF5
(1547753663.404511) can0 04EF0006#641514F01119A90E
(1547753663.405059) can0 0CFFFE06#5C531D531DFFFFFF
(1547753663.405590) can0 18FFFB06#0005B2F8FFFFFFFF
(1547753663.411318) can0 0CF00400#F0FF9D341CFFFFFF
(1547753663.421266) can0 0CF00300#FF0022FF06FFFFFF
(1547753663.421885) can0 0CEFFF00#64062B7DFFFFFFFF
(1547753663.422432) can0 18EFFF00#64100101D402057D
(1547753663.423056) can0 0DEF0603#0101FFFFFFFFFFF5
(1547753663.424256) can0 04EF0006#641515F00719A90E
(1547753663.431288) can0 0CF00400#FEFF9C2E1CFFFFFF
(1547753663.441338) can0 0CF00300#FF0024FF07FFFFFF
(1547753663.441910) can0 0CEFFF00#64062D7DFFFFFFFF
(1547753663.443035) can0 0DEF0603#0101FFFFFFFFFFF5
(1547753663.444234) can0 04EF0006#641516F01119930E
(1547753663.444810) can0 0CFE4947#FFFFFFFFFFFFFFFF
(1547753663.445436) can0 0CFFFF47#5DFFFFF3FFFFFFFF
(1547753663.445987) can0 0CFE4347#0000FFFF3FFFFFFF
(1547753663.446534) can0 0CFE4447#0000FFFF3FFFFFFF
(1547753663.447184) can0 0CFFFE06#5C271D271DFFFFFF
(1547753663.451345) can0 0CF00400#FEFF9D2A1CFFFFFF
(1547753663.461314) can0 0CF00300#FF0023FF07FFFFFF
(1547753663.461888) can0 0CEFFF00#64062C7DFFFFFFFF
(1547753663.462419) can0 18FDB300#FFFF3428FFFFFFFF
(1547753663.462976) can0 0DEF0603#0101FFFFFFFFFFF5
(1547753663.463637) can0 1CEFFF00#64070000FFFFFFFF
(1547753663.464263) can0 04EF0006#641517F01119A90E
(1547753663.471272) can0 0CF00400#F0FF9C2C1CFFFFFF
(1547753663.476450) can0 1CEB0600#01201CDD6842DCA0
(1547753663.481398) can0 0CF00300#FF0023FF06FFFFFF
(1547753663.481998) can0 0CEFFF00#64062C7DFFFFFFFF
(1547753663.482574) can0 18FEF200#2100FFFFFFFFFFFF
(1547753663.483147) can0 0DEF0603#0101FFFFFFFFFFF5
(1547753663.484197) can0 04EF0006#641518F01119A90E
(1547753663.484782) can0 0CFFFE06#5C531D531DFFFFFF
(1547753663.485346) can0 18FEF147#FF0000FFFFFFFFFF
(1547753663.485949) can0 18FFFB06#001BFFFFFFFFFFFF
(1547753663.486532) can0 18F00503#7DFFFFFFFFFFFFFF
(1547753663.491433) can0 0CF00400#FEFF9C261CFFFFFF
(1547753663.501286) can0 0CF00300#FF0025FF07FFFFFF
(1547753663.501873) can0 0CEFFF00#64062F7DFFFFFFFF
(1547753663.502449) can0 18EF0600#640EF700FFFFFFFF
(1547753663.503030) can0 0DEF0647#0104FFFFFFFFFFF1
(1547753663.503633) can0 0DEF0603#0101FFFFFFFFFFF5
(1547753663.504346) can0 04EF0006#641519F00B19930E
(1547753663.511301) can0 0CF00400#FEFF9D241CFFFFFF
(1547753663.521253) can0 0CF00300#FF0023FF06FFFFFF
(1547753663.521825) can0 0CEFFF00#64062D7DFFFFFFFF
(1547753663.522398) can0 18EFFF00#64100101D302057D
(1547753663.522972) can0 18FEDF00#8B201CFFFFFFFFFF
(1547753663.523573) can0 0DEF0603#0101FFFFFFFFFFF5
(1547753663.524121) can0 1CEB0600#020FD58D20E37A31
(1547753663.524673) can0 04EF0006#64151AF00B19A90E
(1547753663.525231) can0 0CFE4947#FFFFFFFFFFFFFFFF
(1547753663.525808) can0 18FE6847#3CFFFFFFFFFFFFFF
(1547753663.526386) can0 0CFE4347#0000FFFF3FFFFFFF
(1547753663.526981) can0 18FFFF06#73FFFFFFFFFFFFFF
(1547753663.527574) can0 0CFE4447#0000FFFF3FFFFFFF
(1547753663.528132) can0 18FFFB06#0005AFF8FFFFFFFF
(1547753663.528725) can0 0CFFFE06#5C531D531DFFFFFF
(1547753663.531300) can0 0CF00400#F0FF9D2E1CFFFFFF
(1547753663.541278) can0 0CF00300#FF0021FF07FFFFFF
(1547753663.541876) can0 0CEFFF00#64062C7DFFFFFFFF
(1547753663.542452) can0 18FEEF00#FFFFFF65FFFFFFFA
(1547753663.543024) can0 0DEF0603#0101FFFFFFFFFFF5
(1547753663.544185) can0 04EF0006#64151BF01119930E
(1547753663.551329) can0 0CF00400#FEFF9C321CFFFFFF
(1547753663.561278) can0 0CF00300#FF0023FF06FFFFFF
(1547753663.561852) can0 0CEFFF00#64062B7DFFFFFFFF
(1547753663.563002) can0 0DEF0603#0101FFFFFFFFFFF5
(1547753663.564201) can0 04EF0006#64151CF00719A90E
(1547753663.564778) can0 0CFFFF47#5EFFFFFFFFFFFFFF
(1547753663.565335) can0 18FEF147#FF0000FFFFFFFFFF
(1547753663.565904) can0 0CFFFE06#5C531D531DFFFFFF
(1547753663.566503) can0 18FEFC47#FFFFFFFFFFFFFFFF
(1547753663.567076) can0 18EF0047#F220610FFFFFFFFF
(1547753663.567661) can0 18F00647#FFCFFFFFFFFFFFFF
(1547753663.568259) can0 1CFDDF47#FCFFFFFFFFFFFFFF
(1547753663.568860) can0 18F00503#7DFFFFFFFFFFFFFF
(1547753663.571313) can0 0CF00400#F0FF9C2C1CFFFFFF
(1547753663.576661) can0 1CEB0600#03F1C044FFFF0401
(1547753663.581430) can0 0CF00300#FF0024FF06FFFFFF
(1547753663.582001) can0 0CEFFF00#64062C7DFFFFFFFF
(1547753663.582577) can0 18FEF200#2100FFFFFFFFFFFF
(1547753663.583151) can0 0DEF0603#0101FFFFFFFFFFF5
(1547753663.584202) can0 04EF0006#64151DF01119930E
(1547753663.591255) can0 0CF00400#FEFF9C2C1CFFFFFF
(1547753663.601280) can0 0CF00300#FF0023FF07FFFFFF
(1547753663.601879) can0 0CEFFF00#64062C7DFFFFFFFF
(1547753663.602428) can0 18EF0600#640E0100FFFFFFFF
(1547753663.603026) can0 0DEF0647#0104FFFFFFFFFFF1
(1547753663.603629) can0 0DEF0603#0101FFFFFFFFFFF5
(1547753663.604351) can0 04EF0006#64151EF01119930E
(1547753663.604905) can0 0CFFFE06#5C271D271DFFFFFF
(1547753663.611313) can0 0CF00400#F0FF9C2A1CFFFFFF
(1547753663.621388) can0 0CF00300#FF0023FF07FFFFFF
(1547753663.621948) can0 0CEFFF00#64062C7DFFFFFFFF
(1547753663.622541) can0 18EFFF00#64100101D302057D
(1547753663.623115) can0 0DEF0603#0101FFFFFFFFFFF5
(1547753663.623691) can0 18FEF600#FF003DFF00FFFFFF
(1547753663.624239) can0 04EF0006#64151FF01119A90E
(1547753663.624816) can0 1CEB0600#04204E0001FAC9FA
(1547753663.625391) can0 1CECFF00#20220005FFE3FE00
(1547753663.631302) can0 0CF00400#F0FF9C1E1CFFFFFF
(1547753663.641228) can0 18EFFA00#6401FF0000FFFFFF
(1547753663.641802) can0 0CEFFF00#64062E7DFFFFFFFF
(1547753663.642393) can0 0CF00300#FF0026FF07FFFFFF
(1547753663.643017) can0 0DEF0603#0101FFFFFFFFFFF5
(1547753663.644242) can0 04EF0006#641510F00419A90E
(1547753663.644818) can0 0CFE4947#FFFFFFFFFFFFFFFF
(1547753663.645392) can0 18FFFB06#0005ACF8FFFFFFFF
(1547753663.645968) can0 0CFE4347#0000FFFF3FFFFFFF
(1547753663.646576) can0 0CFE4447#0000FFFF3FFFFFFF
(1547753663.647149) can0 0CFFFE06#5C531D531DFFFFFF
(1547753663.651302) can0 0CF00400#F0FF9D201CFFFFFF
(1547753663.661344) can0 0CF00300#FF0022FF07FFFFFF
(1547753663.661920) can0 0CEFFF00#64062D7DFFFFFFFF
(1547753663.662993) can0 0DEF0603#0101FFFFFFFFFFF5
(1547753663.664193) can0 04EF0006#641511F00B19A90E
(1547753663.671446) can0 0CF00400#FEFF9D2A1CFFFFFF
(1547753663.676544) can0 1CEB0600#05C05D0000FFFFFF
(1547753663.677116) can0 1CEBFF00#01201CEC6842EAA0
(1547753663.681319) can0 0CF00300#FF0022FF07FFFFFF
(1547753663.681905) can0 0CEFFF00#64062C7DFFFFFFFF
(1547753663.682466) can0 18FEF200#2100FFFFFFFFFFFF
(1547753663.683038) can0 0DEF0603#0101FFFFFFFFFFF5
(1547753663.684206) can0 04EF0006#641512F01119A90E
(1547753663.684782) can0 18FEF147#FF0000FFFFFFFFFF
(1547753663.685406) can0 18F00503#7DFFFFFFFFFFFFFF
(1547753663.685950) can0 1CEC0006#13220005FFE3FE00
(1547753663.691315) can0 0CF00400#FEFF9C2A1CFFFFFF
(1547753663.701293) can0 0CF00300#FF0025FF07FFFFFF
(1547753663.701883) can0 0CEFFF00#64062E7DFFFFFFFF
(1547753663.702481) can0 18EF0600#640E0B00FFFFFFFF
(1547753663.703055) can0 0DEF0647#0104FFFFFFFFFFF1
(1547753663.703640) can0 0DEF0603#0101FFFFFFFFFFF5
(1547753663.704338) can0 04EF0006#641513F01119A90E
(1547753663.711584) can0 0CF00400#FEFF9D241CFFFFFF
(1547753663.721286) can0 0CF00300#FF0024FF06FFFFFF
(1547753663.721858) can0 0CEFFF00#64062E7DFFFFFFFF
(1547753663.722433) can0 18EFFF00#64100101D302057D
(1547753663.722990) can0 0DEF0603#0101FFFFFFFFFFF5
(1547753663.723757) can0 1CEBFF00#020FE38D20F17A31
(1547753663.724305) can0 04EF0006#641514F00B19A90E
(1547753663.724883) can0 0CFE4947#FFFFFFFFFFFFFFFF
(1547753663.725483) can0 0CFE4347#0000FFFF3FFFFFFF
(1547753663.726067) can0 0CFE4447#0000FFFF3FFFFFFF
(1547753663.731293) can0 0CF00400#FEFF9D241CFFFFFF
(1547753663.741309) can0 0CF00300#FF0024FF06FFFFFF
(1547753663.741886) can0 0CEFFF00#64062D7DFFFFFFFF
(1547753663.742459) can0 18FEEE00#4C42FFFFFFFFFFFF
(1547753663.743057) can0 0DEF0603#0101FFFFFFFFFFF5
(1547753663.744209) can0 04EF0006#641515F00B19930E
(1547753663.751410) can0 0CF00400#FEFF9D221CFFFFFF
(1547753663.761361) can0 0CF00300#FF0024FF07FFFFFF
(1547753663.761935) can0 0CEFFF00#64062F7DFFFFFFFF
(1547753663.763008) can0 0DEF0603#0101FFFFFFFFFFF5
(1547753663.764183) can0 04EF0006#641516F00B19930E
(1547753663.764760) can0 0CFFFE06#5C271D271DFFFFFF
(1547753663.765332) can0 18FEF147#FF0000FFFFFFFFFF
(1547753663.765937) can0 18FFFB06#000587F8FFFFFFFF
(1547753663.766535) can0 18F00503#7DFFFFFFFFFFFFFF
(1547753663.771294) can0 0CF00400#F0FF9D1C1CFFFFFF
(1547753663.771885) can0 18FEDF00#8B201CFFFFFFFFFF
(1547753663.776536) can0 1CEBFF00#03FAC044FFFF0401
(1547753663.781312) can0 0CF00300#FF0024FF07FFFFFF
(1547753663.781868) can0 0CEFFF00#64062F7DFFFFFFFF
(1547753663.782460) can0 18FEF200#2300FFFFFFFFFFFF
(1547753663.783059) can0 0DEF0603#0101FFFFFFFFFFF5
(1547753663.784260) can0 04EF0006#641517F00419A90E
(1547753663.791413) can0 0CF00400#F0FF9D261CFFFFFF
(1547753663.801513) can0 0CF00300#FF0022FF07FFFFFF
(1547753663.802084) can0 0CEFFF00#64062C7DFFFFFFFF
(1547753663.802661) can0 0DEF0647#0104FFFFFFFFFFF1
(1547753663.803234) can0 18EF0600#640E1500FFFFFFFF
(1547753663.803811) can0 0DEF0603#0101FFFFFFFFFFF5
(1547753663.804358) can0 04EF0006#641518F00B19A90E
(1547753663.804911) can0 0CFFFE06#5C531D531DFFFFFF
(1547753663.811348) can0 0CF00400#FEFF9C321CFFFFFF
(1547753663.821270) can0 0CF00300#FF0023FF07FFFFFF
(1547753663.821844) can0 0CEFFF00#64062A7DFFFFFFFF
(1547753663.822438) can0 18EFFF00#64100101D402057D
(1547753663.823010) can0 18FEF700#FFFFFFFFFFFF1901
(1547753663.823587) can0 0DEF0603#0101FFFFFFFFFFF5
(1547753663.824158) can0 1CEBFF00#04204E0001FAC9FA
(1547753663.824710) can0 04EF0006#641519F00719A90E
(1547753663.825309) can0 0C000006#30FFFFFFF8FFFFFF
(1547753663.831300) can0 0CF00400#FEFF9B2A1CFFFFFF
(1547753663.841297) can0 0CF00300#FF0024FF06FFFFFF
(1547753663.841870) can0 0CEFFF00#64062F7DFFFFFFFF
(1547753663.843011) can0 0DEF0603#0101FFFFFFFFFFF5
(1547753663.844187) can0 04EF0006#64151AF01119A90E
(1547753663.844763) can0 0CFE4947#FFFFFFFFFFFFFFFF
(1547753663.845361) can0 0CFE4347#0000FFFF3FFFFFFF
(1547753663.845965) can0 0CFE4447#0000FFFF3FFFFFFF
(1547753663.851411) can0 0CF00400#FEFF9D261CFFFFFF
(1547753663.861288) can0 0CF00300#FF0024FF07FFFFFF
(1547753663.861863) can0 0CEFFF00#64062D7DFFFFFFFF
(1547753663.863013) can0 0DEF0603#0101FFFFFFFFFFF5
(1547753663.864213) can0 04EF0006#64151BF00B19930E
(1547753663.871315) can0 0CF00400#FEFF9D261CFFFFFF
(1547753663.876453) can0 1CEBFF00#05C05D0000FFFFFF
(1547753663.881452) can0 0CF00300#FF0023FF07FFFFFF
(1547753663.882022) can0 0CEFFF00#64062D7DFFFFFFFF
(1547753663.882614) can0 18FEF200#2100FFFFFFFFFFFF
(1547753663.883187) can0 0DEF0603#0101FFFFFFFFFFF5
(1547753663.884213) can0 04EF0006#64151CF00B19A90E
(1547753663.884789) can0 0CFFFE06#5C531D531DFFFFFF
(1547753663.885361) can0 18FEF147#FF0000FFFFFFFFFF
(1547753663.885967) can0 18FFFB06#000587F8FFFFFFFF
(1547753663.886547) can0 18F00503#7DFFFFFFFFFFFFFF
(1547753663.891448) can0 0CF00400#F0FF9D221CFFFFFF
(1547753663.901296) can0 0CF00300#FF0026FF07FFFFFF
(1547753663.901894) can0 0CEFFF00#64062D7DFFFFFFFF
(1547753663.902462) can0 18EF0600#640E1F00FFFFFFFF
(1547753663.903045) can0 0DEF0647#0104FFFFFFFFFFF1
(1547753663.903621) can0 0DEF0603#0101FFFFFFFFFFF5
(1547753663.904462) can0 04EF0006#64151DF00B19A90E
(1547753663.911337) can0 0CF00400#FEFF9D221CFFFFFF
(1547753663.921290) can0 0CF00300#FF0023FF07FFFFFF
(1547753663.921863) can0 0CEFFF00#64062D7DFFFFFFFF
(1547753663.922437) can0 18EFFF00#64100101D302057D
(1547753663.923035) can0 0DEF0603#0101FFFFFFFFFFF5
(1547753663.923613) can0 18FED500#FFFFFDFFFFFFFFFF
(1547753663.924236) can0 04EF0006#64151EF00B19A90E
(1547753663.924813) can0 0CFE4947#FFFFFFFFFFFFFFFF
(1547753663.925397) can0 0CFFFF47#5DFFFFF3FFFFFFFF
(1547753663.925996) can0 0CFE4347#0000FFFF3FFFFFFF
(1547753663.926597) can0 0CFE4447#0000FFFF3FFFFFFF
(1547753663.931382) can0 0CF00400#FEFF9D2A1CFFFFFF
(1547753663.941313) can0 0CF00300#FF0023FF07FFFFFF
(1547753663.941888) can0 0CEFFF00#64062B7DFFFFFFFF
(1547753663.943012) can0 0DEF0603#0101FFFFFFFFFFF5
(1547753663.944211) can0 04EF0006#64151FF01119A90E
(1547753663.951308) can0 0CF00400#FEFF9C2E1CFFFFFF
(1547753663.961287) can0 0CF00300#FF0024FF07FFFFFF
(1547753663.961863) can0 0CEFFF00#64062C7DFFFFFFFF
(1547753663.962438) can0 18FDB300#FFFF3428FFFFFFFF
(1547753663.963035) can0 0DEF0603#0101FFFFFFFFFFF5
(1547753663.964212) can0 04EF0006#641510F01119A90E
(1547753663.964788) can0 18FEF147#FF0000FFFFFFFFFF
(1547753663.965413) can0 18F00503#7DFFFFFFFFFFFFFF
(1547753663.971339) can0 0CF00400#FEFF9C241CFFFFFF
(1547753663.981464) can0 0CF00300#FF0024FF07FFFFFF
(1547753663.982038) can0 0CEFFF00#64062F7DFFFFFFFF
(1547753663.982614) can0 18FEF200#2300FFFFFFFFFFFF
(1547753663.983188) can0 0DEF0603#0101FFFFFFFFFFF5
(1547753663.984216) can0 04EF0006#641511F00B19A90E
(1547753663.991340) can0 0CF00400#FEFF9D221CFFFFFF
(1547753664.001290) can0 0CF00300#FF0024FF07FFFFFF
(1547753664.001892) can0 0CEFFF00#64062E7DFFFFFFFF
(1547753664.002464) can0 18EF0600#640E2900FFFFFFFF
(1547753664.003037) can0 0DEF0647#0104FFFFFFFFFFF1
(1547753664.003639) can0 0DEF0603#0101FFFFFFFFFFF5
(1547753664.004362) can0 04EF0006#641512F00B19A90E
(1547753664.004913) can0 0CFFFE06#5C531D531DFFFFFF
(1547753664.005500) can0 18FFFF06#73FFFFFFFFFFFFFF
(1547753664.006100) can0 18FFFB06#000587F8FFFFFFFF
(1547753664.011327) can0 0CF00400#FEFF9D221CFFFFFF
(1547753664.021415) can0 0CF00300#FF0025FF06FFFFFF
(1547753664.021964) can0 0CEFFF00#64062E7DFFFFFFFF
(1547753664.022539) can0 18EFFF00#64100101D302057D
(1547753664.023138) can0 0DEF0603#0101FFFFFFFFFFF5
(1547753664.023714) can0 18FEDF00#8B241CFFFFFFFFFF
(1547753664.024262) can0 04EF0006#641513F00B19A90E
(1547753664.031314) can0 0CF00400#FEFF9D1A1CFFFFFF
(1547753664.032693) can0 1CFFFF17#22FFFF3CFFFFFFFF
(1547753664.041290) can0 0CF00300#FF0024FF07FFFFFF
(1547753664.041892) can0 0CEFFF00#6406327DFFFFFFFF
(1547753664.042466) can0 18FEEF00#FFFFFF66FFFFFFFA
(1547753664.043039) can0 0DEF0603#0101FFFFFFFFFFF5
(1547753664.044265) can0 04EF0006#641514F00419930E
(1547753664.044841) can0 0CFE4947#FFFFFFFFFFFFFFFF
(1547753664.045441) can0 1CFDDF47#FCFFFFFFFFFFFFFF
(1547753664.046016) can0 0CFE4347#0000FFFF3FFFFFFF
(1547753664.046601) can0 0CFE4447#0000FFFF3FFFFFFF
(1547753664.047174) can0 0CFFFE06#5C271D271DFFFFFF
(1547753664.051329) can0 0CF00400#F0FF9E1C1CFFFFFF
(1547753664.061366) can0 0CF00300#FF0023FF07FFFFFF
(1547753664.061943) can0 0CEFFF00#64062F7DFFFFFFFF
(1547753664.063041) can0 0DEF0603#0101FFFFFFFFFFF5
(1547753664.064266) can0 04EF0006#641515F00419A90E
(1547753664.071467) can0 0CF00400#F0FF9D261CFFFFFF
(1547753664.081343) can0 0CF00300#FF0022FF06FFFFFF
(1547753664.081918) can0 0CEFFF00#64062D7DFFFFFFFF
(1547753664.082493) can0 18FEF200#2100FFFFFFFFFFFF
(1547753664.083066) can0 0DEF0603#0101FFFFFFFFFFF5
(1547753664.084242) can0 04EF0006#641516F00B19A90E
(1547753664.084792) can0 0CFFFE06#5C531D531DFFFFFF
(1547753664.085365) can0 18FEF147#FF0000FFFFFFFFFF
(1547753664.085969) can0 18F00647#FFCFFFFFFFFFFFFF
(1547753664.086553) can0 18F00503#7DFFFFFFFFFFFFFF
(1547753664.091303) can0 0CF00400#FEFF9D261CFFFFFF
(1547753664.101304) can0 0CF00300#FF0025FF07FFFFFF
(1547753664.101894) can0 0CEFFF00#64062F7DFFFFFFFF
(1547753664.102468) can0 18EF0600#640E3300FFFFFFFF
(1547753664.103052) can0 0DEF0647#0104FFFFFFFFFFF1
(1547753664.103643) can0 0DEF0603#0101FFFFFFFFFFF5
(1547753664.104365) can0 04EF0006#641517F00B19930E
(1547753664.111569) can0 0CF00400#FEFF9D201CFFFFFF
(1547753664.121319) can0 0CF00300#FF0024FF07FFFFFF
(1547753664.121896) can0 0CEFFF00#64062E7DFFFFFFFF
(1547753664.122468) can0 18EFFF00#64100101D302057D
(1547753664.123067) can0 0DEF0603#0101FFFFFFFFFFF5
(1547753664.123644) can0 18FEF600#FF003CFF00FFFFFF
(1547753664.124266) can0 04EF0006#641518F00B19A90E
(1547753664.124819) can0 0CFE4947#FFFFFFFFFFFFFFFF
(1547753664.125404) can0 0CFE4347#0000FFFF3FFFFFFF
(1547753664.125987) can0 0CFE4447#0000FFFF3FFFFFFF
(1547753664.126579) can0 0CFFFE06#5C531D531DFFFFFF
(1547753664.131305) can0 0CF00400#F0FF9D201CFFFFFF
(1547753664.141319) can0 0CF00300#FF0024FF07FFFFFF
(1547753664.141896) can0 0CEFFF00#64062E7DFFFFFFFF
(1547753664.143020) can0 0DEF0603#0101FFFFFFFFFFF5
(1547753664.144221) can0 04EF0006#641519F00B19A90E
(1547753664.151420) can0 0CF00400#FEFF9D1E1CFFFFFF
(1547753664.161420) can0 0CF00300#FF0024FF07FFFFFF
(1547753664.161947) can0 0CEFFF00#6406317DFFFFFFFF
(1547753664.163044) can0 0DEF0603#0101FFFFFFFFFFF5
