(1547753511.478075) can0 18EEFF47#4D74300400340220
(1547753511.478645) can0 18EEFF06#4D743004000E0020
(1547753511.479217) can0 18EEFF03#4D74300400030220
(1547753511.502995) can0 18EEFF00#56F5290400000220
(1547753511.505194) can0 0CF00400#F0FF000000FFFFFF
(1547753511.505594) can0 18EAFF00#00EE00
(1547753511.515071) can0 0CF00300#FF0000FF00FFFFFF
(1547753511.515670) can0 0CEFFF00#6406007DFFFFFFFF
(1547753511.516243) can0 18FEF200#0000FFFFFFFFFFFF
(1547753511.525320) can0 0CF00400#F0FF7D0000FFFFFF
(1547753511.535187) can0 0CF00300#FF0000FF08FFFFFF
(1547753511.535784) can0 0CEFFF00#6406007DFFFFFFFF
(1547753511.536357) can0 18EF0600#640E0302FFFFFFFF
(1547753511.545237) can0 0CF00400#F0FF7D0000FFFFFF
(1547753511.555213) can0 0CF00300#FF0000FF08FFFFFF
(1547753511.555808) can0 0CEFFF00#6406007DFFFFFFFF
(1547753511.556408) can0 18EFFF00#64100B0B0000007D
(1547753511.556956) can0 18FEDF00#7D521DFFFFFFFFFF
(1547753511.557508) can0 1CECFF00#20220005FFE3FE00
(1547753511.565194) can0 0CF00400#F0FF7D0000FFFFFF
(1547753511.575210) can0 0CF00300#FF0000FF08FFFFFF
(1547753511.575783) can0 0CEFFF00#6406007DFFFFFFFF
(1547753511.576356) can0 18FEEF00#FFFFFFFEFFFFFFFA
(1547753511.585219) can0 0CF00400#F0FF7D0000FFFFFF
(1547753511.595185) can0 0CF00300#FF0000FF08FFFFFF
(1547753511.595757) can0 0CEFFF00#6406007DFFFFFFFF
(1547753511.605234) can0 0CF00400#F0FF7D0000FFFFFF
(1547753511.608406) can0 1CEBFF00#01201CDD6842DCA0
(1547753511.615234) can0 0CF00300#FF0000FF08FFFFFF
(1547753511.615806) can0 0CEFFF00#6406007DFFFFFFFF
(1547753511.616406) can0 18FEF200#0000FFFFFFFFFFFF
(1547753511.625258) can0 0CF00400#F0FF7D0000FFFFFF
(1547753511.635208) can0 0CF00300#FF0000FF08FFFFFF
(1547753511.635780) can0 0CEFFF00#6406007DFFFFFFFF
(1547753511.636353) can0 18EF0600#640E0D02FFFFFFFF
(1547753511.645258) can0 0CF00400#F0FF7D0000FFFFFF
(1547753511.655206) can0 0CF00300#FF0000FF08FFFFFF
(1547753511.655780) can0 0CEFFF00#6406007DFFFFFFFF
(1547753511.656353) can0 18EFFF00#64100B0B0000007D
(1547753511.656930) can0 18FEF600#FF004CFF00FFFFFF
(1547753511.657479) can0 1CEBFF00#020FD58D20E37A31
(1547753511.665242) can0 0CF00400#F0FF7D0000FFFFFF
(1547753511.675208) can0 18EFFA00#6401FF0000FFFFFF
(1547753511.675779) can0 0CEFFF00#6406007DFFFFFFFF
(1547753511.676352) can0 0CF00300#FF0000FF08FFFFFF
(1547753511.685214) can0 0CF00400#F0FF7D0000FFFFFF
(1547753511.695206) can0 0CF00300#FF0000FF08FFFFFF
(1547753511.695778) can0 0CEFFF00#6406007DFFFFFFFF
(1547753511.705231) can0 0CF00400#F0FF7D0000FFFFFF
(1547753511.708428) can0 1CEBFF00#03F1C044FFFF0401
(1547753511.715230) can0 0CF00300#FF0000FF08FFFFFF
(1547753511.715802) can0 0CEFFF00#6406007DFFFFFFFF
(1547753511.716402) can0 18FEF200#0000FFFFFFFFFFFF
(1547753511.725255) can0 0CF00400#F0FF7D0000FFFFFF
(1547753511.735216) can0 0CF00300#FF0000FF08FFFFFF
(1547753511.735789) can0 0CEFFF00#6406007DFFFFFFFF
(1547753511.736362) can0 18EF0600#640E1706FFFFFFFF
(1547753511.739466) can0 0DEF0603#0101FFFFFFFFFFF5
(1547753511.740012) can0 04EF0006#641510F00000BF0E
(1547753511.740588) can0 0C000006#30FFFFFFF8FFFFFF
(1547753511.745266) can0 0CF00400#F0FF7D0000FFFFFF
(1547753511.755191) can0 0CF00300#FF0000FF08FFFFFF
(1547753511.755788) can0 0CEFFF00#6406007DFFFFFFFF
(1547753511.756336) can0 18EEFF00#56F5290400000220
(1547753511.756911) can0 18EFFF00#64100B0B0000007D
(1547753511.757488) can0 1CEBFF00#04204E0001FAC9FA
(1547753511.759349) can0 0DEF0647#0104FFFFFFFFFFF1
(1547753511.759964) can0 0DEF0603#0101FFFFFFFFFFF5
(1547753511.760538) can0 04EF0006#641510F00000BF0E
(1547753511.761095) can0 0CFFFE06#5C7F1D7F1DFFFFFF
(1547753511.761671) can0 18FFFB06#00057DF8FFFFFFFF
(1547753511.762055) can0 18EAFF47#00EE00
(1547753511.765272) can0 0CF00400#F0FF7D0000FFFFFF
(1547753511.775216) can0 0CF00300#FF0000FF08FFFFFF
(1547753511.775788) can0 0CEFFF00#6406007DFFFFFFFF
(1547753511.776413) can0 18FEEE00#4A43FFFFFFFFFFFF
(1547753511.779465) can0 0DEF0603#0101FFFFFFFFFFF5
(1547753511.780010) can0 04EF0006#641510F00000BF0E
(1547753511.785265) can0 0CF00400#F0FF7D0000FFFFFF
(1547753511.795215) can0 0CF00300#FF0000FF08FFFFFF
(1547753511.795787) can0 0CEFFF00#6406007DFFFFFFFF
(1547753511.799464) can0 0DEF0603#0101FFFFFFFFFFF5
(1547753511.800009) can0 04EF0006#641510F00000BF0E
(1547753511.800588) can0 0CFE4947#FFFFFFFFFFFFFFFF
(1547753511.801186) can0 0CFE4347#FFFFFFFFFFFFFFFF
(1547753511.801786) can0 0CFE4447#0000FFFF3FFFFFFF
(1547753511.805263) can0 0CF00400#F0FF7D0000FFFFFF
(1547753511.805862) can0 18FEDF00#7D7E1DFFFFFFFFFF
(1547753511.808744) can0 18EEFF00#56F5290400000220
(1547753511.809360) can0 1CEBFF00#05C05D0000FFFFFF
(1547753511.815222) can0 0CF00300#FF0000FF08FFFFFF
(1547753511.815837) can0 0CEFFF00#6406007DFFFFFFFF
(1547753511.816411) can0 18FEF200#0000FFFFFFFFFFFF
(1547753511.819463) can0 0DEF0603#0101FFFFFFFFFFF5
(1547753511.820008) can0 04EF0006#641510F00000BF0E
(1547753511.825288) can0 0CF00400#F0FF7D0000FFFFFF
(1547753511.835187) can0 0CF00300#FF0000FF08FFFFFF
(1547753511.835785) can0 0CEFFF00#6406007DFFFFFFFF
(1547753511.836357) can0 18EF0600#640E2100FFFFFFFF
(1547753511.839464) can0 0DEF0603#0101FFFFFFFFFFF5
(1547753511.840008) can0 04EF0006#641510F00000BF0E
(1547753511.840585) can0 18FEF147#FF0000FFFFFFFFFF
(1547753511.841209) can0 18F00503#FFFFFFFFFFFFFFFF
(1547753511.845262) can0 0CF00400#F0FF7D0000FFFFFF
(1547753511.855237) can0 0CF00300#FF0000FF08FFFFFF
(1547753511.855810) can0 0CEFFF00#6406007DFFFFFFFF
(1547753511.856409) can0 18EFFF00#64100B0B0000007D
(1547753511.856958) can0 18FEF700#FFFFFFFFFFFFAD00
(1547753511.859351) can0 0DEF0647#0104FFFFFFFFFFF1
(1547753511.859959) can0 0DEF0603#0101FFFFFFFFFFF5
(1547753511.860509) can0 04EF0006#641510F00000BF0E
(1547753511.865247) can0 0CF00400#F0FF7D0000FFFFFF
(1547753511.875196) can0 0CF00300#FF0000FF08FFFFFF
(1547753511.875771) can0 0CEFFF00#6406007DFFFFFFFF
(1547753511.879449) can0 0DEF0603#0101FFFFFFFFFFF5
(1547753511.880019) can0 04EF0006#641510F00000BF0E
(1547753511.880597) can0 0CFE4947#FFFFFFFFFFFFFFFF
(1547753511.881171) can0 0CFE4347#FFFFFFFFFFFFFFFF
(1547753511.881771) can0 0CFE4447#0000FFFF3FFFFFFF
(1547753511.882397) can0 0CFFFE06#5C7F1D7F1DFFFFFF
(1547753511.885229) can0 0CF00400#F0FF7D0000FFFFFF
(1547753511.895181) can0 0CF00300#FF0000FF08FFFFFF
(1547753511.895770) can0 0CEFFF00#6406007DFFFFFFFF
(1547753511.899429) can0 0DEF0603#0101FFFFFFFFFFF5
(1547753511.899993) can0 04EF0006#641510F00000BF0E
(1547753511.905273) can0 0CF00400#F0FF7D0000FFFFFF
(1547753511.908045) can0 18EEFF47#4D74300400340220
(1547753511.908620) can0 18EEFF06#4D743004000E0020
(1547753511.909193) can0 18EEFF03#4D74300400030220
(1547753511.915225) can0 0CF00300#FF0000FF08FFFFFF
(1547753511.915795) can0 0CEFFF00#6406007DFFFFFFFF
(1547753511.916395) can0 18FEF200#0000FFFFFFFFFFFF
(1547753511.919445) can0 0DEF0603#0101FFFFFFFFFFF5
(1547753511.919992) can0 04EF0006#641510F00000BF0E
(1547753511.920570) can0 18FEF147#FF0000FFFFFFFFFF
(1547753511.921176) can0 18F00503#FFFFFFFFFFFFFFFF
(1547753511.925288) can0 0CF00400#F0FF7D0000FFFFFF
(1547753511.935239) can0 0CF00300#FF0000FF08FFFFFF
(1547753511.935812) can0 0CEFFF00#6406007DFFFFFFFF
(1547753511.936385) can0 18EF0600#640E2B00FFFFFFFF
(1547753511.939487) can0 0DEF0603#0101FFFFFFFFFFF5
(1547753511.940035) can0 04EF0006#641510F00000BF0E
(1547753511.945293) can0 0CF00400#F0FF7D0000FFFFFF
(1547753511.955241) can0 0CF00300#FF0000FF08FFFFFF
(1547753511.955812) can0 0CEFFF00#6406007DFFFFFFFF
(1547753511.956385) can0 18EFFF00#64100B0B0000007D
(1547753511.956987) can0 18FED500#FFFFFCFFFFFFFFFF
(1547753511.959388) can0 0DEF0647#0104FFFFFFFFFFF1
(1547753511.959958) can0 0DEF0603#0101FFFFFFFFFFF5
(1547753511.960560) can0 04EF0006#641510F00000BF0E
(1547753511.961110) can0 0CFFFE06#5C7F1D7F1DFFFFFF
(1547753511.965264) can0 0CF00400#F0FF7D0014FFFFFF
(1547753511.975287) can0 0CF00300#FF0000FF08FFFFFF
(1547753511.975910) can0 0CEFFF00#6406E17CFFFFFFFF
(1547753511.979920) can0 0DEF0603#0101FFFFFFFFFFF5
(1547753511.981145) can0 04EF0006#641510F00000BF0E
(1547753511.985369) can0 0CF00400#F0FF7D1217FFFFFF
(1547753511.995348) can0 0CF00300#FF0000FF08FFFFFF
(1547753511.995918) can0 0CEFFF00#6406DF7CFFFFFFFF
(1547753511.996492) can0 18FDB300#FFFF4C27FFFFFFFF
(1547753511.999894) can0 0DEF0603#0101FFFFFFFFFFF5
(1547753512.001117) can0 04EF0006#641510F00000BF0E
(1547753512.001694) can0 0CFE4947#FFFFFFFFFFFFFFFF
(1547753512.002295) can0 0CFE4347#FFFFFFFFFFFFFFFF
(1547753512.002893) can0 0CFE4447#0000FFFF3FFFFFFF
(1547753512.005368) can0 0CF00400#F0FF7D2217FFFFFF
(1547753512.015369) can0 0CF00300#FF0000FF08FFFFFF
(1547753512.015944) can0 0CEFFF00#6406DF7CFFFFFFFF
(1547753512.016522) can0 18FEF200#0000FFFFFFFFFFFF
(1547753512.019875) can0 0DEF0603#0101FFFFFFFFFFF5
(1547753512.021117) can0 04EF0006#641510F00000BF0E
(1547753512.025342) can0 0CF00400#F0FF7D2217FFFFFF
(1547753512.035346) can0 0CF00300#FF0000FF08FFFFFF
(1547753512.035919) can0 0CEFFF00#6406DF7CFFFFFFFF
(1547753512.036492) can0 18EF0600#640E3500FFFFFFFF
(1547753512.039898) can0 0DEF0603#0101FFFFFFFFFFF5
(1547753512.041118) can0 04EF0006#641510F00000BF0E
(1547753512.041692) can0 18FEF147#FF0000FFFFFFFFFF
(1547753512.042320) can0 18F00503#FFFFFFFFFFFFFFFF
(1547753512.045344) can0 0CF00400#F0FF7D2217FFFFFF
(1547753512.055345) can0 0CF00300#FF0000FF08FFFFFF
(1547753512.055916) can0 0CEFFF00#6406DF7CFFFFFFFF
(1547753512.056517) can0 18EFFF00#641000000000007D
(1547753512.057090) can0 18FEDF00#897E1DFFFFFFFFFF
(1547753512.059798) can0 0DEF0647#0104FFFFFFFFFFF1
(1547753512.060425) can0 0DEF0603#0101FFFFFFFFFFF5
(1547753512.061643) can0 04EF0006#641510F00000BF0E
(1547753512.065391) can0 0CF00400#F0FF7D2217FFFFFF
(1547753512.075344) can0 0CF00300#FF0000FF08FFFFFF
(1547753512.075916) can0 0CEFFF00#6406DF7CFFFFFFFF
(1547753512.076492) can0 18FEEF00#FFFFFF00FFFFFFFA
(1547753512.080198) can0 0DEF0603#0101FFFFFFFFFFF5
(1547753512.081392) can0 04EF0006#641510F00000BF0E
(1547753512.081967) can0 0CFE4947#FFFFFFFFFFFFFFFF
(1547753512.082567) can0 0CFFFF47#5DFFFFF3FFFFFFFF
(1547753512.085365) can0 0CF00400#F0FF7D7C07FFFFFF
(1547753512.095345) can0 0CF00300#FF0000FF08FFFFFF
(1547753512.095915) can0 0CEFFF00#6406F47CFFFFFFFF
(1547753512.105369) can0 0CF00400#F0FF7D1405FFFFFF
(1547753512.115368) can0 0CF00300#FF0000FF08FFFFFF
(1547753512.115941) can0 0CEFFF00#6406F87CFFFFFFFF
(1547753512.116539) can0 18FEF200#0000FFFFFFFFFFFF
(1547753512.125394) can0 0CF00400#F0FF7D0A05FFFFFF
(1547753512.135320) can0 0CF00300#FF0000FF08FFFFFF
(1547753512.135913) can0 0CEFFF00#6406F87CFFFFFFFF
(1547753512.136491) can0 18EF0600#640E3F00FFFFFFFF
(1547753512.145362) can0 0CF00400#F0FF7D0805FFFFFF
(1547753512.155315) can0 0CF00300#FF0000FF08FFFFFF
(1547753512.155913) can0 0CEFFF00#6406F87CFFFFFFFF
(1547753512.156513) can0 18EFFF00#641000000000007D
(1547753512.157086) can0 18FEF600#FF0047FF00FFFFFF
(1547753512.165363) can0 0CF00400#F0FF7D0805FFFFFF
(1547753512.175341) can0 0CF00300#FF0000FF08FFFFFF
(1547753512.175912) can0 0CEFFF00#6406F87CFFFFFFFF
(1547753512.185437) can0 0CF00400#F0FF7D7E06FFFFFF
(1547753512.195312) can0 0CF00300#FF0000FF08FFFFFF
(1547753512.195888) can0 0CEFFF00#6406F67CFFFFFFFF
(1547753512.205363) can0 0CF00400#F0FF7D9206FFFFFF
(1547753512.205936) can0 18FFFA00#022C0000180C0000
(1547753512.215354) can0 0CF00300#FF0000FF08FFFFFF
(1547753512.215927) can0 0CEFFF00#6406F67CFFFFFFFF
(1547753512.216528) can0 18FEF200#0000FFFFFFFFFFFF
(1547753512.225380) can0 0CF00400#F0FF7D9206FFFFFF
(1547753512.235307) can0 0CF00300#FF0000FF08FFFFFF
(1547753512.235878) can0 0CEFFF00#6406F67CFFFFFFFF
(1547753512.236451) can0 18EF0600#640E4900FFFFFFFF
(1547753512.237025) can0 18FEF500#C8FFFFFFFF40FFFF
(1547753512.245351) can0 0CF00400#F0FF7D9206FFFFFF
(1547753512.255330) can0 0CF00300#FF0000FF08FFFFFF
(1547753512.255925) can0 0CEFFF00#6406F67CFFFFFFFF
(1547753512.256500) can0 18EFFF00#641000000000007D
(1547753512.265351) can0 0CF00400#F0FF7D9206FFFFFF
(1547753512.275301) can0 0CF00300#FF0000FF08FFFFFF
(1547753512.275876) can0 0CEFFF00#6406F67CFFFFFFFF
(1547753512.276453) can0 18FE6900#00266A26FFFF60FE
(1547753512.285377) can0 0CF00400#F0FF7D1A05FFFFFF
(1547753512.295326) can0 0CF00300#FF0000FF08FFFFFF
(1547753512.295899) can0 0CEFFF00#6406F87CFFFFFFFF
(1547753512.305350) can0 0CF00400#F0FF7D4404FFFFFF
(1547753512.305951) can0 18FEDF00#80501DFFFFFFFFFF
(1547753512.315349) can0 0CF00300#FF0000FF08FFFFFF
(1547753512.315925) can0 0CEFFF00#6406F97CFFFFFFFF
(1547753512.316527) can0 18FEF200#0000FFFFFFFFFFFF
(1547753512.325349) can0 0CF00400#F0FF7D4004FFFFFF
(1547753512.335299) can0 0CF00300#FF0000FF08FFFFFF
(1547753512.335875) can0 0CEFFF00#6406F97CFFFFFFFF
(1547753512.336447) can0 18EF0600#640E5306FFFFFFFF
(1547753512.345314) can0 0CF00400#F0FF7D4004FFFFFF
(1547753512.355325) can0 0CF00300#FF0000FF08FFFFFF
(1547753512.355896) can0 0CEFFF00#6406F97CFFFFFFFF
(1547753512.356497) can0 18EFFF00#641000000000007D
(1547753512.365347) can0 0CF00400#F0FF7D4004FFFFFF
(1547753512.375326) can0 0CF00300#FF0000FF08FFFFFF
(1547753512.375897) can0 0CEFFF00#6406F97CFFFFFFFF
(1547753512.385352) can0 0CF00400#F0FF7DFC06FFFFFF
(1547753512.395326) can0 0CF00300#FF0000FF08FFFFFF
(1547753512.395894) can0 0CEFFF00#6406F57CFFFFFFFF
(1547753512.396445) can0 18FD7C00#F880F0F000CF03FC
(1547753512.405350) can0 0CF00400#F0FF7D2007FFFFFF
(1547753512.415344) can0 0CF00300#FF0000FF08FFFFFF
(1547753512.415946) can0 0CEFFF00#6406F57CFFFFFFFF
(1547753512.416495) can0 18FEF200#0000FFFFFFFFFFFF
(1547753512.425350) can0 0CF00400#F0FF7D2007FFFFFF
(1547753512.435324) can0 0CF00300#FF0000FF08FFFFFF
(1547753512.435895) can0 0CEFFF00#6406F57CFFFFFFFF
(1547753512.436469) can0 18EF0600#640E5D06FFFFFFFF
(1547753512.445349) can0 0CF00400#F0FF7D2007FFFFFF
(1547753512.455323) can0 0CF00300#FF0000FF08FFFFFF
(1547753512.455895) can0 0CEFFF00#6406F57CFFFFFFFF
(1547753512.456493) can0 18EFFF00#641000000000007D
(1547753512.465348) can0 0CF00400#F0FF7D2007FFFFFF
(1547753512.475322) can0 0CF00300#FF0000FF08FFFFFF
(1547753512.475892) can0 0CEFFF00#6406F57CFFFFFFFF
(1547753512.485347) can0 0CF00400#F0FF7D3006FFFFFF
(1547753512.495322) can0 0CF00300#FF0000FF08FFFFFF
(1547753512.495917) can0 0CEFFF00#6406F67CFFFFFFFF
(1547753512.496492) can0 18FDB300#FFFF4C27FFFFFFFF
(1547753512.497065) can0 1CEFFF00#64070000FFFFFFFF
(1547753512.505372) can0 0CF00400#F0FF7D0C06FFFFFF
(1547753512.515417) can0 0CF00300#FF0000FF08FFFFFF
(1547753512.515963) can0 0CEFFF00#6406F77CFFFFFFFF
(1547753512.516542) can0 18FEF200#0000FFFFFFFFFFFF
(1547753512.525365) can0 0CF00400#F0FF7D0C06FFFFFF
(1547753512.535330) can0 0CF00300#FF0000FF08FFFFFF
(1547753512.535899) can0 0CEFFF00#6406F77CFFFFFFFF
(1547753512.536473) can0 18EF0600#640E6706FFFFFFFF
(1547753512.545379) can0 0CF00400#F0FF7D8409FFFFFF
(1547753512.555328) can0 0CF00300#FF0000FF08FFFFFF
(1547753512.555873) can0 0CEFFF00#6406F17CFFFFFFFF
(1547753512.556475) can0 18EFFF00#641000000000007D
(1547753512.557075) can0 18FEDF00#80501DFFFFFFFFFF
(1547753512.565378) can0 0CF00400#FEFF7DA607FFFFFF
(1547753512.575354) can0 0CF00300#FF0064FF08FFFFFF
(1547753512.575923) can0 0CEFFF00#64068C7DFFFFFFFF
(1547753512.576452) can0 18FEEF00#FFFFFF00FFFFFFFA
(1547753512.585428) can0 0CF00400#FEFFB7A206FFFFFF
(1547753512.595329) can0 0CF00300#FF0064FF08FFFFFF
(1547753512.595896) can0 0CEFFF00#64068C7DFFFFFFFF
(1547753512.605425) can0 0CF00400#FEFFB7F405FFFFFF
(1547753512.615374) can0 0CF00300#FF0064FF08FFFFFF
(1547753512.615948) can0 0CEFFF00#64068C7DFFFFFFFF
(1547753512.616548) can0 18FEF200#1700FFFFFFFFFFFF
(1547753512.625375) can0 0CF00400#FEFFB65205FFFFFF
(1547753512.635327) can0 0CF00300#FF0064FF08FFFFFF
(1547753512.635894) can0 0CEFFF00#64068C7DFFFFFFFF
(1547753512.636470) can0 18EF0600#640E7106FFFFFFFF
(1547753512.645424) can0 0CF00400#FEFFB60E06FFFFFF
(1547753512.655353) can0 0CF00300#FF0064FF08FFFFFF
(1547753512.655922) can0 0CEFFF00#64068C7DFFFFFFFF
(1547753512.656521) can0 18EFFF00#641000000000007D
(1547753512.657091) can0 18FEF600#FF0046FF00FFFFFF
(1547753512.665374) can0 0CF00400#FEFFB76A07FFFFFF
(1547753512.675315) can0 18EFFA00#6401FF0000FFFFFF
(1547753512.675912) can0 0CEFFF00#64068C7DFFFFFFFF
(1547753512.676460) can0 0CF00300#FF0064FF08FFFFFF
(1547753512.685416) can0 0CF00400#FEFFB7C607FFFFFF
(1547753512.695339) can0 0CF00300#FF0064FF08FFFFFF
(1547753512.695909) can0 0CEFFF00#64068C7DFFFFFFFF
(1547753512.705365) can0 0CF00400#FEFFB7D207FFFFFF
(1547753512.715364) can0 0CF00300#FF0064FF08FFFFFF
(1547753512.715936) can0 0CEFFF00#64068C7DFFFFFFFF
(1547753512.716535) can0 18FEF200#1F00FFFFFFFFFFFF
(1547753512.725413) can0 0CF00400#FEFFB7A607FFFFFF
(1547753512.735304) can0 0CF00300#FF0064FF08FFFFFF
(1547753512.735865) can0 0CEFFF00#64068C7DFFFFFFFF
(1547753512.736440) can0 18EF0600#640E7B06FFFFFFFF
(1547753512.745368) can0 0CF00400#FEFFB72A07FFFFFF
(1547753512.755317) can0 0CF00300#FF0064FF08FFFFFF
(1547753512.755915) can0 0CEFFF00#64068C7DFFFFFFFF
(1547753512.756490) can0 18EFFF00#641000000000007D
(1547753512.765366) can0 0CF00400#FEFFB7A006FFFFFF
(1547753512.775293) can0 0CF00300#FF0064FF08FFFFFF
(1547753512.775864) can0 0CEFFF00#64068C7DFFFFFFFF
(1547753512.776464) can0 18FEEE00#4A43FFFFFFFFFFFF
(1547753512.785315) can0 0CF00400#FEFFB71A06FFFFFF
(1547753512.795316) can0 0CF00300#FF0064FF08FFFFFF
(1547753512.795888) can0 0CEFFF00#64068C7DFFFFFFFF
(1547753512.805388) can0 0CF00400#FEFFB75805FFFFFF
(1547753512.805963) can0 18FEDF00#81201CFFFFFFFFFF
(1547753512.815364) can0 0CF00300#FF0064FF08FFFFFF
(1547753512.815935) can0 0CEFFF00#64068C7DFFFFFFFF
(1547753512.816512) can0 18FEF200#1500FFFFFFFFFFFF
(1547753512.825362) can0 0CF00400#FEFFB6E607FFFFFF
(1547753512.835289) can0 0CF00300#FF0064FF08FFFFFF
(1547753512.835862) can0 0CEFFF00#64068C7DFFFFFFFF
(1547753512.836436) can0 18EF0600#640E8506FFFFFFFF
(1547753512.845362) can0 0CF00400#FEFFB8600BFFFFFF
(1547753512.855313) can0 0CF00300#FF0064FF08FFFFFF
(1547753512.855886) can0 0CEFFF00#64068C7DFFFFFFFF
(1547753512.856460) can0 18EFFF00#641000000000007D
(1547753512.857059) can0 18FEF700#FFFFFFFFFFFFC400
(1547753512.865310) can0 0CF00400#FEFFBA840CFFFFFF
(1547753512.875287) can0 0CF00300#FF0064FF08FFFFFF
(1547753512.875860) can0 0CEFFF00#64068C7DFFFFFFFF
(1547753512.885386) can0 0CF00400#FEFFBB700CFFFFFF
(1547753512.895375) can0 0CF00300#FF0064FF08FFFFFF
(1547753512.895894) can0 0CEFFF00#64068C7DFFFFFFFF
(1547753512.905370) can0 0CF00400#FEFFBB740BFFFFFF
(1547753512.915403) can0 0CF00300#FF0064FF08FFFFFF
(1547753512.915976) can0 0CEFFF00#64068C7DFFFFFFFF
(1547753512.916578) can0 18FEF200#3000FFFFFFFFFFFF
(1547753512.925407) can0 0CF00400#FEFFBAB609FFFFFF
(1547753512.935359) can0 0CF00300#FF0064FF08FFFFFF
(1547753512.935933) can0 0CEFFF00#64068C7DFFFFFFFF
(1547753512.936508) can0 18EF0600#640E8F06FFFFFFFF
(1547753512.945407) can0 0CF00400#FEFFB9120EFFFFFF
(1547753512.955338) can0 0CF00300#FF0064FF08FFFFFF
(1547753512.955906) can0 0CEFFF00#64068C7DFFFFFFFF
(1547753512.956506) can0 18EFFF00#641000000000007D
(1547753512.957105) can0 18FED500#FFFFFCFFFFFFFFFF
(1547753512.965356) can0 0CF00400#FEFFBCF00EFFFFFF
(1547753512.975269) can0 0CF00300#FF0064FF08FFFFFF
(1547753512.975832) can0 0CEFFF00#64068C7DFFFFFFFF
(1547753512.985330) can0 0CF00400#FEFFBCC60EFFFFFF
(1547753512.995228) can0 0CF00300#FF0064FF08FFFFFF
(1547753512.995826) can0 0CEFFF00#64068C7DFFFFFFFF
(1547753512.996402) can0 18FDB300#FFFF5A27FFFFFFFF
(1547753513.005428) can0 0CF00400#FEFFBCD40DFFFFFF
(1547753513.015278) can0 0CF00300#FF0064FF08FFFFFF
(1547753513.015850) can0 0CEFFF00#64068C7DFFFFFFFF
(1547753513.016425) can0 18FEF200#3D00FFFFFFFFFFFF
(1547753513.025351) can0 0CF00400#FEFFBB340FFFFFFF
(1547753513.035275) can0 0CF00300#FF0064FF08FFFFFF
(1547753513.035849) can0 0CEFFF00#64068C7DFFFFFFFF
(1547753513.036424) can0 18EF0600#640E9906FFFFFFFF
(1547753513.045350) can0 0CF00400#FEFFBC6010FFFFFF
(1547753513.055327) can0 0CF00300#FF0064FF08FFFFFF
(1547753513.055871) can0 0CEFFF00#64068C7DFFFFFFFF
(1547753513.056472) can0 18EFFF00#641000000000007D
(1547753513.057057) can0 18FEDF00#85201CFFFFFFFFFF
(1547753513.065339) can0 0CF00400#FEFFBD6210FFFFFF
(1547753513.075413) can0 0CF00300#FF0064FF08FFFFFF
(1547753513.075984) can0 0CEFFF00#64068C7DFFFFFFFF
(1547753513.076561) can0 18FEEF00#FFFFFF00FFFFFFFA
(1547753513.085360) can0 0CF00400#FEFFBD3611FFFFFF
(1547753513.095339) can0 0CF00300#FF0064FF08FFFFFF
(1547753513.095871) can0 0CEFFF00#64068C7DFFFFFFFF
(1547753513.105327) can0 0CF00400#FEFFBE2812FFFFFF
(1547753513.115323) can0 0CF00300#FF0064FF08FFFFFF
(1547753513.115867) can0 0CEFFF00#64068C7DFFFFFFFF
(1547753513.116444) can0 18FEF200#5100FFFFFFFFFFFF
(1547753513.125385) can0 0CF00400#FEFFBE1013FFFFFF
(1547753513.135649) can0 0CF00300#FF0064FF08FFFFFF
(1547753513.136216) can0 0CEFFF00#64068C7DFFFFFFFF
(1547753513.136793) can0 18EF0600#640EA306FFFFFFFF
(1547753513.145222) can0 0CF00400#FEFFBF0C14FFFFFF
(1547753513.155283) can0 0CF00300#FF0064FF08FFFFFF
(1547753513.155842) can0 0CEFFF00#64068C7DFFFFFFFF
(1547753513.156417) can0 18EFFF00#641000001302007D
(1547753513.157015) can0 18FEF600#FF0046FF00FFFFFF
(1547753513.165246) can0 0CF00400#FEFFBF0C15FFFFFF
(1547753513.175173) can0 0CF00300#FF0064FF08FFFFFF
(1547753513.175742) can0 0CEFFF00#64068C7DFFFFFFFF
(1547753513.185320) can0 0CF00400#FEFFBFF415FFFFFF
(1547753513.195219) can0 0CF00300#FF0064FF08FFFFFF
(1547753513.195791) can0 0CEFFF00#64068C7DFFFFFFFF
(1547753513.205244) can0 0CF00400#FEFFC00E17FFFFFF
(1547753513.205814) can0 18FFFA00#022C0000180C00A5
(1547753513.215193) can0 0CF00300#FF0064FF08FFFFFF
(1547753513.215765) can0 0CEFFF00#64068D7DFFFFFFFF
(1547753513.216348) can0 18FEF200#6A00FFFFFFFFFFFF
(1547753513.225221) can0 0CF00400#FEFFC0EC17FFFFFF
(1547753513.235243) can0 0CF00300#FF0064FF08FFFFFF
(1547753513.235814) can0 0CEFFF00#6406917DFFFFFFFF
(1547753513.236364) can0 18EF0600#640EAD06FFFFFFFF
(1547753513.236962) can0 18FEF500#C8FFFFFFFF40FFFF
(1547753513.245316) can0 0CF00400#FEFFC2DA18FFFFFF
(1547753513.255168) can0 0CF00300#FF0064FF08FFFFFF
(1547753513.255739) can0 0CEFFF00#6406947DFFFFFFFF
(1547753513.256313) can0 18EFFF00#641000008D02007D
(1547753513.265267) can0 0CF00400#FEFFC3DC19FFFFFF
(1547753513.275217) can0 0CF00300#FF0064FF08FFFFFF
(1547753513.275788) can0 0CEFFF00#6406977DFFFFFFFF
(1547753513.276340) can0 18FE6900#EC256A26FFFF60FE
(1547753513.285390) can0 0CF00400#FEFFC5BE1AFFFFFF
(1547753513.295215) can0 0CF00300#FF0064FF08FFFFFF
(1547753513.295787) can0 0CEFFF00#64069A7DFFFFFFFF
(1547753513.305242) can0 0CF00400#F8FFC6B21BFFFFFF
(1547753513.305812) can0 18FEDF00#8A201CFFFFFFFFFF
(1547753513.315315) can0 0CF00300#FF0064FF08FFFFFF
(1547753513.315885) can0 0CEFFF00#64069D7DFFFFFFFF
(1547753513.316462) can0 18FEF200#2E00FFFFFFFFFFFF
(1547753513.325414) can0 0CF00400#F8FFC7A61CFFFFFF
(1547753513.335390) can0 0CF00300#FF0064FF08FFFFFF
(1547753513.335959) can0 0CEFFF00#6406A17DFFFFFFFF
(1547753513.336536) can0 18EF0600#640EB706FFFFFFFF
(1547753513.345312) can0 0CF00400#F8FFC98C1DFFFFFF
(1547753513.355262) can0 0CF00300#FF0061FF08FFFFFF
(1547753513.355835) can0 0CEFFF00#6406A27DFFFFFFFF
(1547753513.356410) can0 18EFFF00#64100101F002007D
(1547753513.365360) can0 0CF00400#F0FFCA261EFFFFFF
(1547753513.375413) can0 0CF00300#FF0047FF08FFFFFF
(1547753513.375983) can0 0CEFFF00#6406867DFFFFFFFF
(1547753513.385360) can0 0CF00400#F0FFBFB81EFFFFFF
(1547753513.395262) can0 0CF00300#FF0026FF08FFFFFF
(1547753513.395834) can0 0CEFFF00#64064B7DFFFFFFFF
(1547753513.396408) can0 18FD7C00#F880F1F100CF03FD
(1547753513.405314) can0 0CF00400#F0FFA8461FFFFFFF
(1547753513.415313) can0 0CF00300#FF000AFF08FFFFFF
(1547753513.415882) can0 0CEFFF00#6406067DFFFFFFFF
(1547753513.416459) can0 18FEF200#1000FFFFFFFFFFFF
(1547753513.425315) can0 0CF00400#F0FF8EB21FFFFFFF
(1547753513.435234) can0 0CF00300#FF0000FF08FFFFFF
(1547753513.435807) can0 0CEFFF00#6406D97CFFFFFFFF
(1547753513.436382) can0 18EF0600#640EC106FFFFFFFF
(1547753513.445311) can0 0CF00400#F1FF7DC01FFFFFFF
(1547753513.455262) can0 0CF00300#FF0000FF08FFFFFF
(1547753513.455832) can0 0CEFFF00#6406D97CFFFFFFFF
(1547753513.456406) can0 18EFFF00#641001010203057D
(1547753513.465309) can0 0CF00400#F1FF7DA41FFFFFFF
(1547753513.475238) can0 0CF00300#FF0000FF08FFFFFF
(1547753513.475806) can0 0CEFFF00#6406D97CFFFFFFFF
(1547753513.481135) can0 18EEFF47#4D74300400340220
(1547753513.481730) can0 18EEFF06#4D743004000E0020
(1547753513.482305) can0 18EEFF03#4D74300400030220
(1547753513.485307) can0 0CF00400#F1FF7D4A1FFFFFFF
(1547753513.495262) can0 0CF00300#FF0000FF08FFFFFF
(1547753513.495830) can0 0CEFFF00#6406D97CFFFFFFFF
(1547753513.496405) can0 18FDB300#FFFF4027FFFFFFFF
(1547753513.496978) can0 1CEFFF00#64070000FFFFFFFF
(1547753513.505313) can0 0CF00400#F1FF7DEE1EFFFFFF
(1547753513.515310) can0 0CF00300#FF000BFF08FFFFFF
(1547753513.515857) can0 0CEFFF00#6406E07CFFFFFFFF
(1547753513.516433) can0 18FEF200#0100FFFFFFFFFFFF
(1547753513.525413) can0 0CF00400#F1FF7F861EFFFFFF
(1547753513.535310) can0 0CF00300#FF0016FF08FFFFFF
(1547753513.535854) can0 0CEFFF00#6406F67CFFFFFFFF
(1547753513.536430) can0 18EF0600#640ECB06FFFFFFFF
(1547753513.545310) can0 0CF00400#F1FF88121EFFFFFF
(1547753513.552409) can0 18EEFF17#0C6E240400130220
(1547753513.555259) can0 0CF00300#FF0015FF08FFFFFF
(1547753513.555831) can0 0CEFFF00#6406077DFFFFFFFF
(1547753513.556403) can0 18EFFF00#64100101E402037D
(1547753513.556977) can0 18FEDF00#8BB41CFFFFFFFFFF
(1547753513.565303) can0 0CF00400#F1FF8EC81DFFFFFF
(1547753513.575481) can0 0CF00300#FF001DFF08FFFFFF
(1547753513.576050) can0 0CEFFF00#64060D7DFFFFFFFF
(1547753513.576628) can0 18FEEF00#FFFFFF01FFFFFFFA
(1547753513.585301) can0 0CF00400#F1FF91781DFFFFFF
(1547753513.595252) can0 0CF00300#FF001FFF08FFFFFF
(1547753513.595827) can0 0CEFFF00#64061B7DFFFFFFFF
(1547753513.605301) can0 0CF00400#F1FF96421DFFFFFF
(1547753513.615305) can0 0CF00300#FF0022FF08FFFFFF
(1547753513.615874) can0 0CEFFF00#64061B7DFFFFFFFF
(1547753513.616451) can0 18FEF200#1A00FFFFFFFFFFFF
(1547753513.625301) can0 0CF00400#F1FF961C1DFFFFFF
(1547753513.635252) can0 0CF00300#FF0021FF08FFFFFF
(1547753513.635827) can0 0CEFFF00#64061E7DFFFFFFFF
(1547753513.636401) can0 18EF0600#640ED506FFFFFFFF
(1547753513.645302) can0 0CF00400#F1FF97061DFFFFFF
(1547753513.655333) can0 0CF00300#FF0021FF08FFFFFF
(1547753513.655898) can0 0CEFFF00#64061B7DFFFFFFFF
(1547753513.656474) can0 18EFFF00#64100101D102037D
(1547753513.657047) can0 18FEF600#FF0046FF00FFFFFF
(1547753513.665324) can0 0CF00400#F1FF96F21CFFFFFF
(1547753513.675253) can0 18EFFA00#6401FF0000FFFFFF
(1547753513.675824) can0 0CEFFF00#6406227DFFFFFFFF
(1547753513.676399) can0 0CF00300#FF0047FF08FFFFFF
(1547753513.685306) can0 0CF00400#F0FF98E01CFFFFFF
(1547753513.695228) can0 0CF00300#FF0047FF08FFFFFF
(1547753513.695798) can0 0CEFFF00#6406697DFFFFFFFF
(1547753513.705553) can0 0CF00400#F0FFB4DC1CFFFFFF
(1547753513.715303) can0 0CF00300#FF0046FF08FFFFFF
(1547753513.715896) can0 0CEFFF00#6406687DFFFFFFFF
(1547753513.716473) can0 18FEF200#3900FFFFFFFFFFFF
(1547753513.725322) can0 0CF00400#F0FFB3EE1CFFFFFF
(1547753513.735297) can0 0CF00300#FF0040FF08FFFFFF
(1547753513.735870) can0 0CEFFF00#6406627DFFFFFFFF
(1547753513.736447) can0 18EF0600#640EDF06FFFFFFFF
(1547753513.742397) can0 0DEF0603#0101FFFFFFFFFFF5
(1547753513.745396) can0 0CF00400#F0FFB1301DFFFFFF
(1547753513.755296) can0 0CF00300#FF0032FF08FFFFFF
(1547753513.755844) can0 0CEFFF00#64064E7DFFFFFFFF
(1547753513.756420) can0 18EFFF00#64100101E302047D
(1547753513.762296) can0 0DEF0647#0104FFFFFFFFFFF1
(1547753513.762894) can0 0DEF0603#0101FFFFFFFFFFF5
(1547753513.763294) can0 18EAFF47#00EE00
(1547753513.763869) can0 0CFFFE06#5CFFFFFFFFFFFFFF
(1547753513.765345) can0 0CF00400#F0FFA9881DFFFFFF
(1547753513.775295) can0 0CF00300#FF0026FF08FFFFFF
(1547753513.775843) can0 0CEFFF00#6406327DFFFFFFFF
(1547753513.776420) can0 18FEEE00#4A43FFFFFFFFFFFF
(1547753513.782395) can0 0DEF0603#0101FFFFFFFFFFF5
(1547753513.785320) can0 0CF00400#F0FF9EC21DFFFFFF
(1547753513.795294) can0 0CF00300#FF001CFF08FFFFFF
(1547753513.795867) can0 0CEFFF00#64061D7DFFFFFFFF
(1547753513.802395) can0 0DEF0603#0101FFFFFFFFFFF5
(1547753513.802993) can0 0CFE4947#FFFFFFFFFFFFFFFF
(1547753513.803570) can0 0CFE4347#FFFFFFFFFFFFFFFF
(1547753513.804193) can0 0CFE4447#0000FFFF3FFFFFFF
(1547753513.805344) can0 0CF00400#F0FF97F41DFFFFFF
(1547753513.805917) can0 18FEDF00#8B201CFFFFFFFFFF
(1547753513.810418) can0 18EEFF00#56F5290400000220
(1547753513.815293) can0 0CF00300#FF0000FF08FFFFFF
(1547753513.815892) can0 0CEFFF00#6406087DFFFFFFFF
(1547753513.816469) can0 18FEF200#1000FFFFFFFFFFFF
(1547753513.822394) can0 0DEF0603#0101FFFFFFFFFFF5
(1547753513.825319) can0 0CF00400#F1FF8FFC1DFFFFFF
(1547753513.832968) can0 18EAFF17#00EE00
(1547753513.835243) can0 0CF00300#FF0000FF08FFFFFF
(1547753513.835818) can0 0CEFFF00#6406DA7CFFFFFFFF
(1547753513.836368) can0 18EF0600#640EE906FFFFFFFF
(1547753513.842393) can0 0DEF0603#0101FFFFFFFFFFF5
(1547753513.842966) can0 18FEF147#FF0000FFFFFFFFFF
(1547753513.843568) can0 18F00503#FFFFFFFFFFFFFFFF
(1547753513.845293) can0 0CF00400#F1FF7DF21DFFFFFF
(1547753513.853044) can0 1CFFFF17#22FFFF3CFFFFFFFF
(1547753513.855292) can0 0CF00300#FF0011FF08FFFFFF
(1547753513.855815) can0 0CEFFF00#6406DE7CFFFFFFFF
(1547753513.856392) can0 18EFFF00#64100101E102067D
(1547753513.856991) can0 18FEF700#FFFFFFFFFFFFED00
(1547753513.857742) can0 18EEFF00#56F5290400000220
(1547753513.862292) can0 0DEF0647#0104FFFFFFFFFFF1
(1547753513.862890) can0 0DEF0603#0101FFFFFFFFFFF5
(1547753513.865392) can0 0CF00400#F1FF7F961DFFFFFF
(1547753513.875291) can0 0CF00300#FF001AFF08FFFFFF
(1547753513.875865) can0 0CEFFF00#6406057DFFFFFFFF
(1547753513.882392) can0 0DEF0603#0101FFFFFFFFFFF5
(1547753513.882989) can0 0CFE4947#FFFFFFFFFFFFFFFF
(1547753513.883592) can0 0CFE4347#FFFFFFFFFFFFFFFF
(1547753513.884190) can0 0CFE4447#0000FFFF3FFFFFFF
(1547753513.884817) can0 0CFFFE06#5CFFFFFFFFFFFFFF
(1547753513.885366) can0 0CF00400#F1FF8D3A1DFFFFFF
(1547753513.895291) can0 0CF00300#FF001FFF08FFFFFF
(1547753513.895814) can0 0CEFFF00#6406117DFFFFFFFF
(1547753513.902391) can0 0DEF0603#0101FFFFFFFFFFF5
(1547753513.905290) can0 0CF00400#F1FF92EE1CFFFFFF
(1547753513.915341) can0 0CF00300#FF0021FF08FFFFFF
(1547753513.915913) can0 0CEFFF00#64061C7DFFFFFFFF
(1547753513.916491) can0 18FEF200#1A00FFFFFFFFFFFF
(1547753513.922392) can0 0DEF0603#0101FFFFFFFFFFF5
(1547753513.922963) can0 18FEF147#FF0000FFFFFFFFFF
(1547753513.923565) can0 18F00503#FFFFFFFFFFFFFFFF
(1547753513.925315) can0 0CF00400#F1FF96A21CFFFFFF
(1547753513.935289) can0 0CF00300#FF0027FF08FFFFFF
(1547753513.935863) can0 0CEFFF00#64062A7DFFFFFFFF
(1547753513.936440) can0 18EF0600#640EF306FFFFFFFF
(1547753513.942390) can0 0DEF0603#0101FFFFFFFFFFF5
(1547753513.945339) can0 0CF00400#F0FF9B801CFFFFFF
(1547753513.955317) can0 0CF00300#FF0038FF08FFFFFF
(1547753513.955911) can0 0CEFFF00#64064B7DFFFFFFFF
(1547753513.956464) can0 18EFFF00#64100101D102037D
(1547753513.957062) can0 18FED500#FFFFFDFFFFFFFFFF
(1547753513.962289) can0 0DEF0647#0104FFFFFFFFFFF1
(1547753513.962887) can0 0DEF0603#0101FFFFFFFFFFF5
(1547753513.963514) can0 0CFFFE06#5CFFFFFFFFFFFFFF
(1547753513.965438) can0 0CF00400#F0FFA87A1CFFFFFF
(1547753513.975290) can0 0CF00300#FF0038FF08FFFFFF
(1547753513.975861) can0 0CEFFF00#64064A7DFFFFFFFF
(1547753513.982416) can0 0DEF0603#0101FFFFFFFFFFF5
(1547753513.985313) can0 0CF00400#F0FFA8821CFFFFFF
(1547753513.992963) can0 18EA0017#09FF00
(1547753513.995388) can0 0CF00300#FF0036FF08FFFFFF
(1547753513.995961) can0 0CEFFF00#6406487DFFFFFFFF
(1547753513.996538) can0 18FDB300#FFFF4C27FFFFFFFF
(1547753514.002391) can0 0DEF0603#0101FFFFFFFFFFF5
(1547753514.002988) can0 0CFE4947#FFFFFFFFFFFFFFFF
(1547753514.003589) can0 0CFE4347#FFFFFFFFFFFFFFFF
(1547753514.004188) can0 0CFE4447#0000FFFF3FFFFFFF
(1547753514.005489) can0 0CF00400#F0FFA7AA1CFFFFFF
(1547753514.010814) can0 18FF0900#454355FFFFFFFFFF
(1547753514.015288) can0 0CF00300#FF0032FF08FFFFFF
(1547753514.015861) can0 0CEFFF00#6406427DFFFFFFFF
(1547753514.016463) can0 18FEF200#2D00FFFFFFFFFFFF
(1547753514.022864) can0 0DEF0603#0101FFFFFFFFFFF5
(1547753514.024013) can0 0C000006#30FFFFFFF8FFFFFF
(1547753514.024587) can0 04EF0006#641510F00000BF0E
(1547753514.025311) can0 0CF00400#F0FFA5E01CFFFFFF
(1547753514.035288) can0 0CF00300#FF002CFF08FFFFFF
(1547753514.035835) can0 0CEFFF00#6406377DFFFFFFFF
(1547753514.036411) can0 18EF0600#640EFD00FFFFFFFF
(1547753514.042887) can0 0DEF0603#0101FFFFFFFFFFF5
(1547753514.044060) can0 04EF0006#641510F00000BF0E
(1547753514.044636) can0 0CFFFE06#5C7F1D7F1DFFFFFF
(1547753514.045209) can0 18FEF147#FF0000FFFFFFFFFF
(1547753514.045785) can0 0CF00400#F0FFA0001DFFFFFF
(1547753514.046386) can0 18FFFB06#0005E1F8FFFFFFFF
(1547753514.046984) can0 18F00503#FFFFFFFFFFFFFFFF
(1547753514.055311) can0 0CF00300#FF0028FF08FFFFFF
(1547753514.055884) can0 0CEFFF00#64062E7DFFFFFFFF
(1547753514.056460) can0 18EFFF00#64100101DB02047D
(1547753514.057033) can0 18FEDF00#8B201CFFFFFFFFFF
(1547753514.062762) can0 0DEF0647#0104FFFFFFFFFFF1
(1547753514.063386) can0 0DEF0603#0101FFFFFFFFFFF5
(1547753514.064535) can0 04EF0006#641510F00000BF0E
(1547753514.065336) can0 0CF00400#F0FF9D1E1DFFFFFF
(1547753514.075286) can0 0CF00300#FF0022FF08FFFFFF
(1547753514.075859) can0 0CEFFF00#6406247DFFFFFFFF
(1547753514.076436) can0 18FEEF00#FFFFFF02FFFFFFFA
(1547753514.083161) can0 0DEF0603#0101FFFFFFFFFFF5
(1547753514.084359) can0 04EF0006#641510F00000BF0E
(1547753514.084933) can0 0CFE4947#FFFFFFFFFFFFFFFF
(1547753514.085509) can0 0CF00400#FEFF993E1DFFFFFF
(1547753514.086083) can0 0CFFFF47#5DFFFFF3FFFFFFFF
(1547753514.086685) can0 0CFE4347#0000FFFF3FFFFFFF
(1547753514.087284) can0 0CFE4447#0000FFFF3FFFFFFF
(1547753514.095284) can0 0CF00300#FF000CFF08FFFFFF
(1547753514.095832) can0 0CEFFF00#6406DB7CFFFFFFFF
(1547753514.103159) can0 0DEF0603#0101FFFFFFFFFFF5
(1547753514.104334) can0 04EF0006#641510F00000BF0E
(1547753514.105285) can0 0CF00400#FEFF7D521DFFFFFF
(1547753514.115286) can0 0CF00300#FF001EFF08FFFFFF
(1547753514.115857) can0 0CEFFF00#6406047DFFFFFFFF
(1547753514.116434) can0 18FEF200#0F00FFFFFFFFFFFF
(1547753514.123159) can0 0DEF0603#0101FFFFFFFFFFF5
(1547753514.124333) can0 04EF0006#641510F00000BF0E
(1547753514.124907) can0 18FEF147#FF0000FFFFFFFFFF
(1547753514.125483) can0 0CF00400#FEFF8DFA1CFFFFFF
(1547753514.126056) can0 18F00503#7DFFFFFFFFFFFFFF
(1547753514.135459) can0 0CF00300#FF0028FF08FFFFFF
(1547753514.136006) can0 0CEFFF00#6406227DFFFFFFFF
(1547753514.136608) can0 18EF0600#640E0700FFFFFFFF
(1547753514.143134) can0 0DEF0603#0101FFFFFFFFFFF5
(1547753514.144358) can0 04EF0006#641510F00000BF0E
(1547753514.145308) can0 0CF00400#FEFF98A01CFFFFFF
(1547753514.155285) can0 0CF00300#FF0029FF08FFFFFF
(1547753514.155855) can0 0CEFFF00#64062C7DFFFFFFFF
(1547753514.156432) can0 18EFFF00#64100101D202057D
(1547753514.156980) can0 18FEF600#FF0045FF00FFFFFF
(1547753514.162832) can0 0DEF0647#0104FFFFFFFFFFF1
(1547753514.163432) can0 0DEF0603#0101FFFFFFFFFFF5
(1547753514.164482) can0 04EF0006#641510F00000BF0E
(1547753514.165055) can0 0CFFFE06#5C7F1D7F1DFFFFFF
(1547753514.165632) can0 0CF00400#FEFF9C741CFFFFFF
(1547753514.166206) can0 18FFFF06#73FFFFFFFFFFFFFF
(1547753514.166807) can0 18FFFB06#0005A1F8FFFFFFFF
(1547753514.167381) can0 18EEFF47#4D74300400340220
(1547753514.167929) can0 18EEFF17#0C6E240400130220
(1547753514.168506) can0 18EEFF06#4D743004000E0020
(1547753514.169079) can0 18EEFF03#4D74300400030220
(1547753514.175382) can0 0CF00300#FF002BFF08FFFFFF
(1547753514.175955) can0 0CEFFF00#64062B7DFFFFFFFF
(1547753514.183162) can0 0DEF0603#0101FFFFFFFFFFF5
(1547753514.184356) can0 04EF0006#641510F00000BF0E
(1547753514.185356) can0 0CF00400#FEFF9C481CFFFFFF
(1547753514.195281) can0 0CF00300#FF0034FF08FFFFFF
(1547753514.195854) can0 0CEFFF00#6406357DFFFFFFFF
(1547753514.203156) can0 0DEF0603#0101FFFFFFFFFFF5
(1547753514.204355) can0 04EF0006#641510F00000BF0E
(1547753514.204929) can0 0CFE4947#FFFFFFFFFFFFFFFF
(1547753514.205480) can0 0CF00400#F0FFA0401CFFFFFF
(1547753514.206079) can0 0CFE4347#0000FFFF3FFFFFFF
(1547753514.206655) can0 18FFFA00#022C0000180C0081
(1547753514.207229) can0 0CFE4447#0000FFFF3FFFFFFF
(1547753514.207831) can0 1CFDDF47#FCFFFFFFFFFFFFFF
(1547753514.215407) can0 0CF00300#FF0033FF08FFFFFF
(1547753514.215978) can0 0CEFFF00#6406417DFFFFFFFF
(1547753514.216555) can0 18FEF200#2B00FFFFFFFFFFFF
(1547753514.223156) can0 0DEF0603#0101FFFFFFFFFFF5
(1547753514.224355) can0 04EF0006#641510F00000BF0E
(1547753514.225456) can0 0CF00400#F0FFA4521CFFFFFF
(1547753514.235282) can0 0CF00300#FF0031FF08FFFFFF
(1547753514.235853) can0 0CEFFF00#64063E7DFFFFFFFF
(1547753514.236430) can0 18EF0600#640E1100FFFFFFFF
(1547753514.237003) can0 18FEF500#C8FFFFFFFF3FFFFF
(1547753514.243155) can0 0DEF0603#0101FFFFFFFFFFF5
(1547753514.244355) can0 04EF0006#641510F00000BF0E
(1547753514.244902) can0 0CFFFE06#5C7F1D7F1DFFFFFF
(1547753514.245479) can0 0CF00400#F0FFA3641CFFFFFF
(1547753514.246052) can0 18FEF147#FF0000FFFFFFFFFF
(1547753514.246654) can0 18F00647#FFCFFFFFFFFFFFFF
(1547753514.247279) can0 18F00503#7DFFFFFFFFFFFFFF
(1547753514.255306) can0 0CF00300#FF0030FF08FFFFFF
(1547753514.255877) can0 0CEFFF00#64063B7DFFFFFFFF
(1547753514.256454) can0 18EFFF00#64100101D102037D
(1547753514.262832) can0 0DEF0647#0104FFFFFFFFFFF1
(1547753514.263429) can0 0DEF0603#0101FFFFFFFFFFF5
(1547753514.264478) can0 04EF0006#641510F00000BF0E
(1547753514.265603) can0 0CF00400#F0FFA2821CFFFFFF
(1547753514.275278) can0 0CF00300#FF002DFF08FFFFFF
(1547753514.275851) can0 0CEFFF00#6406367DFFFFFFFF
(1547753514.276403) can0 18FE6900#D4256C26FFFF60FE
(1547753514.283153) can0 0DEF0603#0101FFFFFFFFFFF5
(1547753514.284352) can0 04EF0006#641510F00000BF0E
(1547753514.284926) can0 0CFE4947#FFFFFFFFFFFFFFFF
(1547753514.285503) can0 0CF00400#F0FFA0A41CFFFFFF
(1547753514.286076) can0 0CFE4347#0000FFFF3FFFFFFF
(1547753514.286678) can0 18FFFB06#0005BEF8FFFFFFFF
(1547753514.287278) can0 0CFE4447#0000FFFF3FFFFFFF
(1547753514.295281) can0 0CF00300#FF002AFF08FFFFFF
(1547753514.295851) can0 0CEFFF00#6406317DFFFFFFFF
(1547753514.303152) can0 0DEF0603#0101FFFFFFFFFFF5
(1547753514.304352) can0 04EF0006#641511F03419BF0E
(1547753514.305402) can0 0CF00400#F0FF9EBC1CFFFFFF
(1547753514.305975) can0 18FEDF00#8B201CFFFFFFFFFF
(1547753514.315354) can0 0CF00300#FF0022FF08FFFFFF
(1547753514.315925) can0 0CEFFF00#64062D7DFFFFFFFF
(1547753514.316502) can0 18FEF200#2300FFFFFFFFFFFF
(1547753514.323156) can0 0DEF0603#0101FFFFFFFFFFF5
(1547753514.324351) can0 04EF0006#641512F0E518BF0E
(1547753514.324925) can0 18FEF147#FF0000FFFFFFFFFF
(1547753514.325476) can0 0CF00400#FEFF9DCA1CFFFFFF
(1547753514.326075) can0 18F00503#7DFFFFFFFFFFFFFF
(1547753514.335276) can0 0CF00300#FF001AFF08FFFFFF
(1547753514.335849) can0 0CEFFF00#6406037DFFFFFFFF
(1547753514.336401) can0 18EF0600#640E1B00FFFFFFFF
(1547753514.343152) can0 0DEF0603#0101FFFFFFFFFFF5
(1547753514.344350) can0 04EF0006#641513F0F218BF0E
(1547753514.345326) can0 0CF00400#FEFF8CD61CFFFFFF
(1547753514.352980) can0 18EA4717#09FF00
(1547753514.353375) can0 18EA0617#09FF00
(1547753514.353772) can0 18EA0317#09FF00
(1547753514.355326) can0 0CF00300#FF001AFF08FFFFFF
(1547753514.355898) can0 0CEFFF00#64061A7DFFFFFFFF
(1547753514.356475) can0 18EFFF00#64100101D502057D
(1547753514.362826) can0 0DEF0647#0104FFFFFFFFFFF1
(1547753514.363425) can0 0DEF0603#0101FFFFFFFFFFF5
(1547753514.364475) can0 04EF0006#641514F0E818BF0E
(1547753514.365048) can0 0CFFFE06#5C7F1D7F1DFFFFFF
(1547753514.365625) can0 0CF00400#FEFF95E21CFFFFFF
(1547753514.366173) can0 18FF0947#434355FFFFFFFFFF
(1547753514.366775) can0 18FF0906#454943FFFFFFFFFF
(1547753514.367375) can0 18FF0903#505452FFFFFFFFFF
(1547753514.367972) can0 18FECA06#00FF00000000FFFF
(1547753514.368600) can0 18FECA47#00FF00000000FFFF
(1547753514.369800) can0 18FECA03#00FF00000000FFFF
(1547753514.375276) can0 0CF00300#FF001CFF08FFFFFF
(1547753514.375848) can0 0CEFFF00#6406187DFFFFFFFF
(1547753514.383152) can0 0DEF0603#0101FFFFFFFFFFF5
(1547753514.384375) can0 04EF0006#641515F0E518BF0E
(1547753514.385350) can0 0CF00400#FEFF94CA1CFFFFFF
(1547753514.395500) can0 0CF00300#FF001FFF08FFFFFF
(1547753514.396072) can0 0CEFFF00#6406237DFFFFFFFF
(1547753514.396624) can0 18FD7C00#F880F1F400CF03FD
(1547753514.403149) can0 0DEF0603#0101FFFFFFFFFFF5
(1547753514.404348) can0 04EF0006#641516F0F218BF0E
(1547753514.404922) can0 0CFE4947#FFFFFFFFFFFFFFFF
(1547753514.405480) can0 0CF00400#FEFF99B61CFFFFFF
(1547753514.406078) can0 0CFE4347#0000FFFF3FFFFFFF
(1547753514.406648) can0 18FFFB06#000596F8FFFFFFFF
(1547753514.407222) can0 0CFE4447#0000FFFF3FFFFFFF
(1547753514.415304) can0 0CF00300#FF001FFF08FFFFFF
(1547753514.415872) can0 0CEFFF00#6406247DFFFFFFFF
(1547753514.416449) can0 18FEF200#1E00FFFFFFFFFFFF
(1547753514.423149) can0 0DEF0603#0101FFFFFFFFFFF5
(1547753514.424348) can0 04EF0006#641517F03019BF0E
(1547753514.425323) can0 0CF00400#FEFF99A61CFFFFFF
(1547753514.434473) can0 18FECA17#00FF00000000FFFF
(1547753514.435348) can0 0CF00300#FF0021FF08FFFFFF
(1547753514.435921) can0 0CEFFF00#6406277DFFFFFFFF
(1547753514.436498) can0 18EF0600#640E2500FFFFFFFF
(1547753514.443150) can0 0DEF0603#0101FFFFFFFFFFF5
(1547753514.444348) can0 04EF0006#641518F03419BF0E
(1547753514.444921) can0 0CFFFE06#5C7F1D7F1DFFFFFF
(1547753514.445473) can0 0CF00400#FEFF9A8E1CFFFFFF
(1547753514.446046) can0 18FEF147#FF0000FFFFFFFFFF
(1547753514.446648) can0 18F00503#7DFFFFFFFFFFFFFF
(1547753514.455322) can0 0CF00300#FF0023FF08FFFFFF
(1547753514.455895) can0 0CEFFF00#64062C7DFFFFFFFF
(1547753514.456472) can0 18EFFF00#64100101D202057D
(1547753514.462823) can0 0DEF0647#0104FFFFFFFFFFF1
(1547753514.463447) can0 0DEF0603#0101FFFFFFFFFFF5
(1547753514.464622) can0 04EF0006#641519F03019BF0E
(1547753514.465322) can0 0CF00400#FEFF9C841CFFFFFF
(1547753514.475399) can0 0CF00300#FF0022FF08FFFFFF
(1547753514.475994) can0 0CEFFF00#6406297DFFFFFFFF
(1547753514.482378) can0 18EAFF06#E5FE00
(1547753514.483346) can0 0DEF0603#0101FFFFFFFFFFF5
(1547753514.484545) can0 04EF0006#64151AF02A19BF0E
(1547753514.485121) can0 0CFE4947#FFFFFFFFFFFFFFFF
(1547753514.485696) can0 0CF00400#FEFF9B841CFFFFFF
(1547753514.486271) can0 0CFE4347#0000FFFF3FFFFFFF
(1547753514.486844) can0 18FEE706#C80A0000FFFFFFFF
(1547753514.487421) can0 0CFE4447#0000FFFF3FFFFFFF
(1547753514.495300) can0 0CF00300#FF0021FF08FFFFFF
(1547753514.495896) can0 0CEFFF00#6406287DFFFFFFFF
(1547753514.496448) can0 18FDB300#FFFF5A27FFFFFFFF
(1547753514.497046) can0 1CEFFF00#64070000FFFFFFFF
(1547753514.503285) can0 0DEF0603#0101FFFFFFFFFFF5
(1547753514.504472) can0 04EF0006#64151BF02A19BF0E
(1547753514.505355) can0 0CF00400#FEFF9B801CFFFFFF
(1547753514.510498) can0 18FEE500#CB0A0000FFFFFFFF
(1547753514.513136) can0 1CFFFF17#22FFFF3CFFFFFFFF
(1547753514.515387) can0 0CF00300#FF0023FF08FFFFFF
(1547753514.515959) can0 0CEFFF00#64062B7DFFFFFFFF
(1547753514.516537) can0 18FEF200#2100FFFFFFFFFFFF
(1547753514.523286) can0 0DEF0603#0101FFFFFFFFFFF5
(1547753514.524488) can0 04EF0006#64151CF02A19BF0E
(1547753514.525084) can0 18FEF147#FF0000FFFFFFFFFF
(1547753514.525636) can0 0CF00400#FEFF9C7A1CFFFFFF
(1547753514.526209) can0 18FFFB06#0005AAF8FFFFFFFF
(1547753514.526811) can0 18F00503#7DFFFFFFFFFFFFFF
(1547753514.535311) can0 0CF00300#FF0022FF08FFFFFF
(1547753514.535883) can0 0CEFFF00#64062A7DFFFFFFFF
(1547753514.536435) can0 18EF0600#640E2F00FFFFFFFF
(1547753514.543310) can0 0DEF0603#0101FFFFFFFFFFF5
(1547753514.544510) can0 04EF0006#64151DF02F19BF0E
(1547753514.545360) can0 0CF00400#FEFF9B7A1CFFFFFF
(1547753514.555285) can0 0CF00300#FF0022FF08FFFFFF
(1547753514.555857) can0 0CEFFF00#64062A7DFFFFFFFF
(1547753514.556434) can0 18EFFF00#64100101D002057D
(1547753514.557008) can0 18FEDF00#8B601CFFFFFFFFFF
(1547753514.562835) can0 0DEF0647#0104FFFFFFFFFFF1
(1547753514.563534) can0 0DEF0603#0101FFFFFFFFFFF5
(1547753514.564735) can0 04EF0006#64151EF02F19BF0E
(1547753514.565282) can0 0CFFFE06#5C7F1D7F1DFFFFFF
(1547753514.565857) can0 0CF00400#FEFF9B781CFFFFFF
(1547753514.575460) can0 0CF00300#FF0023FF08FFFFFF
(1547753514.576032) can0 0CEFFF00#64062A7DFFFFFFFF
(1547753514.576610) can0 18FEEF00#FFFFFF51FFFFFFFA
(1547753514.583309) can0 0DEF0603#0101FFFFFFFFFFF5
(1547753514.584509) can0 04EF0006#64151FF02F19BF0E
(1547753514.585334) can0 0CF00400#FEFF9B6E1CFFFFFF
(1547753514.595283) can0 0CF00300#FF0023FF08FFFFFF
(1547753514.595881) can0 0CEFFF00#64062E7DFFFFFFFF
(1547753514.603283) can0 0DEF0603#0101FFFFFFFFFFF5
(1547753514.604483) can0 04EF0006#641510F0C118BF0E
(1547753514.605056) can0 0CFE4947#FFFFFFFFFFFFFFFF
(1547753514.605632) can0 0CF00400#FEFF9D701CFFFFFF
(1547753514.606206) can0 0CFFFF47#5DFFFFF3FFFFFFFF
(1547753514.606808) can0 0CFE4347#0000FFFF3FFFFFFF
(1547753514.607408) can0 0CFE4447#0000FFFF3FFFFFFF
(1547753514.615580) can0 0CF00300#FF0023FF08FFFFFF
(1547753514.616156) can0 0CEFFF00#64062A7DFFFFFFFF
(1547753514.616730) can0 18FEF200#2000FFFFFFFFFFFF
(1547753514.623282) can0 0DEF0603#0101FFFFFFFFFFF5
(1547753514.624507) can0 04EF0006#641511F0C718BF0E
(1547753514.625332) can0 0CF00400#FEFF9B721CFFFFFF
(1547753514.635282) can0 0CF00300#FF0023FF08FFFFFF
(1547753514.635855) can0 0CEFFF00#64062A7DFFFFFFFF
(1547753514.636431) can0 18EF0600#640E3900FFFFFFFF
(1547753514.643282) can0 0DEF0603#0101FFFFFFFFFFF5
(1547753514.644481) can0 04EF0006#641512F0C718BF0E
(1547753514.645055) can0 0CFFFE06#5C7F1D7F1DFFFFFF
(1547753514.645632) can0 0CF00400#FEFF9B681CFFFFFF
(1547753514.646205) can0 18FEF147#FF0000FFFFFFFFFF
(1547753514.646807) can0 18FFFB06#0005AAF8FFFFFFFF
(1547753514.647403) can0 18FFFB06#001BFFFFFFFFFFFF
(1547753514.648005) can0 18F00503#7DFFFFFFFFFFFFFF
(1547753514.655332) can0 0CF00300#FF0024FF08FFFFFF
(1547753514.655904) can0 0CEFFF00#64062F7DFFFFFFFF
(1547753514.656481) can0 18EFFF00#64100101CF02057D
(1547753514.657054) can0 18FEF600#FF0045FF00FFFFFF
(1547753514.662833) can0 0DEF0647#0104FFFFFFFFFFF1
(1547753514.663431) can0 0DEF0603#0101FFFFFFFFFFF5
(1547753514.664631) can0 04EF0006#641513F0C118BF0E
(1547753514.665406) can0 0CF00400#FEFF9D621CFFFFFF
(1547753514.675283) can0 18EFFA00#6401FF0000FFFFFF
(1547753514.675855) can0 0CEFFF00#64062E7DFFFFFFFF
(1547753514.676431) can0 0CF00300#FF0023FF08FFFFFF
(1547753514.683307) can0 0DEF0603#0101FFFFFFFFFFF5
(1547753514.684506) can0 04EF0006#641514F07319BF0E
(1547753514.685079) can0 0CFE4947#FFFFFFFFFFFFFFFF
(1547753514.685631) can0 0CF00400#FEFF9D621CFFFFFF
(1547753514.686229) can0 0CFE4347#0000FFFF3FFFFFFF
(1547753514.686805) can0 18FE6847#3AFFFFFFFFFFFFFF
(1547753514.687380) can0 0CFE4447#0000FFFF3FFFFFFF
(1547753514.687954) can0 18FFFF06#73FFFFFFFFFFFFFF
(1547753514.695431) can0 0CF00300#FF0023FF08FFFFFF
(1547753514.696003) can0 0CEFFF00#64062D7DFFFFFFFF
(1547753514.703281) can0 0DEF0603#0101FFFFFFFFFFF5
(1547753514.704480) can0 04EF0006#641515F07319BF0E
(1547753514.705505) can0 0CF00400#FEFF9D5E1CFFFFFF
(1547753514.715331) can0 0CF00300#FF0025FF08FFFFFF
(1547753514.715902) can0 0CEFFF00#6406307DFFFFFFFF
(1547753514.716504) can0 18FEF200#2400FFFFFFFFFFFF
(1547753514.723280) can0 0DEF0603#0101FFFFFFFFFFF5
(1547753514.724478) can0 04EF0006#641516F0D018BF0E
(1547753514.725077) can0 0CFFFF47#5EFFFFFFFFFFFFFF
(1547753514.725629) can0 0CF00400#FEFF9E5A1CFFFFFF
(1547753514.726202) can0 18FEF147#FF0000FFFFFFFFFF
(1547753514.726804) can0 18FEFC47#FFFFFFFFFFFFFFFF
(1547753514.727415) can0 18EF0047#F220610FFFFFFFFF
(1547753514.727982) can0 18F00647#FFCFFFFFFFFFFFFF
(1547753514.728579) can0 1CFDDF47#FCFFFFFFFFFFFFFF
(1547753514.729178) can0 18F00503#7DFFFFFFFFFFFFFF
(1547753514.735308) can0 0CF00300#FF0023FF08FFFFFF
(1547753514.735850) can0 0CEFFF00#64062F7DFFFFFFFF
(1547753514.736424) can0 18EF0600#640E4300FFFFFFFF
(1547753514.743279) can0 0DEF0603#0101FFFFFFFFFFF5
(1547753514.744478) can0 04EF0006#641517F0C618BF0E
(1547753514.745428) can0 0CF00400#FEFF9D621CFFFFFF
(1547753514.755305) can0 0CF00300#FF0023FF08FFFFFF
(1547753514.755876) can0 0CEFFF00#64062B7DFFFFFFFF
(1547753514.756427) can0 18EFFF00#64100101CC02057D
(1547753514.762832) can0 0DEF0647#0104FFFFFFFFFFF1
(1547753514.763428) can0 0DEF0603#0101FFFFFFFFFFF5
(1547753514.764628) can0 04EF0006#641518F07319BF0E
(1547753514.765176) can0 0CFFFE06#5C7F1D7F1DFFFFFF
(1547753514.765753) can0 0CF00400#FEFF9C641CFFFFFF
(1547753514.766328) can0 18FFFB06#0005AFF8FFFFFFFF
(1547753514.775352) can0 0CF00300#FF0023FF08FFFFFF
(1547753514.775923) can0 0CEFFF00#64062D7DFFFFFFFF
(1547753514.776500) can0 18FEEE00#4A43FFFFFFFFFFFF
(1547753514.783307) can0 0DEF0603#0101FFFFFFFFFFF5
(1547753514.784505) can0 04EF0006#641519F07319BF0E
(1547753514.785429) can0 0CF00400#FEFF9D601CFFFFFF
(1547753514.795433) can0 0CF00300#FF0024FF08FFFFFF
(1547753514.795978) can0 0CEFFF00#64062F7DFFFFFFFF
(1547753514.803282) can0 0DEF0603#0101FFFFFFFFFFF5
(1547753514.804479) can0 04EF0006#64151AF07319BF0E
(1547753514.805076) can0 0CFE4947#FFFFFFFFFFFFFFFF
(1547753514.805627) can0 0CF00400#FEFF9D621CFFFFFF
(1547753514.806200) can0 0CFE4347#0000FFFF3FFFFFFF
(1547753514.806777) can0 18FEDF00#8B521CFFFFFFFFFF
(1547753514.807352) can0 0CFE4447#0000FFFF3FFFFFFF
(1547753514.815330) can0 0CF00300#FF0023FF08FFFFFF
(1547753514.815901) can0 0CEFFF00#64062C7DFFFFFFFF
(1547753514.816478) can0 18FEF200#2100FFFFFFFFFFFF
(1547753514.823281) can0 0DEF0603#0101FFFFFFFFFFF5
(1547753514.824476) can0 04EF0006#64151BF07319BF0E
(1547753514.825376) can0 0CF00400#FEFF9C661CFFFFFF
(1547753514.835563) can0 0CF00300#FF0024FF08FFFFFF
(1547753514.836131) can0 0CEFFF00#64062C7DFFFFFFFF
(1547753514.836708) can0 18EF0600#640E4D00FFFFFFFF
(1547753514.843305) can0 0DEF0603#0101FFFFFFFFFFF5
(1547753514.844477) can0 04EF0006#64151CF07319BF0E
(1547753514.845049) can0 0CFFFE06#5C7F1D7F1DFFFFFF
(1547753514.845625) can0 0CF00400#FEFF9C5E1CFFFFFF
(1547753514.846198) can0 18FEF147#FF0000FFFFFFFFFF
(1547753514.846801) can0 18F00503#7DFFFFFFFFFFFFFF
(1547753514.855264) can0 0CF00300#FF0024FF08FFFFFF
(1547753514.855849) can0 0CEFFF00#64062F7DFFFFFFFF
(1547753514.856424) can0 18EFFF00#64100101CB02057D
(1547753514.857020) can0 18FEF700#FFFFFFFFFFFFFA00
(1547753514.862827) can0 0DEF0647#0104FFFFFFFFFFF1
(1547753514.863450) can0 0DEF0603#0101FFFFFFFFFFF5
(1547753514.864625) can0 04EF0006#64151DF0D018BF0E
(1547753514.865350) can0 0CF00400#FEFF9D601CFFFFFF
(1547753514.875329) can0 0CF00300#FF0023FF08FFFFFF
(1547753514.875898) can0 0CEFFF00#64062C7DFFFFFFFF
(1547753514.883302) can0 0DEF0603#0101FFFFFFFFFFF5
(1547753514.884500) can0 04EF0006#64151EF07319BF0E
(1547753514.885073) can0 0CFE4947#FFFFFFFFFFFFFFFF
(1547753514.885624) can0 0CF00400#FEFF9C641CFFFFFF
(1547753514.886222) can0 0CFE4347#0000FFFF3FFFFFFF
(1547753514.886799) can0 18FFFB06#0005AFF8FFFFFFFF
(1547753514.887374) can0 0CFE4447#0000FFFF3FFFFFFF
(1547753514.895299) can0 0CF00300#FF0023FF08FFFFFF
(1547753514.895897) can0 0CEFFF00#64062B7DFFFFFFFF
(1547753514.903294) can0 0DEF0603#0101FFFFFFFFFFF5
(1547753514.904496) can0 04EF0006#64151FF07319BF0E
(1547753514.905374) can0 0CF00400#FEFF9C5C1CFFFFFF
(1547753514.915404) can0 0CF00300#FF0024FF08FFFFFF
(1547753514.915973) can0 0CEFFF00#6406317DFFFFFFFF
(1547753514.916549) can0 18FEF200#2400FFFFFFFFFFFF
(1547753514.923303) can0 0DEF0603#0101FFFFFFFFFFF5
(1547753514.924499) can0 04EF0006#641510F0D018BF0E
(1547753514.925071) can0 18FEF147#FF0000FFFFFFFFFF
(1547753514.925623) can0 0CF00400#FEFF9E561CFFFFFF
(1547753514.926182) can0 18F00503#7DFFFFFFFFFFFFFF
(1547753514.935284) can0 0CF00300#FF0024FF08FFFFFF
(1547753514.935879) can0 0CEFFF00#6406307DFFFFFFFF
(1547753514.936445) can0 18EF0600#640E5700FFFFFFFF
(1547753514.943300) can0 0DEF0603#0101FFFFFFFFFFF5
(1547753514.944499) can0 04EF0006#641511F0C918BF0E
(1547753514.945349) can0 0CF00400#FEFF9E541CFFFFFF
(1547753514.955301) can0 0CF00300#FF0024FF07FFFFFF
(1547753514.955872) can0 0CEFFF00#64062F7DFFFFFFFF
(1547753514.956408) can0 18EFFF00#64100101CA02057D
(1547753514.957007) can0 18FED500#FFFFFDFFFFFFFFFF
(1547753514.962825) can0 0DEF0647#0104FFFFFFFFFFF1
(1547753514.963448) can0 0DEF0603#0101FFFFFFFFFFF5
(1547753514.964623) can0 04EF0006#641512F0C918A90E
(1547753514.965170) can0 0CFFFE06#5C531D531DFFFFFF
(1547753514.965747) can0 0CF00400#FEFF9D501CFFFFFF
(1547753514.975336) can0 0CF00300#FF0023FF08FFFFFF
(1547753514.975906) can0 0CEFFF00#6406317DFFFFFFFF
(1547753514.983288) can0 0DEF0603#0101FFFFFFFFFFF5
(1547753514.984482) can0 04EF0006#641513F0C918BF0E
(1547753514.985332) can0 0CF00400#FEFF9E461CFFFFFF
(1547753514.995284) can0 0CF00300#FF002AFF08FFFFFF
(1547753514.995851) can0 0CEFFF00#6406207DFFFFFFFF
(1547753514.996428) can0 18FDB300#FFFF5A27FFFFFFFF
(1547753515.003283) can0 0DEF0603#0101FFFFFFFFFFF5
(1547753515.004478) can0 04EF0006#641514F07319BF0E
(1547753515.005051) can0 0CFE4947#FFFFFFFFFFFFFFFF
(1547753515.005628) can0 0CF00400#FEFF98501CFFFFFF
(1547753515.006202) can0 0CFE4347#0000FFFF3FFFFFFF
(1547753515.006778) can0 18FFFB06#0005B2F8FFFFFFFF
(1547753515.007377) can0 0CFE4447#0000FFFF3FFFFFFF
(1547753515.007953) can0 0CFFFE06#5C7F1D7F1DFFFFFF
(1547753515.015360) can0 0CF00300#FF0023FF08FFFFFF
(1547753515.015930) can0 0CEFFF00#64062F7DFFFFFFFF
(1547753515.016507) can0 18FEF200#2300FFFFFFFFFFFF
(1547753515.023281) can0 0DEF0603#0101FFFFFFFFFFF5
(1547753515.024431) can0 0C000006#30FFFFFFF8FFFFFF
(1547753515.024977) can0 04EF0006#641515F0D018BF0E
(1547753515.025529) can0 0CF00400#FEFF9D5A1CFFFFFF
(1547753515.035256) can0 0CF00300#FF0024FF08FFFFFF
(1547753515.035827) can0 0CEFFF00#64062D7DFFFFFFFF
(1547753515.036404) can0 18EF0600#640E6100FFFFFFFF
(1547753515.043255) can0 0DEF0603#0101FFFFFFFFFFF5
(1547753515.044454) can0 04EF0006#641516F0C618BF0E
(1547753515.045027) can0 18FEF147#FF0000FFFFFFFFFF
(1547753515.045603) can0 0CF00400#FEFF9D5A1CFFFFFF
(1547753515.046176) can0 18F00503#7DFFFFFFFFFFFFFF
(1547753515.055581) can0 0CF00300#FF0023FF08FFFFFF
(1547753515.056152) can0 0CEFFF00#64062E7DFFFFFFFF
(1547753515.056702) can0 18EFFF00#64100101C902057D
(1547753515.057278) can0 18FEDF00#8B521CFFFFFFFFFF
(1547753515.062829) can0 0DEF0647#0104FFFFFFFFFFF1
(1547753515.063503) can0 0DEF0603#0101FFFFFFFFFFF5
(1547753515.064702) can0 04EF0006#641517F0C618BF0E
(1547753515.065327) can0 0CF00400#FEFF9D621CFFFFFF
(1547753515.075281) can0 0CF00300#FF0021FF08FFFFFF
(1547753515.075851) can0 0CEFFF00#64062B7DFFFFFFFF
(1547753515.076427) can0 18FEEF00#FFFFFF65FFFFFFFA
(1547753515.083278) can0 0DEF0603#0101FFFFFFFFFFF5
(1547753515.084477) can0 04EF0006#641518F07319BF0E
(1547753515.085049) can0 0CFE4947#FFFFFFFFFFFFFFFF
(1547753515.085601) can0 0CF00400#FEFF9C6A1CFFFFFF
(1547753515.086199) can0 0CFFFF47#5DFFFFF3FFFFFFFF
(1547753515.086776) can0 0CFE4347#0000FFFF3FFFFFFF
(1547753515.087401) can0 0CFE4447#0000FFFF3FFFFFFF
(1547753515.095352) can0 0CF00300#FF0022FF08FFFFFF
(1547753515.095924) can0 0CEFFF00#6406297DFFFFFFFF
(1547753515.103277) can0 0DEF0603#0101FFFFFFFFFFF5
(1547753515.104476) can0 04EF0006#641519F0D018BF0E
(1547753515.105426) can0 0CF00400#FEFF9B661CFFFFFF
(1547753515.115279) can0 0CF00300#FF0024FF08FFFFFF
(1547753515.115850) can0 0CEFFF00#64062D7DFFFFFFFF
(1547753515.116451) can0 18FEF200#2300FFFFFFFFFFFF
(1547753515.123276) can0 0DEF0603#0101FFFFFFFFFFF5
(1547753515.124475) can0 04EF0006#64151AF07319BF0E
(1547753515.125023) can0 0CFFFE06#5C7F1D7F1DFFFFFF
(1547753515.125600) can0 0CF00400#FEFF9D621CFFFFFF
(1547753515.126173) can0 18FEF147#FF0000FFFFFFFFFF
(1547753515.126775) can0 18FFFB06#0005AAF8FFFFFFFF
(1547753515.127374) can0 18F00503#7DFFFFFFFFFFFFFF
(1547753515.135402) can0 0CF00300#FF0022FF08FFFFFF
(1547753515.135973) can0 0CEFFF00#64062B7DFFFFFFFF
(1547753515.136549) can0 18EF0600#640E6B00FFFFFFFF
(1547753515.143275) can0 0DEF0603#0101FFFFFFFFFFF5
(1547753515.144475) can0 04EF0006#64151BF07319BF0E
(1547753515.145475) can0 0CF00400#FEFF9C621CFFFFFF
(1547753515.155327) can0 0CF00300#FF0023FF08FFFFFF
(1547753515.155898) can0 0CEFFF00#64062D7DFFFFFFFF
(1547753515.156449) can0 18EFFF00#64100101C802057D
(1547753515.157022) can0 18FEF600#FF0044FF00FFFFFF
(1547753515.162824) can0 0DEF0647#0104FFFFFFFFFFF1
(1547753515.163424) can0 0DEF0603#0101FFFFFFFFFFF5
(1547753515.164598) can0 04EF0006#64151CF07319BF0E
(1547753515.165197) can0 18FFFF06#73FFFFFFFFFFFFFF
(1547753515.165748) can0 0CF00400#FEFF9D581CFFFFFF
(1547753515.175278) can0 0CF00300#FF0024FF08FFFFFF
(1547753515.175874) can0 0CEFFF00#6406317DFFFFFFFF
(1547753515.183276) can0 0DEF0603#0101FFFFFFFFFFF5
(1547753515.184474) can0 04EF0006#64151DF0D018BF0E
(1547753515.185349) can0 0CF00400#FEFF9E4E1CFFFFFF
(1547753515.193100) can0 1CFFFF17#22FFFF3CFFFFFFFF
(1547753515.195274) can0 0CF00300#FF0025FF08FFFFFF
(1547753515.195847) can0 0CEFFF00#6406327DFFFFFFFF
(1547753515.203274) can0 0DEF0603#0101FFFFFFFFFFF5
(1547753515.204473) can0 04EF0006#64151EF00B19BF0E
(1547753515.205046) can0 0CFE4947#FFFFFFFFFFFFFFFF
(1547753515.205622) can0 0CF00400#FEFF9E4A1CFFFFFF
(1547753515.206196) can0 0CFE4347#0000FFFF3FFFFFFF
(1547753515.206771) can0 18FFFA00#022C0000180C0081
(1547753515.207347) can0 0CFE4447#0000FFFF3FFFFFFF
(1547753515.207945) can0 1CFDDF47#FCFFFFFFFFFFFFFF
(1547753515.208496) can0 0CFFFE06#5C7F1D7F1DFFFFFF
(1547753515.215297) can0 0CF00300#FF0025FF08FFFFFF
(1547753515.215869) can0 0CEFFF00#6406307DFFFFFFFF
(1547753515.216447) can0 18FEF200#2300FFFFFFFFFFFF
(1547753515.223272) can0 0DEF0603#0101FFFFFFFFFFF5
(1547753515.224471) can0 04EF0006#64151FF00B19BF0E
(1547753515.225371) can0 0CF00400#FEFF9E481CFFFFFF
(1547753515.235371) can0 0CF00300#FF0026FF08FFFFFF
(1547753515.235944) can0 0CEFFF00#6406317DFFFFFFFF
(1547753515.236521) can0 18EF0600#640E7500FFFFFFFF
(1547753515.237094) can0 18FEF500#C8FFFFFFFF3EFFFF
(1547753515.243271) can0 0DEF0603#0101FFFFFFFFFFF5
(1547753515.244470) can0 04EF0006#641510F00B19BF0E
(1547753515.245044) can0 18FEF147#FF0000FFFFFFFFFF
(1547753515.245620) can0 0CF00400#FEFF9E381CFFFFFF
(1547753515.246194) can0 18F00647#FFCFFFFFFFFFFFFF
(1547753515.246796) can0 18FFFB06#0005B2F8FFFFFFFF
(1547753515.247396) can0 18F00503#7DFFFFFFFFFFFFFF
(1547753515.255301) can0 0CF00300#FF0026FF08FFFFFF
(1547753515.255868) can0 0CEFFF00#6406367DFFFFFFFF
(1547753515.256445) can0 18EFFF00#64100101C602057D
(1547753515.262821) can0 0DEF0647#0104FFFFFFFFFFF1
(1547753515.263420) can0 0DEF0603#0101FFFFFFFFFFF5
(1547753515.264619) can0 04EF0006#641511F0CC18BF0E
(1547753515.265345) can0 0CF00400#FEFFA03C1CFFFFFF
(1547753515.275395) can0 0CF00300#FF0025FF07FFFFFF
(1547753515.275968) can0 0CEFFF00#6406327DFFFFFFFF
(1547753515.276519) can0 18FE6900#B6256E26FFFF60FE
(1547753515.283270) can0 0DEF0603#0101FFFFFFFFFFF5
(1547753515.284469) can0 04EF0006#641512F0CC18A90E
(1547753515.285042) can0 0CFE4947#FFFFFFFFFFFFFFFF
(1547753515.285594) can0 0CF00400#FEFF9E401CFFFFFF
(1547753515.286192) can0 0CFE4347#0000FFFF3FFFFFFF
(1547753515.286794) can0 0CFE4447#0000FFFF3FFFFFFF
(1547753515.287369) can0 0CFFFE06#5C531D531DFFFFFF
(1547753515.295273) can0 0CF00300#FF0024FF08FFFFFF
(1547753515.295818) can0 0CEFFF00#6406317DFFFFFFFF
(1547753515.303244) can0 0DEF0603#0101FFFFFFFFFFF5
(1547753515.304469) can0 04EF0006#641513F07319BF0E
(1547753515.305319) can0 0CF00400#F0FF9E381CFFFFFF
(1547753515.305892) can0 18FEDF00#8B201CFFFFFFFFFF
(1547753515.315369) can0 0CF00300#FF0029FF08FFFFFF
(1547753515.315942) can0 0CEFFF00#64062E7DFFFFFFFF
(1547753515.316519) can0 18FEF200#2300FFFFFFFFFFFF
(1547753515.323308) can0 0DEF0603#0101FFFFFFFFFFF5
(1547753515.324511) can0 04EF0006#641514F0D018BF0E
(1547753515.325081) can0 0CFFFE06#5C7F1D7F1DFFFFFF
(1547753515.325657) can0 0CF00400#FEFF9D361CFFFFFF
(1547753515.326232) can0 18FEF147#FF0000FFFFFFFFFF
(1547753515.326833) can0 18F00503#7DFFFFFFFFFFFFFF
(1547753515.335311) can0 0CF00300#FF0026FF07FFFFFF
(1547753515.335881) can0 0CEFFF00#6406367DFFFFFFFF
(1547753515.336458) can0 18EF0600#640E7F00FFFFFFFF
(1547753515.343256) can0 0DEF0603#0101FFFFFFFFFFF5
(1547753515.344455) can0 04EF0006#641515F00719A90E
(1547753515.345333) can0 0CF00400#FEFFA0381CFFFFFF
(1547753515.355287) can0 0CF00300#FF0024FF08FFFFFF
(1547753515.355856) can0 0CEFFF00#6406327DFFFFFFFF
(1547753515.356408) can0 18EFFF00#64100101C502057D
(1547753515.362836) can0 0DEF0647#0104FFFFFFFFFFF1
(1547753515.363433) can0 0DEF0603#0101FFFFFFFFFFF5
(1547753515.364608) can0 04EF0006#641516F0CC18BF0E
(1547753515.365181) can0 0CFFFE06#5C7F1D7F1DFFFFFF
(1547753515.365733) can0 0CF00400#F0FF9E3C1CFFFFFF
(1547753515.366333) can0 18FFFB06#0005B8F8FFFFFFFF
(1547753515.375310) can0 0CF00300#FF0027FF08FFFFFF
(1547753515.375881) can0 0CEFFF00#64062E7DFFFFFFFF
(1547753515.383284) can0 0DEF0603#0101FFFFFFFFFFF5
(1547753515.384482) can0 04EF0006#641517F0CC18BF0E
(1547753515.385357) can0 0CF00400#FEFF9D3E1CFFFFFF
(1547753515.395284) can0 0CF00300#FF0025FF07FFFFFF
(1547753515.395854) can0 0CEFFF00#6406337DFFFFFFFF
(1547753515.396431) can0 18FD7C00#F880F1F400CF03FD
(1547753515.403272) can0 0DEF0603#0101FFFFFFFFFFF5
(1547753515.404441) can0 04EF0006#641518F0CC18A90E
(1547753515.405068) can0 0CFE4947#FFFFFFFFFFFFFFFF
(1547753515.405627) can0 0CF00400#FEFF9F441CFFFFFF
(1547753515.406203) can0 0CFE4347#0000FFFF3FFFFFFF
(1547753515.406803) can0 0CFE4447#0000FFFF3FFFFFFF
(1547753515.407373) can0 0CFFFE06#5C531D531DFFFFFF
(1547753515.415358) can0 0CF00300#FF0023FF07FFFFFF
(1547753515.415929) can0 0CEFFF00#6406317DFFFFFFFF
(1547753515.416506) can0 18FEF200#2400FFFFFFFFFFFF
(1547753515.423285) can0 0DEF0603#0101FFFFFFFFFFF5
(1547753515.424480) can0 04EF0006#641519F07319A90E
(1547753515.425355) can0 0CF00400#F0FF9E461CFFFFFF
(1547753515.435284) can0 0CF00300#FF001EFF07FFFFFF
(1547753515.435854) can0 0CEFFF00#64062C7DFFFFFFFF
(1547753515.436430) can0 18EF0600#640E8900FFFFFFFF
(1547753515.443285) can0 0DEF0603#0101FFFFFFFFFFF5
(1547753515.444480) can0 04EF0006#64151AF07319A90E
(1547753515.445053) can0 18FEF147#FF0000FFFFFFFFFF
(1547753515.445605) can0 0CF00400#FEFF9C441CFFFFFF
(1547753515.446203) can0 18F00503#7DFFFFFFFFFFFFFF
(1547753515.455407) can0 0CF00300#FF0022FF08FFFFFF
(1547753515.455978) can0 0CEFFF00#6406287DFFFFFFFF
(1547753515.456555) can0 18EFFF00#64100101C502057D
(1547753515.462856) can0 0DEF0647#0104FFFFFFFFFFF1
(1547753515.463454) can0 0DEF0603#0101FFFFFFFFFFF5
(1547753515.464626) can0 04EF0006#64151BF07319BF0E
(1547753515.465305) can0 0CF00400#FEFF9B461CFFFFFF
(1547753515.475279) can0 0CF00300#FF002BFF07FFFFFF
(1547753515.475837) can0 0CEFFF00#6406287DFFFFFFFF
(1547753515.483270) can0 0DEF0603#0101FFFFFFFFFFF5
(1547753515.484463) can0 04EF0006#64151CF07319A90E
(1547753515.485036) can0 0CFE4947#FFFFFFFFFFFFFFFF
(1547753515.485587) can0 0CF00400#FEFF9B421CFFFFFF
(1547753515.486186) can0 0CFE4347#0000FFFF3FFFFFFF
(1547753515.486763) can0 18FFFB06#0005AAF8FFFFFFFF
(1547753515.487338) can0 0CFE4447#0000FFFF3FFFFFFF
(1547753515.487910) can0 0CFFFE06#5C531D531DFFFFFF
(1547753515.495292) can0 0CF00300#FF0023FF07FFFFFF
(1547753515.495860) can0 0CEFFF00#6406347DFFFFFFFF
(1547753515.496437) can0 18FDB300#FFFF6627FFFFFFFF
(1547753515.497036) can0 1CEFFF00#64070000FFFFFFFF
(1547753515.502342) can0 18EAFF06#E5FE00
(1547753515.503313) can0 0DEF0603#0101FFFFFFFFFFF5
(1547753515.504512) can0 04EF0006#64151DF07319A90E
(1547753515.505338) can0 0CF00400#F0FF9F301CFFFFFF
(1547753515.510552) can0 18FEE500#CB0A0000FFFFFFFF
(1547753515.515318) can0 0CF00300#FF0024FF07FFFFFF
(1547753515.515885) can0 0CEFFF00#64062F7DFFFFFFFF
(1547753515.516462) can0 18FEF200#2300FFFFFFFFFFFF
(1547753515.523263) can0 0DEF0603#0101FFFFFFFFFFF5
(1547753515.524436) can0 04EF0006#64151EF00719A90E
(1547753515.525010) can0 18FEF147#FF0000FFFFFFFFFF
(1547753515.525586) can0 0CF00400#FEFF9D301CFFFFFF
(1547753515.526159) can0 18FEE706#C80A0000FFFFFFFF
(1547753515.526761) can0 18F00503#7DFFFFFFFFFFFFFF
(1547753515.535290) can0 0CF00300#FF0022FF08FFFFFF
(1547753515.535858) can0 0CEFFF00#6406297DFFFFFFFF
(1547753515.536436) can0 18EF0600#640E9300FFFFFFFF
(1547753515.543263) can0 0DEF0603#0101FFFFFFFFFFF5
(1547753515.544460) can0 04EF0006#64151FF00719BF0E
(1547753515.545461) can0 0CF00400#FEFF9B401CFFFFFF
(1547753515.555315) can0 0CF00300#FF0029FF08FFFFFF
(1547753515.555884) can0 0CEFFF00#6406267DFFFFFFFF
(1547753515.556435) can0 18EFFF00#64100101C902057D
(1547753515.557034) can0 18FEDF00#8B601CFFFFFFFFFF
(1547753515.562811) can0 0DEF0647#0104FFFFFFFFFFF1
(1547753515.563485) can0 0DEF0603#0101FFFFFFFFFFF5
(1547753515.564685) can0 04EF0006#641510F07319BF0E
(1547753515.565260) can0 0CFFFE06#5C7F1D7F1DFFFFFF
(1547753515.565809) can0 0CF00400#FEFF9A461CFFFFFF
(1547753515.575312) can0 0CF00300#FF0026FF07FFFFFF
(1547753515.575883) can0 0CEFFF00#6406327DFFFFFFFF
(1547753515.576460) can0 18FEEF00#FFFFFF64FFFFFFFA
(1547753515.583261) can0 0DEF0603#0101FFFFFFFFFFF5
(1547753515.584459) can0 04EF0006#641511F07319A90E
(1547753515.585609) can0 0CF00400#FEFF9E3E1CFFFFFF
(1547753515.595287) can0 0CF00300#FF0023FF07FFFFFF
(1547753515.595857) can0 0CEFFF00#6406337DFFFFFFFF
(1547753515.603260) can0 0DEF0603#0101FFFFFFFFFFF5
(1547753515.604458) can0 04EF0006#641512F0D018A90E
(1547753515.605032) can0 0CFE4947#FFFFFFFFFFFFFFFF
(1547753515.605592) can0 0CF00400#F0FF9F3E1CFFFFFF
(1547753515.606182) can0 0CFFFF47#5DFFFFF3FFFFFFFF
(1547753515.606759) can0 18FFFB06#0005B2F8FFFFFFFF
(1547753515.607334) can0 0CFE4347#0000FFFF3FFFFFFF
(1547753515.607931) can0 0CFE4447#0000FFFF3FFFFFFF
(1547753515.608509) can0 0CFFFE06#5C531D531DFFFFFF
(1547753515.615285) can0 0CF00300#FF001EFF07FFFFFF
(1547753515.615856) can0 0CEFFF00#64062C7DFFFFFFFF
(1547753515.616434) can0 18FEF200#2100FFFFFFFFFFFF
(1547753515.623259) can0 0DEF0603#0101FFFFFFFFFFF5
(1547753515.624458) can0 04EF0006#641513F0CC18A90E
(1547753515.625383) can0 0CF00400#FEFF9C401CFFFFFF
(1547753515.635436) can0 0CF00300#FF0022FF07FFFFFF
(1547753515.636006) can0 0CEFFF00#6406297DFFFFFFFF
(1547753515.636583) can0 18EF0600#640E9D00FFFFFFFF
(1547753515.643259) can0 0DEF0603#0101FFFFFFFFFFF5
(1547753515.644432) can0 04EF0006#641514F07319A90E
(1547753515.645030) can0 18FEF147#FF0000FFFFFFFFFF
(1547753515.645582) can0 0CF00400#FEFF9B3A1CFFFFFF
(1547753515.646181) can0 18FFFB06#001BFFFFFFFFFFFF
(1547753515.646783) can0 18F00503#7DFFFFFFFFFFFFFF
(1547753515.655284) can0 0CF00300#FF0022FF07FFFFFF
(1547753515.655855) can0 0CEFFF00#64062B7DFFFFFFFF
(1547753515.656432) can0 18EFFF00#64100101C502057D
(1547753515.657006) can0 18FEF600#FF0044FF00FFFFFF
(1547753515.662808) can0 0DEF0647#0104FFFFFFFFFFF1
(1547753515.663432) can0 0DEF0603#0101FFFFFFFFFFF5
(1547753515.664605) can0 04EF0006#641515F0D018A90E
(1547753515.665282) can0 0CF00400#FEFF9C3C1CFFFFFF
(1547753515.675607) can0 18EFFA00#6401FF0000FFFFFF
(1547753515.676179) can0 0CEFFF00#64062B7DFFFFFFFF
(1547753515.676757) can0 0CF00300#FF0023FF07FFFFFF
(1547753515.683256) can0 0DEF0603#0101FFFFFFFFFFF5
(1547753515.684456) can0 04EF0006#641516F0CC18A90E
(1547753515.685029) can0 0CFE4947#FFFFFFFFFFFFFFFF
(1547753515.685606) can0 0CF00400#FEFF9C381CFFFFFF
(1547753515.686179) can0 0CFE4347#0000FFFF3FFFFFFF
(1547753515.686762) can0 18FE6847#3AFFFFFFFFFFFFFF
(1547753515.687331) can0 0CFE4447#0000FFFF3FFFFFFF
(1547753515.687930) can0 18FFFF06#73FFFFFFFFFFFFFF
(1547753515.695256) can0 0CF00300#FF0024FF08FFFFFF
(1547753515.695828) can0 0CEFFF00#64062B7DFFFFFFFF
(1547753515.703256) can0 0DEF0603#0101FFFFFFFFFFF5
(1547753515.704455) can0 04EF0006#641517F0CC18BF0E
(1547753515.705330) can0 0CF00400#FEFF9C2A1CFFFFFF
(1547753515.715330) can0 0CF00300#FF002EFF07FFFFFF
(1547753515.715878) can0 0CEFFF00#64062F7DFFFFFFFF
(1547753515.716480) can0 18FEF200#2300FFFFFFFFFFFF
(1547753515.723256) can0 0DEF0603#0101FFFFFFFFFFF5
(1547753515.724454) can0 04EF0006#641518F01119A90E
(1547753515.725029) can0 0CFFFF47#5EFFFFFFFFFFFFFF
(1547753515.725580) can0 0CF00400#FEFF9D201CFFFFFF
(1547753515.726153) can0 0CFFFE06#5C531D531DFFFFFF
(1547753515.726729) can0 18FEF147#FF0000FFFFFFFFFF
(1547753515.727330) can0 18FEFC47#FFFFFFFFFFFFFFFF
(1547753515.727929) can0 18EF0047#F220610FFFFFFFFF
(1547753515.728505) can0 18F00647#FFCFFFFFFFFFFFFF
(1547753515.729103) can0 1CFDDF47#FCFFFFFFFFFFFFFF
(1547753515.729705) can0 18FFFB06#0005ACF8FFFFFFFF
(1547753515.730305) can0 18F00503#7DFFFFFFFFFFFFFF
(1547753515.735305) can0 0CF00300#FF0024FF07FFFFFF
(1547753515.735903) can0 0CEFFF00#64063A7DFFFFFFFF
(1547753515.736454) can0 18EF0600#640EA700FFFFFFFF
(1547753515.743254) can0 0DEF0603#0101FFFFFFFFFFF5
(1547753515.744454) can0 04EF0006#641519F00B19A90E
(1547753515.745329) can0 0CF00400#F0FFA22A1CFFFFFF
(1547753515.755382) can0 0CF00300#FF0023FF07FFFFFF
(1547753515.755952) can0 0CEFFF00#64062E7DFFFFFFFF
(1547753515.756529) can0 18EFFF00#64100101C402047D
(1547753515.762804) can0 0DEF0647#0104FFFFFFFFFFF1
(1547753515.763404) can0 0DEF0603#0101FFFFFFFFFFF5
(1547753515.764578) can0 04EF0006#64151AF01119A90E
(1547753515.765553) can0 0CF00400#F0FF9D401CFFFFFF
(1547753515.775329) can0 0CF00300#FF001CFF07FFFFFF
(1547753515.775901) can0 0CEFFF00#64062B7DFFFFFFFF
(1547753515.776478) can0 18FEEE00#4A43FFFFFFFFFFFF
(1547753515.783278) can0 0DEF0603#0101FFFFFFFFFFF5
(1547753515.784453) can0 04EF0006#64151BF07319A90E
(1547753515.785303) can0 0CF00400#FEFF9C521CFFFFFF
(1547753515.795283) can0 0CF00300#FF0020FF07FFFFFF
(1547753515.795854) can0 0CEFFF00#6406227DFFFFFFFF
(1547753515.803255) can0 0DEF0603#0101FFFFFFFFFFF5
(1547753515.804453) can0 04EF0006#64151CF0D018A90E
(1547753515.805026) can0 0CFE4947#FFFFFFFFFFFFFFFF
(1547753515.805602) can0 0CF00400#FEFF98581CFFFFFF
(1547753515.806175) can0 0CFE4347#0000FFFF3FFFFFFF
(1547753515.806752) can0 18FEDF00#8B421CFFFFFFFFFF
(1547753515.807328) can0 0CFE4447#0000FFFF3FFFFFFF
(1547753515.807901) can0 0CFFFE06#5C531D531DFFFFFF
(1547753515.815327) can0 0CF00300#FF0020FF07FFFFFF
(1547753515.815900) can0 0CEFFF00#6406247DFFFFFFFF
(1547753515.816502) can0 18FEF200#1E00FFFFFFFFFFFF
(1547753515.823252) can0 0DEF0603#0101FFFFFFFFFFF5
(1547753515.824452) can0 04EF0006#64151DF0C618A90E
(1547753515.825302) can0 0CF00400#FEFF99581CFFFFFF
(1547753515.835280) can0 0CF00300#FF0023FF07FFFFFF
(1547753515.835825) can0 0CEFFF00#6406247DFFFFFFFF
(1547753515.836401) can0 18EF0600#640EB100FFFFFFFF
(1547753515.843252) can0 0DEF0603#0101FFFFFFFFFFF5
(1547753515.844450) can0 04EF0006#64151EF0C618A90E
(1547753515.845024) can0 18FEF147#FF0000FFFFFFFFFF
(1547753515.845576) can0 0CF00400#FEFF99421CFFFFFF
(1547753515.846174) can0 18FFFB06#0005A4F8FFFFFFFF
(1547753515.846776) can0 18F00503#7DFFFFFFFFFFFFFF
(1547753515.853076) can0 1CFFFF17#22FFFF3CFFFFFFFF
(1547753515.855376) can0 0CF00300#FF0023FF07FFFFFF
(1547753515.855949) can0 0CEFFF00#64062C7DFFFFFFFF
(1547753515.856525) can0 18EFFF00#64100101C502057D
(1547753515.857098) can0 18FEF700#FFFFFFFFFFFF1901
(1547753515.862801) can0 0DEF0647#0104FFFFFFFFFFF1
(1547753515.863426) can0 0DEF0603#0101FFFFFFFFFFF5
(1547753515.864599) can0 04EF0006#64151FF07319A90E
(1547753515.865325) can0 0CF00400#FEFF9C361CFFFFFF
(1547753515.875300) can0 0CF00300#FF0024FF07FFFFFF
(1547753515.875873) can0 0CEFFF00#64062D7DFFFFFFFF
(1547753515.883250) can0 0DEF0603#0101FFFFFFFFFFF5
(1547753515.884449) can0 04EF0006#641510F00719A90E
(1547753515.885023) can0 0CFE4947#FFFFFFFFFFFFFFFF
(1547753515.885599) can0 0CF00400#FEFF9D2C1CFFFFFF
(1547753515.886173) can0 0CFE4347#0000FFFF3FFFFFFF
(1547753515.886775) can0 0CFE4447#0000FFFF3FFFFFFF
(1547753515.895524) can0 0CF00300#FF0025FF07FFFFFF
(1547753515.896097) can0 0CEFFF00#64062F7DFFFFFFFF
(1547753515.903249) can0 0DEF0603#0101FFFFFFFFFFF5
(1547753515.904449) can0 04EF0006#641511F01119A90E
(1547753515.905299) can0 0CF00400#FEFF9D1A1CFFFFFF
(1547753515.915299) can0 0CF00300#FF0025FF07FFFFFF
(1547753515.915872) can0 0CEFFF00#6406347DFFFFFFFF
(1547753515.916449) can0 18FEF200#2400FFFFFFFFFFFF
(1547753515.923274) can0 0DEF0603#0101FFFFFFFFFFF5
(1547753515.924498) can0 04EF0006#641512F00419A90E
(1547753515.925046) can0 0CFFFE06#5C531D531DFFFFFF
(1547753515.925623) can0 0CF00400#F0FF9F141CFFFFFF
(1547753515.926223) can0 18FEF147#FF0000FFFFFFFFFF
(1547753515.926796) can0 18F00503#7DFFFFFFFFFFFFFF
(1547753515.935323) can0 0CF00300#FF0025FF07FFFFFF
(1547753515.935896) can0 0CEFFF00#6406317DFFFFFFFF
(1547753515.936472) can0 18EF0600#640EBB00FFFFFFFF
(1547753515.943274) can0 0DEF0603#0101FFFFFFFFFFF5
(1547753515.944497) can0 04EF0006#641513F00919A90E
(1547753515.945472) can0 0CF00400#F0FF9E1A1CFFFFFF
(1547753515.955273) can0 0CF00300#FF0024FF07FFFFFF
(1547753515.955845) can0 0CEFFF00#6406307DFFFFFFFF
(1547753515.956397) can0 18EFFF00#64100101C202057D
(1547753515.956995) can0 18FED500#FFFFFDFFFFFFFFFF
(1547753515.962821) can0 0DEF0647#0104FFFFFFFFFFF1
(1547753515.963422) can0 0DEF0603#0101FFFFFFFFFFF5
(1547753515.964647) can0 04EF0006#641514F00419A90E
(1547753515.965222) can0 18FFFB06#0005B2F8FFFFFFFF
(1547753515.965795) can0 0CF00400#F0FF9D181CFFFFFF
(1547753515.975275) can0 0CF00300#FF0025FF07FFFFFF
(1547753515.975845) can0 0CEFFF00#6406317DFFFFFFFF
(1547753515.983272) can0 0DEF0603#0101FFFFFFFFFFF5
(1547753515.984521) can0 04EF0006#641515F00419A90E
(1547753515.985572) can0 0CF00400#F0FF9E161CFFFFFF
(1547753515.995297) can0 0CF00300#FF0025FF07FFFFFF
(1547753515.995869) can0 0CEFFF00#6406317DFFFFFFFF
(1547753515.996446) can0 18FDB300#FFFF7227FFFFFFFF
(1547753516.003271) can0 0DEF0603#0101FFFFFFFFFFF5
(1547753516.004496) can0 04EF0006#641516F00919A90E
(1547753516.005069) can0 0CFE4947#FFFFFFFFFFFFFFFF
(1547753516.005646) can0 0CF00400#F0FF9E181CFFFFFF
(1547753516.006220) can0 0CFE4347#0000FFFF3FFFFFFF
(1547753516.006819) can0 0CFE4447#0000FFFF3FFFFFFF
(1547753516.007396) can0 0CFFFE06#5C531D531DFFFFFF
(1547753516.015296) can0 0CF00300#FF0025FF07FFFFFF
(1547753516.015869) can0 0CEFFF00#6406317DFFFFFFFF
(1547753516.016446) can0 18FEF200#2300FFFFFFFFFFFF
(1547753516.023271) can0 0DEF0603#0101FFFFFFFFFFF5
(1547753516.024446) can0 0C000006#30FFFFFFF8FFFFFF
(1547753516.025018) can0 04EF0006#641517F00419A90E
(1547753516.025570) can0 0CF00400#F0FF9E161CFFFFFF
(1547753516.035370) can0 0CF00300#FF0025FF07FFFFFF
(1547753516.035950) can0 0CEFFF00#6406317DFFFFFFFF
(1547753516.036519) can0 18EF0600#640EC500FFFFFFFF
(1547753516.043270) can0 0DEF0603#0101FFFFFFFFFFF5
(1547753516.044494) can0 04EF0006#641518F00919A90E
(1547753516.045068) can0 18FEF147#FF0000FFFFFFFFFF
(1547753516.045620) can0 0CF00400#F0FF9E0C1CFFFFFF
(1547753516.046219) can0 18F00503#7DFFFFFFFFFFFFFF
(1547753516.055244) can0 0CF00300#FF0025FF07FFFFFF
(1547753516.055817) can0 0CEFFF00#6406327DFFFFFFFF
(1547753516.056419) can0 18EFFF00#64100101C102057D
(1547753516.056992) can0 18FEDF00#8A201CFFFFFFFFFF
(1547753516.062819) can0 0DEF0647#0104FFFFFFFFFFF1
(1547753516.063494) can0 0DEF0603#0101FFFFFFFFFFF5
(1547753516.064717) can0 04EF0006#641519F00219A90E
(1547753516.065444) can0 0CF00400#F0FF9E141CFFFFFF
(1547753516.075394) can0 0CF00300#FF0025FF07FFFFFF
(1547753516.075992) can0 0CEFFF00#6406317DFFFFFFFF
(1547753516.076569) can0 18FEEF00#FFFFFF65FFFFFFFA
(1547753516.083269) can0 0DEF0603#0101FFFFFFFFFFF5
(1547753516.084493) can0 04EF0006#64151AF00919A90E
(1547753516.085067) can0 0CFE4947#FFFFFFFFFFFFFFFF
(1547753516.085644) can0 0CF00400#F0FF9E1E1CFFFFFF
(1547753516.086219) can0 0CFFFF47#5DFFFFF3FFFFFFFF
(1547753516.086792) can0 18FFFB06#0005B5F8FFFFFFFF
(1547753516.087368) can0 0CFE4347#0000FFFF3FFFFFFF
(1547753516.087991) can0 0CFE4447#0000FFFF3FFFFFFF
(1547753516.095274) can0 0CF00300#FF0024FF07FFFFFF
(1547753516.095869) can0 0CEFFF00#6406307DFFFFFFFF
(1547753516.103273) can0 0DEF0603#0101FFFFFFFFFFF5
(1547753516.104496) can0 04EF0006#64151BF00419A90E
(1547753516.105345) can0 0CF00400#F0FF9D1C1CFFFFFF
(1547753516.115297) can0 0CF00300#FF0024FF07FFFFFF
(1547753516.115868) can0 0CEFFF00#6406307DFFFFFFFF
(1547753516.116469) can0 18FEF200#2300FFFFFFFFFFFF
(1547753516.123270) can0 0DEF0603#0101FFFFFFFFFFF5
(1547753516.124493) can0 04EF0006#64151CF00419A90E
(1547753516.125066) can0 0CFFFE06#5C531D531DFFFFFF
(1547753516.125618) can0 0CF00400#F0FF9D201CFFFFFF
(1547753516.126217) can0 18FEF147#FF0000FFFFFFFFFF
(1547753516.126791) can0 18F00503#7DFFFFFFFFFFFFFF
(1547753516.135268) can0 0CF00300#FF0024FF07FFFFFF
(1547753516.135839) can0 0CEFFF00#64062F7DFFFFFFFF
(1547753516.136417) can0 18EF0600#640ECF00FFFFFFFF
(1547753516.143242) can0 0DEF0603#0101FFFFFFFFFFF5
(1547753516.144465) can0 04EF0006#64151DF00B19A90E
(1547753516.145317) can0 0CF00400#FEFF9D261CFFFFFF
(1547753516.155417) can0 0CF00300#FF0024FF07FFFFFF
(1547753516.155989) can0 0CEFFF00#64062D7DFFFFFFFF
(1547753516.156541) can0 18EFFF00#64100101C302057D
(1547753516.157139) can0 18FEF600#FF0043FF00FFFFFF
(1547753516.162816) can0 0DEF0647#0104FFFFFFFFFFF1
(1547753516.163416) can0 0DEF0603#0101FFFFFFFFFFF5
(1547753516.164590) can0 04EF0006#64151EF00B19A90E
(1547753516.165164) can0 18FFFF06#73FFFFFFFFFFFFFF
(1547753516.165715) can0 0CF00400#FEFF9D201CFFFFFF
(1547753516.175293) can0 0CF00300#FF0026FF07FFFFFF
(1547753516.175864) can0 0CEFFF00#6406317DFFFFFFFF
(1547753516.183266) can0 0DEF0603#0101FFFFFFFFFFF5
(1547753516.184464) can0 04EF0006#64151FF00B19A90E
(1547753516.185315) can0 0CF00400#F0FF9E1C1CFFFFFF
(1547753516.195291) can0 0CF00300#FF0025FF07FFFFFF
(1547753516.195863) can0 0CEFFF00#6406317DFFFFFFFF
(1547753516.203265) can0 0DEF0603#0101FFFFFFFFFFF5
(1547753516.204490) can0 04EF0006#641510F00419A90E
(1547753516.205063) can0 0CFE4947#FFFFFFFFFFFFFFFF
(1547753516.205640) can0 0CF00400#F0FF9E221CFFFFFF
(1547753516.206215) can0 0CFE4347#0000FFFF3FFFFFFF
(1547753516.206787) can0 18FFFA00#022C0000180C0081
(1547753516.207365) can0 0CFE4447#0000FFFF3FFFFFFF
(1547753516.207962) can0 1CFDDF47#FCFFFFFFFFFFFFFF
(1547753516.208514) can0 0CFFFE06#5C531D531DFFFFFF
(1547753516.209112) can0 18FFFB06#0005B5F8FFFFFFFF
(1547753516.215365) can0 0CF00300#FF0024FF07FFFFFF
(1547753516.215937) can0 0CEFFF00#64062F7DFFFFFFFF
(1547753516.216514) can0 18FEF200#2300FFFFFFFFFFFF
(1547753516.223265) can0 0DEF0603#0101FFFFFFFFFFF5
(1547753516.224463) can0 04EF0006#641511F00B19A90E
(1547753516.225314) can0 0CF00400#F0FF9D221CFFFFFF
(1547753516.235291) can0 0CF00300#FF0024FF07FFFFFF
(1547753516.235836) can0 0CEFFF00#64062F7DFFFFFFFF
(1547753516.236414) can0 18EF0600#640ED900FFFFFFFF
(1547753516.237012) can0 18FEF500#C8FFFFFFFF3EFFFF
(1547753516.243264) can0 0DEF0603#0101FFFFFFFFFFF5
(1547753516.244438) can0 04EF0006#641512F00B19A90E
(1547753516.245012) can0 18FEF147#FF0000FFFFFFFFFF
(1547753516.245588) can0 0CF00400#F0FF9D1C1CFFFFFF
(1547753516.246162) can0 18F00647#FFCFFFFFFFFFFFFF
(1547753516.246764) can0 18F00503#7DFFFFFFFFFFFFFF
(1547753516.255365) can0 0CF00300#FF0024FF07FFFFFF
(1547753516.255937) can0 0CEFFF00#6406317DFFFFFFFF
(1547753516.256513) can0 18EFFF00#64100101C302057D
(1547753516.262814) can0 0DEF0647#0104FFFFFFFFFFF1
(1547753516.263438) can0 0DEF0603#0101FFFFFFFFFFF5
(1547753516.264638) can0 04EF0006#641513F00419A90E
(1547753516.265338) can0 0CF00400#F0FF9E201CFFFFFF
(1547753516.275265) can0 0CF00300#FF0024FF07FFFFFF
(1547753516.275835) can0 0CEFFF00#64062F7DFFFFFFFF
(1547753516.276387) can0 18FE6900#98256E26FFFF60FE
(1547753516.283264) can0 0DEF0603#0101FFFFFFFFFFF5
(1547753516.284462) can0 04EF0006#641514F00B19A90E
(1547753516.285036) can0 0CFE4947#FFFFFFFFFFFFFFFF
(1547753516.285588) can0 0CF00400#F0FF9D221CFFFFFF
(1547753516.286212) can0 0CFE4347#0000FFFF3FFFFFFF
(1547753516.286786) can0 0CFE4447#0000FFFF3FFFFFFF
(1547753516.295339) can0 0CF00300#FF0025FF07FFFFFF
(1547753516.295910) can0 0CEFFF00#64062F7DFFFFFFFF
(1547753516.303264) can0 0DEF0603#0101FFFFFFFFFFF5
(1547753516.304462) can0 04EF0006#641515F00B19A90E
(1547753516.305312) can0 0CF00400#F0FF9D181CFFFFFF
(1547753516.305910) can0 18FEDF00#8B201CFFFFFFFFFF
(1547753516.315339) can0 0CF00300#FF0025FF07FFFFFF
(1547753516.315910) can0 0CEFFF00#6406317DFFFFFFFF
(1547753516.316487) can0 18FEF200#2300FFFFFFFFFFFF
(1547753516.323262) can0 0DEF0603#0101FFFFFFFFFFF5
(1547753516.324486) can0 04EF0006#641516F00419A90E
(1547753516.325059) can0 0CFFFE06#5C531D531DFFFFFF
(1547753516.325611) can0 0CF00400#F0FF9E1A1CFFFFFF
(1547753516.326211) can0 18FEF147#FF0000FFFFFFFFFF
(1547753516.326784) can0 18FFFB06#0005AFF8FFFFFFFF
(1547753516.327386) can0 18F00503#7DFFFFFFFFFFFFFF
(1547753516.335336) can0 0CF00300#FF0025FF07FFFFFF
(1547753516.335909) can0 0CEFFF00#6406317DFFFFFFFF
(1547753516.336485) can0 18EF0600#640EE300FFFFFFFF
(1547753516.343261) can0 0DEF0603#0101FFFFFFFFFFF5
(1547753516.344510) can0 04EF0006#641517F00419A90E
(1547753516.345460) can0 0CF00400#F0FF9E201CFFFFFF
(1547753516.355285) can0 0CF00300#FF0024FF07FFFFFF
(1547753516.355858) can0 0CEFFF00#64062F7DFFFFFFFF
(1547753516.356409) can0 18EFFF00#64100101C302057D
(1547753516.362810) can0 0DEF0647#0104FFFFFFFFFFF1
(1547753516.363410) can0 0DEF0603#0101FFFFFFFFFFF5
(1547753516.364583) can0 04EF0006#641518F00B19A90E
(1547753516.365334) can0 0CF00400#F0FF9D201CFFFFFF
(1547753516.375261) can0 0CF00300#FF0025FF07FFFFFF
(1547753516.375832) can0 0CEFFF00#64062F7DFFFFFFFF
(1547753516.383260) can0 0DEF0603#0101FFFFFFFFFFF5
(1547753516.384459) can0 04EF0006#641519F00B19A90E
(1547753516.385610) can0 0CF00400#F0FF9D201CFFFFFF
(1547753516.395285) can0 0CF00300#FF0024FF07FFFFFF
(1547753516.395857) can0 0CEFFF00#64062F7DFFFFFFFF
(1547753516.396434) can0 18FD7C00#F880F1F000CF03FC
(1547753516.403260) can0 0DEF0603#0101FFFFFFFFFFF5
(1547753516.404458) can0 04EF0006#64151AF00B19A90E
(1547753516.405032) can0 0CFE4947#FFFFFFFFFFFFFFFF
(1547753516.405583) can0 0CF00400#F0FF9D241CFFFFFF
(1547753516.406208) can0 0CFE4347#0000FFFF3FFFFFFF
(1547753516.406781) can0 0CFE4447#0000FFFF3FFFFFFF
(1547753516.407358) can0 0CFFFE06#5C531D531DFFFFFF
(1547753516.415283) can0 0CF00300#FF0024FF07FFFFFF
(1547753516.415856) can0 0CEFFF00#64062F7DFFFFFFFF
(1547753516.416433) can0 18FEF200#2300FFFFFFFFFFFF
(1547753516.423261) can0 0DEF0603#0101FFFFFFFFFFF5
(1547753516.424458) can0 04EF0006#64151BF00B19A90E
(1547753516.425384) can0 0CF00400#FEFF9D221CFFFFFF
(1547753516.435359) can0 0CF00300#FF0026FF07FFFFFF
(1547753516.435931) can0 0CEFFF00#64062F7DFFFFFFFF
(1547753516.436507) can0 18EF0600#640EED00FFFFFFFF
(1547753516.443258) can0 0DEF0603#0101FFFFFFFFFFF5
(1547753516.444456) can0 04EF0006#64151CF00B19A90E
(1547753516.445030) can0 18FEF147#FF0000FFFFFFFFFF
(1547753516.445582) can0 0CF00400#F0FF9D181CFFFFFF
(1547753516.446155) can0 18FFFB06#0005AFF8FFFFFFFF
(1547753516.446757) can0 18F00503#7DFFFFFFFFFFFFFF
(1547753516.455257) can0 0CF00300#FF0025FF07FFFFFF
(1547753516.455829) can0 0CEFFF00#6406317DFFFFFFFF
(1547753516.456406) can0 18EFFF00#64100101C302057D
(1547753516.462831) can0 0DEF0647#0104FFFFFFFFFFF1
(1547753516.463432) can0 0DEF0603#0101FFFFFFFFFFF5
(1547753516.464656) can0 04EF0006#64151DF00419A90E
(1547753516.465431) can0 0CF00400#F0FF9E201CFFFFFF
(1547753516.475407) can0 0CF00300#FF0024FF07FFFFFF
(1547753516.475979) can0 0CEFFF00#64062F7DFFFFFFFF
(1547753516.483256) can0 0DEF0603#0101FFFFFFFFFFF5
(1547753516.484455) can0 04EF0006#64151EF00B19A90E
(1547753516.485029) can0 0CFE4947#FFFFFFFFFFFFFFFF
(1547753516.485580) can0 0CF00400#F0FF9D261CFFFFFF
(1547753516.486205) can0 0CFE4347#0000FFFF3FFFFFFF
(1547753516.486554) can0 18EA0006#E3FE00
(1547753516.487152) can0 0CFE4447#0000FFFF3FFFFFFF
(1547753516.495256) can0 0CF00300#FF0024FF07FFFFFF
(1547753516.495853) can0 0CEFFF00#64062E7DFFFFFFFF
(1547753516.496406) can0 18FDB300#FFFF6627FFFFFFFF
(1547753516.497003) can0 1CEFFF00#64070000FFFFFFFF
(1547753516.503256) can0 0DEF0603#0101FFFFFFFFFFF5
(1547753516.504454) can0 04EF0006#64151FF00B19A90E
(1547753516.505355) can0 0CF00400#FEFF9D221CFFFFFF
(1547753516.510655) can0 1CEC0600#1022000505E3FE00
(1547753516.513130) can0 1CFFFF17#22FFFF3CFFFFFFFF
(1547753516.515305) can0 0CF00300#FF0025FF07FFFFFF
(1547753516.515878) can0 0CEFFF00#64062F7DFFFFFFFF
(1547753516.516455) can0 18FEF200#2300FFFFFFFFFFFF
(1547753516.517028) can0 1CEC0006#110501FFFFE3FE00
(1547753516.522354) can0 18EAFF06#E5FE00
(1547753516.523330) can0 0DEF0603#0101FFFFFFFFFFF5
(1547753516.524529) can0 04EF0006#641510F00B19A90E
(1547753516.525077) can0 0CFFFE06#5C531D531DFFFFFF
(1547753516.525655) can0 0CF00400#F0FF9D201CFFFFFF
(1547753516.526230) can0 18FEF147#FF0000FFFFFFFFFF
(1547753516.526802) can0 18FEE706#C80A0000FFFFFFFF
(1547753516.527405) can0 18F00503#7DFFFFFFFFFFFFFF
(1547753516.535280) can0 0CF00300#FF0024FF07FFFFFF
(1547753516.535852) can0 0CEFFF00#64062F7DFFFFFFFF
(1547753516.536429) can0 18EF0600#640EF700FFFFFFFF
(1547753516.543255) can0 0DEF0603#0101FFFFFFFFFFF5
(1547753516.544479) can0 04EF0006#641511F00B19A90E
(1547753516.545303) can0 0CF00400#F0FF9D221CFFFFFF
(1547753516.555380) can0 0CF00300#FF0024FF07FFFFFF
(1547753516.555951) can0 0CEFFF00#64062F7DFFFFFFFF
(1547753516.556503) can0 18EFFF00#64100101C402057D
(1547753516.557076) can0 18FEDF00#8B221CFFFFFFFFFF
(1547753516.558203) can0 18FEE500#CB0A0000FFFFFFFF
(1547753516.562804) can0 0DEF0647#0104FFFFFFFFFFF1
(1547753516.563479) can0 0DEF0603#0101FFFFFFFFFFF5
(1547753516.564680) can0 04EF0006#641512F00B19A90E
(1547753516.565253) can0 18FFFB06#0005AFF8FFFFFFFF
(1547753516.565826) can0 0CF00400#FEFF9D1C1CFFFFFF
(1547753516.575333) can0 0CF00300#FF0025FF07FFFFFF
(1547753516.575902) can0 0CEFFF00#6406337DFFFFFFFF
(1547753516.576479) can0 18FEEF00#FFFFFF66FFFFFFFA
(1547753516.583278) can0 0DEF0603#0101FFFFFFFFFFF5
(1547753516.584527) can0 04EF0006#641513F00419A90E
(1547753516.585328) can0 0CF00400#F0FF9E181CFFFFFF
(1547753516.595253) can0 0CF00300#FF0025FF07FFFFFF
(1547753516.595825) can0 0CEFFF00#6406317DFFFFFFFF
(1547753516.603277) can0 0DEF0603#0101FFFFFFFFFFF5
(1547753516.604502) can0 04EF0006#641514F00419A90E
(1547753516.605075) can0 0CFE4947#FFFFFFFFFFFFFFFF
(1547753516.605652) can0 0CF00400#F0FF9E201CFFFFFF
(1547753516.606227) can0 0CFFFF47#5DFFFFF3FFFFFFFF
(1547753516.606826) can0 0CFE4347#0000FFFF3FFFFFFF
(1547753516.607427) can0 0CFE4447#0000FFFF3FFFFFFF
(1547753516.608000) can0 0CFFFE06#5C531D531DFFFFFF
(1547753516.611027) can0 1CEB0600#01201CDD6842DCA0
(1547753516.615352) can0 0CF00300#FF0024FF07FFFFFF
(1547753516.615925) can0 0CEFFF00#64062F7DFFFFFFFF
(1547753516.616502) can0 18FEF200#2300FFFFFFFFFFFF
(1547753516.623256) can0 0DEF0603#0101FFFFFFFFFFF5
(1547753516.624453) can0 04EF0006#641515F00B19A90E
(1547753516.625327) can0 0CF00400#F0FF9D221CFFFFFF
(1547753516.635277) can0 0CF00300#FF0024FF07FFFFFF
(1547753516.635849) can0 0CEFFF00#64062F7DFFFFFFFF
(1547753516.636426) can0 18EF0600#640E0100FFFFFFFF
(1547753516.643283) can0 0DEF0603#0101FFFFFFFFFFF5
(1547753516.644451) can0 04EF0006#641516F00B19A90E
(1547753516.645024) can0 18FEF147#FF0000FFFFFFFFFF
(1547753516.645600) can0 0CF00400#F0FF9D1E1CFFFFFF
(1547753516.646201) can0 18FFFB06#001BFFFFFFFFFFFF
(1547753516.646799) can0 18F00503#7DFFFFFFFFFFFFFF
(1547753516.655351) can0 0CF00300#FF0024FF07FFFFFF
(1547753516.655948) can0 0CEFFF00#6406317DFFFFFFFF
(1547753516.656525) can0 18EFFF00#64100101C302057D
(1547753516.657098) can0 18FEF600#FF0043FF00FFFFFF
(1547753516.658200) can0 1CEB0600#020FD58D20E37A31
(1547753516.658748) can0 1CECFF00#20220005FFE3FE00
(1547753516.662825) can0 0DEF0647#0104FFFFFFFFFFF1
(1547753516.663450) can0 0DEF0603#0101FFFFFFFFFFF5
(1547753516.664650) can0 04EF0006#641517F00419A90E
(1547753516.665350) can0 0CF00400#F0FF9E201CFFFFFF
(1547753516.675251) can0 18EFFA00#6401FF0000FFFFFF
(1547753516.675822) can0 0CEFFF00#64062F7DFFFFFFFF
(1547753516.676400) can0 0CF00300#FF0024FF07FFFFFF
(1547753516.683275) can0 0DEF0603#0101FFFFFFFFFFF5
(1547753516.684448) can0 04EF0006#641518F00B19A90E
(1547753516.685049) can0 0CFE4947#FFFFFFFFFFFFFFFF
(1547753516.685600) can0 0CF00400#F0FF9D241CFFFFFF
(1547753516.686199) can0 0CFE4347#0000FFFF3FFFFFFF
(1547753516.686773) can0 18FE6847#3AFFFFFFFFFFFFFF
(1547753516.687350) can0 0CFE4447#0000FFFF3FFFFFFF
(1547753516.687923) can0 18FFFF06#73FFFFFFFFFFFFFF
(1547753516.688524) can0 18FFFB06#0005B2F8FFFFFFFF
(1547753516.695374) can0 0CF00300#FF0024FF07FFFFFF
(1547753516.695947) can0 0CEFFF00#64062F7DFFFFFFFF
(1547753516.703274) can0 0DEF0603#0101FFFFFFFFFFF5
(1547753516.704474) can0 04EF0006#641519F00B19A90E
(1547753516.705324) can0 0CF00400#F0FF9D1C1CFFFFFF
(1547753516.710424) can0 1CEB0600#03F1C044FFFF0401
(1547753516.710996) can0 1CEBFF00#01201CEC6842EAA0
(1547753516.715299) can0 0CF00300#FF0025FF07FFFFFF
(1547753516.715872) can0 0CEFFF00#6406317DFFFFFFFF
(1547753516.716474) can0 18FEF200#2300FFFFFFFFFFFF
(1547753516.723274) can0 0DEF0603#0101FFFFFFFFFFF5
(1547753516.724498) can0 04EF0006#64151AF00419A90E
(1547753516.725071) can0 0CFFFF47#5EFFFFFFFFFFFFFF
(1547753516.725648) can0 0CF00400#F0FF9E1C1CFFFFFF
(1547753516.726197) can0 0CFFFE06#5C531D531DFFFFFF
(1547753516.726796) can0 18FEF147#FF0000FFFFFFFFFF
(1547753516.727398) can0 18FEFC47#FFFFFFFFFFFFFFFF
(1547753516.727972) can0 18EF0047#F220610FFFFFFFFF
(1547753516.728573) can0 18F00647#FFCFFFFFFFFFFFFF
(1547753516.729198) can0 1CFDDF47#FCFFFFFFFFFFFFFF
(1547753516.729771) can0 18F00503#7DFFFFFFFFFFFFFF
(1547753516.735348) can0 0CF00300#FF0024FF07FFFFFF
(1547753516.735921) can0 0CEFFF00#6406317DFFFFFFFF
(1547753516.736498) can0 18EF0600#640E0B00FFFFFFFF
(1547753516.743273) can0 0DEF0603#0101FFFFFFFFFFF5
(1547753516.744522) can0 04EF0006#64151BF00419A90E
(1547753516.745473) can0 0CF00400#F0FF9E241CFFFFFF
(1547753516.755273) can0 0CF00300#FF0024FF07FFFFFF
(1547753516.755845) can0 0CEFFF00#64062F7DFFFFFFFF
(1547753516.756397) can0 18EFFF00#64100101C402057D
(1547753516.757722) can0 1CEB0600#04204E0001FAC9FA
(1547753516.758297) can0 1CEBFF00#020FE38D20F17A31
(1547753516.762822) can0 0DEF0647#0104FFFFFFFFFFF1
(1547753516.763422) can0 0DEF0603#0101FFFFFFFFFFF5
(1547753516.764597) can0 04EF0006#64151CF00B19A90E
(1547753516.765297) can0 0CF00400#FEFF9D241CFFFFFF
(1547753516.775297) can0 0CF00300#FF0025FF07FFFFFF
(1547753516.775870) can0 0CEFFF00#64062E7DFFFFFFFF
(1547753516.776447) can0 18FEEE00#4A43FFFFFFFFFFFF
(1547753516.783272) can0 0DEF0603#0101FFFFFFFFFFF5
(1547753516.784472) can0 04EF0006#64151DF00B19A90E
(1547753516.785621) can0 0CF00400#FEFF9D221CFFFFFF
(1547753516.795272) can0 0CF00300#FF0024FF07FFFFFF
(1547753516.795844) can0 0CEFFF00#64062F7DFFFFFFFF
(1547753516.803271) can0 0DEF0603#0101FFFFFFFFFFF5
(1547753516.804444) can0 04EF0006#64151EF00B19A90E
(1547753516.805019) can0 0CFE4947#FFFFFFFFFFFFFFFF
(1547753516.805596) can0 0CF00400#FEFF9D241CFFFFFF
(1547753516.806195) can0 0CFE4347#0000FFFF3FFFFFFF
(1547753516.806744) can0 18FEDF00#8B221CFFFFFFFFFF
(1547753516.807320) can0 0CFE4447#0000FFFF3FFFFFFF
(1547753516.807894) can0 18FFFB06#0005AFF8FFFFFFFF
(1547753516.808470) can0 0CFFFE06#5C531D531DFFFFFF
(1547753516.810595) can0 1CEB0600#05C05D0000FFFFFF
(1547753516.811194) can0 1CEBFF00#03FAC044FFFF0401
(1547753516.815296) can0 0CF00300#FF0024FF07FFFFFF
(1547753516.815868) can0 0CEFFF00#64062E7DFFFFFFFF
(1547753516.816446) can0 18FEF200#2300FFFFFFFFFFFF
(1547753516.821120) can0 1CEC0006#13220005FFE3FE00
(1547753516.823320) can0 0DEF0603#0101FFFFFFFFFFF5
(1547753516.824545) can0 04EF0006#64151FF00B19A90E
(1547753516.825370) can0 0CF00400#FEFF9D221CFFFFFF
(1547753516.835345) can0 0CF00300#FF0025FF07FFFFFF
(1547753516.835918) can0 0CEFFF00#6406307DFFFFFFFF
(1547753516.836470) can0 18EF0600#640E1500FFFFFFFF
(1547753516.843245) can0 0DEF0603#0101FFFFFFFFFFF5
(1547753516.844443) can0 04EF0006#641510F00B19A90E
(1547753516.845018) can0 18FEF147#FF0000FFFFFFFFFF
(1547753516.845569) can0 0CF00400#F0FF9E181CFFFFFF
(1547753516.846195) can0 18F00503#7DFFFFFFFFFFFFFF
(1547753516.855294) can0 0CF00300#FF0025FF07FFFFFF
(1547753516.855892) can0 0CEFFF00#6406317DFFFFFFFF
(1547753516.856443) can0 18EFFF00#64100101C302057D
(1547753516.857017) can0 18FEF700#FFFFFFFFFFFF1901
(1547753516.858119) can0 1CEBFF00#04204E0001FAC9FA
(1547753516.862819) can0 0DEF0647#0104FFFFFFFFFFF1
(1547753516.863419) can0 0DEF0603#0101FFFFFFFFFFF5
(1547753516.864643) can0 04EF0006#641511F00419A90E
(1547753516.865444) can0 0CF00400#F0FF9E201CFFFFFF
(1547753516.875419) can0 0CF00300#FF0024FF07FFFFFF
(1547753516.875966) can0 0CEFFF00#64062F7DFFFFFFFF
(1547753516.883244) can0 0DEF0603#0101FFFFFFFFFFF5
(1547753516.884442) can0 04EF0006#641512F00B19A90E
(1547753516.885017) can0 0CFE4947#FFFFFFFFFFFFFFFF
(1547753516.885593) can0 0CF00400#F0FF9D281CFFFFFF
(1547753516.886193) can0 0CFE4347#0000FFFF3FFFFFFF
(1547753516.886766) can0 0CFE4447#0000FFFF3FFFFFFF
(1547753516.895269) can0 0CF00300#FF0024FF07FFFFFF
(1547753516.895841) can0 0CEFFF00#64062E7DFFFFFFFF
(1547753516.903244) can0 0DEF0603#0101FFFFFFFFFFF5
(1547753516.904442) can0 04EF0006#641513F01119A90E
(1547753516.905317) can0 0CF00400#FEFF9D221CFFFFFF
(1547753516.910567) can0 1CEBFF00#05C05D0000FFFFFF
(1547753516.915293) can0 0CF00300#FF0025FF07FFFFFF
(1547753516.915865) can0 0CEFFF00#64062F7DFFFFFFFF
(1547753516.916442) can0 18FEF200#2300FFFFFFFFFFFF
(1547753516.923242) can0 0DEF0603#0101FFFFFFFFFFF5
(1547753516.924441) can0 04EF0006#641514F00B19A90E
(1547753516.925015) can0 0CFFFE06#5C531D531DFFFFFF
(1547753516.925566) can0 0CF00400#F0FF9D201CFFFFFF
(1547753516.926140) can0 18FEF147#FF0000FFFFFFFFFF
(1547753516.926742) can0 18FFFB06#000587F8FFFFFFFF
(1547753516.927342) can0 18F00503#7DFFFFFFFFFFFFFF
(1547753516.935267) can0 0CF00300#FF0024FF07FFFFFF
(1547753516.935840) can0 0CEFFF00#64062F7DFFFFFFFF
(1547753516.936416) can0 18EF0600#640E1F00FFFFFFFF
(1547753516.943242) can0 0DEF0603#0101FFFFFFFFFFF5
(1547753516.944440) can0 04EF0006#641515F00B19A90E
(1547753516.945316) can0 0CF00400#F0FF9D221CFFFFFF
(1547753516.955316) can0 0CF00300#FF0024FF07FFFFFF
(1547753516.955889) can0 0CEFFF00#64062F7DFFFFFFFF
(1547753516.956465) can0 18EFFF00#64100101C402057D
(1547753516.957040) can0 18FED500#FFFFFDFFFFFFFFFF
(1547753516.962791) can0 0DEF0647#0104FFFFFFFFFFF1
(1547753516.963391) can0 0DEF0603#0101FFFFFFFFFFF5
(1547753516.964565) can0 04EF0006#641516F00B19A90E
(1547753516.965466) can0 0CF00400#F0FF9D181CFFFFFF
(1547753516.975316) can0 0CF00300#FF0025FF07FFFFFF
(1547753516.975889) can0 0CEFFF00#6406317DFFFFFFFF
(1547753516.983271) can0 0DEF0603#0101FFFFFFFFFFF5
(1547753516.984493) can0 04EF0006#641517F00419A90E
(1547753516.985317) can0 0CF00400#F0FF9E141CFFFFFF
(1547753516.995270) can0 0CF00300#FF0025FF07FFFFFF
(1547753516.995840) can0 0CEFFF00#6406327DFFFFFFFF
(1547753516.996416) can0 18FDB300#FFFF6627FFFFFFFF
(1547753517.003266) can0 0DEF0603#0101FFFFFFFFFFF5
(1547753517.004490) can0 04EF0006#641518F00919A90E
(1547753517.005063) can0 0CFE4947#FFFFFFFFFFFFFFFF
(1547753517.005615) can0 0CF00400#F0FF9E1C1CFFFFFF
(1547753517.006189) can0 0CFE4347#0000FFFF3FFFFFFF
(1547753517.006789) can0 0CFE4447#0000FFFF3FFFFFFF
(1547753517.007389) can0 0CFFFE06#5C531D531DFFFFFF
(1547753517.015317) can0 0CF00300#FF0024FF07FFFFFF
(1547753517.015888) can0 0CEFFF00#6406317DFFFFFFFF
(1547753517.016466) can0 18FEF200#2300FFFFFFFFFFFF
(1547753517.023266) can0 0DEF0603#0101FFFFFFFFFFF5
(1547753517.024441) can0 0C000006#30FFFFFFF8FFFFFF
(1547753517.024988) can0 04EF0006#641519F00419A90E
(1547753517.025564) can0 0CF00400#F0FF9E201CFFFFFF
(1547753517.035267) can0 0CF00300#FF0025FF07FFFFFF
(1547753517.035812) can0 0CEFFF00#64062F7DFFFFFFFF
(1547753517.036390) can0 18EF0600#640E2900FFFFFFFF
(1547753517.043266) can0 0DEF0603#0101FFFFFFFFFFF5
(1547753517.044439) can0 04EF0006#64151AF00B19A90E
(1547753517.045012) can0 18FEF147#FF0000FFFFFFFFFF
(1547753517.045589) can0 0CF00400#F0FF9D1A1CFFFFFF
(1547753517.046188) can0 18F00503#7DFFFFFFFFFFFFFF
(1547753517.055389) can0 0CF00300#FF0025FF07FFFFFF
(1547753517.055961) can0 0CEFFF00#6406317DFFFFFFFF
(1547753517.056513) can0 18EFFF00#64100101C302057D
(1547753517.057113) can0 18FEDF00#8A201CFFFFFFFFFF
(1547753517.062813) can0 0DEF0647#0104FFFFFFFFFFF1
(1547753517.063488) can0 0DEF0603#0101FFFFFFFFFFF5
(1547753517.064737) can0 04EF0006#64151BF00419A90E
(1547753517.065337) can0 0CF00400#F0FF9E1E1CFFFFFF
(1547753517.075263) can0 0CF00300#FF0024FF07FFFFFF
(1547753517.075835) can0 0CEFFF00#6406317DFFFFFFFF
(1547753517.076412) can0 18FEEF00#FFFFFF66FFFFFFFA
(1547753517.083262) can0 0DEF0603#0101FFFFFFFFFFF5
(1547753517.084486) can0 04EF0006#64151CF00419A90E
(1547753517.085059) can0 0CFE4947#FFFFFFFFFFFFFFFF
(1547753517.085637) can0 0CF00400#F0FF9E201CFFFFFF
(1547753517.086213) can0 0CFFFF47#5DFFFFF3FFFFFFFF
(1547753517.086786) can0 18FFFB06#000588F8FFFFFFFF
(1547753517.087387) can0 0CFE4347#0000FFFF3FFFFFFF
(1547753517.087985) can0 0CFE4447#0000FFFF3FFFFFFF
(1547753517.095362) can0 0CF00300#FF0025FF07FFFFFF
(1547753517.095934) can0 0CEFFF00#6406307DFFFFFFFF
(1547753517.103262) can0 0DEF0603#0101FFFFFFFFFFF5
(1547753517.104461) can0 04EF0006#64151DF00B19A90E
(1547753517.105311) can0 0CF00400#F0FF9E161CFFFFFF
(1547753517.115311) can0 0CF00300#FF0025FF07FFFFFF
(1547753517.115884) can0 0CEFFF00#6406327DFFFFFFFF
(1547753517.116486) can0 18FEF200#2400FFFFFFFFFFFF
(1547753517.123261) can0 0DEF0603#0101FFFFFFFFFFF5
(1547753517.124485) can0 04EF0006#64151EF00919A90E
(1547753517.125058) can0 0CFFFE06#5C531D531DFFFFFF
(1547753517.125611) can0 0CF00400#F0FF9E161CFFFFFF
(1547753517.126186) can0 18FEF147#FF0000FFFFFFFFFF
(1547753517.126784) can0 18F00503#7DFFFFFFFFFFFFFF
(1547753517.135335) can0 0CF00300#FF0025FF07FFFFFF
(1547753517.135909) can0 0CEFFF00#6406327DFFFFFFFF
(1547753517.136485) can0 18EF0600#640E3300FFFFFFFF
(1547753517.143260) can0 0DEF0603#0101FFFFFFFFFFF5
(1547753517.144485) can0 04EF0006#64151FF00919A90E
(1547753517.145460) can0 0CF00400#F0FF9E1E1CFFFFFF
(1547753517.155260) can0 0CF00300#FF0024FF07FFFFFF
(1547753517.155833) can0 0CEFFF00#6406317DFFFFFFFF
(1547753517.156410) can0 18EFFF00#64100101C402057D
(1547753517.156983) can0 18FEF600#FF0042FF00FFFFFF
(1547753517.162809) can0 0DEF0647#0104FFFFFFFFFFF1
(1547753517.163435) can0 0DEF0603#0101FFFFFFFFFFF5
(1547753517.164634) can0 04EF0006#641510F00419A90E
(1547753517.165210) can0 18FFFF06#73FFFFFFFFFFFFFF
(1547753517.165784) can0 0CF00400#F0FF9E201CFFFFFF
(1547753517.175285) can0 0CF00300#FF0025FF07FFFFFF
(1547753517.175858) can0 0CEFFF00#64062F7DFFFFFFFF
(1547753517.183260) can0 0DEF0603#0101FFFFFFFFFFF5
(1547753517.184459) can0 04EF0006#641511F00B19A90E
(1547753517.185610) can0 0CF00400#F0FF9D201CFFFFFF
(1547753517.193010) can0 1CFFFF17#22FFFF3CFFFFFFFF
(1547753517.195284) can0 0CF00300#FF0024FF07FFFFFF
(1547753517.195857) can0 0CEFFF00#6406307DFFFFFFFF
(1547753517.203234) can0 0DEF0603#0101FFFFFFFFFFF5
(1547753517.204436) can0 04EF0006#641512F00B19A90E
(1547753517.205009) can0 0CFE4947#FFFFFFFFFFFFFFFF
(1547753517.205585) can0 0CF00400#F0FF9E241CFFFFFF
(1547753517.206186) can0 0CFE4347#0000FFFF3FFFFFFF
(1547753517.206758) can0 18FFFA00#022C0000180C0081
(1547753517.207335) can0 0CFE4447#0000FFFF3FFFFFFF
(1547753517.207918) can0 1CFDDF47#FCFFFFFFFFFFFFFF
(1547753517.208460) can0 0CFFFE06#5C531D531DFFFFFF
(1547753517.209057) can0 18FFFB06#000587F8FFFFFFFF
(1547753517.215309) can0 0CF00300#FF0024FF07FFFFFF
(1547753517.215882) can0 0CEFFF00#64062F7DFFFFFFFF
(1547753517.216459) can0 18FEF200#2300FFFFFFFFFFFF
(1547753517.223259) can0 0DEF0603#0101FFFFFFFFFFF5
(1547753517.224458) can0 04EF0006#641513F00B19A90E
(1547753517.225359) can0 0CF00400#F0FF9D201CFFFFFF
(1547753517.235358) can0 0CF00300#FF0025FF07FFFFFF
(1547753517.235930) can0 0CEFFF00#64062F7DFFFFFFFF
(1547753517.236482) can0 18EF0600#640E3D00FFFFFFFF
(1547753517.237081) can0 18FEF500#C8FFFFFFFF3EFFFF
(1547753517.243258) can0 0DEF0603#0101FFFFFFFFFFF5
(1547753517.244431) can0 04EF0006#641514F00B19A90E
(1547753517.245030) can0 18FEF147#FF0000FFFFFFFFFF
(1547753517.245582) can0 0CF00400#F0FF9D161CFFFFFF
(1547753517.246182) can0 18F00647#FFCFFFFFFFFFFFFF
(1547753517.246755) can0 18F00503#7DFFFFFFFFFFFFFF
(1547753517.255259) can0 0CF00300#FF0025FF07FFFFFF
(1547753517.255831) can0 0CEFFF00#6406327DFFFFFFFF
(1547753517.256382) can0 18EFFF00#64100101C402057D
(1547753517.262833) can0 0DEF0647#0104FFFFFFFFFFF1
(1547753517.263433) can0 0DEF0603#0101FFFFFFFFFFF5
(1547753517.264633) can0 04EF0006#641515F00919A90E
(1547753517.265432) can0 0CF00400#F0FF9E1E1CFFFFFF
(1547753517.275408) can0 0CF00300#FF0024FF07FFFFFF
(1547753517.275980) can0 0CEFFF00#6406317DFFFFFFFF
(1547753517.276531) can0 18FE6900#7C257026FFFF60FE
(1547753517.283281) can0 0DEF0603#0101FFFFFFFFFFF5
(1547753517.284481) can0 04EF0006#641516F00419A90E
(1547753517.285080) can0 0CFE4947#FFFFFFFFFFFFFFFF
(1547753517.285631) can0 0CF00400#F0FF9E261CFFFFFF
(1547753517.286206) can0 0CFE4347#0000FFFF3FFFFFFF
(1547753517.286803) can0 0CFE4447#0000FFFF3FFFFFFF
(1547753517.295258) can0 0CF00300#FF0024FF07FFFFFF
(1547753517.295829) can0 0CEFFF00#64062F7DFFFFFFFF
(1547753517.303234) can0 0DEF0603#0101FFFFFFFFFFF5
(1547753517.304456) can0 04EF0006#641517F00B19A90E
(1547753517.305331) can0 0CF00400#F0FF9D221CFFFFFF
(1547753517.305903) can0 18FEDF00#8A201CFFFFFFFFFF
(1547753517.315307) can0 0CF00300#FF0024FF07FFFFFF
(1547753517.315878) can0 0CEFFF00#64062F7DFFFFFFFF
(1547753517.316455) can0 18FEF200#2300FFFFFFFFFFFF
