(1547754784.287891) can0 18EEFF47#4D74300400340220
(1547754784.288461) can0 18EEFF06#4D743004000E0020
(1547754784.289029) can0 18EEFF03#4D74300400030220
(1547754784.322004) can0 18EEFF00#56F5290400000220
(1547754784.324209) can0 0CF00400#F0FF000000FFFFFF
(1547754784.324580) can0 18EAFF00#00EE00
(1547754784.334003) can0 0CF00300#FF0000FF00FFFFFF
(1547754784.334573) can0 0CEFFF00#6406007DFFFFFFFF
(1547754784.335167) can0 18FEF200#0000FFFFFFFFFFFF
(1547754784.344144) can0 0CF00400#F0FF7D0000FFFFFF
(1547754784.353935) can0 0CF00300#FF0000FF06FFFFFF
(1547754784.354504) can0 0CEFFF00#6406007DFFFFFFFF
(1547754784.355073) can0 18EF0600#640E0302FFFFFFFF
(1547754784.363879) can0 0CF00400#F0FF7D0000FFFFFF
(1547754784.373791) can0 0CF00300#FF0000FF06FFFFFF
(1547754784.374359) can0 0CEFFF00#6406007DFFFFFFFF
(1547754784.374930) can0 18EFFF00#64100B0B0000007D
(1547754784.375499) can0 18FEDF00#7DFE1CFFFFFFFFFF
(1547754784.376070) can0 1CECFF00#20220005FFE3FE00
(1547754784.383726) can0 0CF00400#F0FF7D0000FFFFFF
(1547754784.393600) can0 0CF00300#FF0000FF06FFFFFF
(1547754784.394192) can0 0CEFFF00#6406007DFFFFFFFF
(1547754784.394764) can0 18FEEF00#FFFFFFFEFFFFFFFA
(1547754784.403535) can0 0CF00400#F0FF7D0000FFFFFF
(1547754784.413432) can0 0CF00300#FF0000FF06FFFFFF
(1547754784.414023) can0 0CEFFF00#6406007DFFFFFFFF
(1547754784.423400) can0 0CF00400#F0FF7D0000FFFFFF
(1547754784.426495) can0 1CEBFF00#01201CDD6842DCA0
(1547754784.433294) can0 0CF00300#FF0000FF06FFFFFF
(1547754784.433854) can0 0CEFFF00#6406007DFFFFFFFF
(1547754784.434452) can0 18FEF200#0000FFFFFFFFFFFF
(1547754784.443229) can0 0CF00400#F0FF7D0000FFFFFF
(1547754784.453123) can0 0CF00300#FF0000FF06FFFFFF
(1547754784.453691) can0 0CEFFF00#6406007DFFFFFFFF
(1547754784.454260) can0 18EF0600#640E0D02FFFFFFFF
(1547754784.463113) can0 0CF00400#F0FF7D0000FFFFFF
(1547754784.472957) can0 0CF00300#FF0000FF06FFFFFF
(1547754784.473550) can0 0CEFFF00#6406007DFFFFFFFF
(1547754784.474119) can0 18EFFF00#64100B0B0000007D
(1547754784.474685) can0 18FEF600#FF004BFF00FFFFFF
(1547754784.475233) can0 1CEBFF00#020FD58D20E37A31
(1547754784.482884) can0 0CF00400#F0FF7D0000FFFFFF
(1547754784.492734) can0 18EFFA00#6401FF0000FFFFFF
(1547754784.493316) can0 0CEFFF00#6406007DFFFFFFFF
(1547754784.493925) can0 0CF00300#FF0000FF06FFFFFF
(1547754784.502697) can0 0CF00400#F0FF7D0000FFFFFF
(1547754784.512616) can0 0CF00300#FF0000FF06FFFFFF
(1547754784.513212) can0 0CEFFF00#6406007DFFFFFFFF
(1547754784.522584) can0 0CF00400#F0FF7D0000FFFFFF
(1547754784.525686) can0 1CEBFF00#03F1C044FFFF0401
(1547754784.532478) can0 0CF00300#FF0000FF06FFFFFF
(1547754784.533070) can0 0CEFFF00#6406007DFFFFFFFF
(1547754784.533642) can0 18FEF200#0000FFFFFFFFFFFF
(1547754784.542439) can0 0CF00400#F0FF7D0000FFFFFF
(1547754784.547052) can0 0DEF0603#0101FFFFFFFFFFF5
(1547754784.547595) can0 04EF0006#641510F00000930E
(1547754784.548190) can0 0C000006#30FFFFFFF8FFFFFF
(1547754784.552313) can0 0CF00300#FF0000FF06FFFFFF
(1547754784.552876) can0 0CEFFF00#6406007DFFFFFFFF
(1547754784.553450) can0 18EF0600#640E1706FFFFFFFF
(1547754784.562228) can0 0CF00400#F0FF7D0000FFFFFF
(1547754784.566758) can0 0DEF0647#0104FFFFFFFFFFF1
(1547754784.567353) can0 0DEF0603#0101FFFFFFFFFFF5
(1547754784.567921) can0 04EF0006#641510F00000930E
(1547754784.568469) can0 0CFFFE06#5C271D271DFFFFFF
(1547754784.569039) can0 18FFFB06#00057DF8FFFFFFFF
(1547754784.569435) can0 18EAFF47#00EE00
(1547754784.572113) can0 0CF00300#FF0000FF06FFFFFF
(1547754784.572680) can0 0CEFFF00#6406007DFFFFFFFF
(1547754784.573228) can0 18EEFF00#56F5290400000220
(1547754784.573797) can0 18EFFF00#64100B0B0000007D
(1547754784.574369) can0 18EEFF00#56F5290400000220
(1547754784.574929) can0 1CEBFF00#04204E0001FAC9FA
(1547754784.582082) can0 0CF00400#F0FF7D0000FFFFFF
(1547754784.586716) can0 0DEF0603#0101FFFFFFFFFFF5
(1547754784.587285) can0 04EF0006#641510F00000930E
(1547754784.591942) can0 0CF00300#FF0000FF06FFFFFF
(1547754784.592545) can0 0CEFFF00#6406007DFFFFFFFF
(1547754784.593113) can0 18FEEE00#5343FFFFFFFFFFFF
(1547754784.601939) can0 0CF00400#F0FF7D0000FFFFFF
(1547754784.606547) can0 0DEF0603#0101FFFFFFFFFFF5
(1547754784.607049) can0 04EF0006#641510F00000930E
(1547754784.607687) can0 0CFE4947#FFFFFFFFFFFFFFFF
(1547754784.608259) can0 0CFE4347#FFFFFFFFFFFFFFFF
(1547754784.608853) can0 0CFE4447#0000FFFF3FFFFFFF
(1547754784.611749) can0 0CF00300#FF0000FF06FFFFFF
(1547754784.612352) can0 0CEFFF00#6406007DFFFFFFFF
(1547754784.621747) can0 0CF00400#F0FF7D0000FFFFFF
(1547754784.622313) can0 18FEDF00#7D261DFFFFFFFFFF
(1547754784.625005) can0 1CEBFF00#05C05D0000FFFFFF
(1547754784.626373) can0 0DEF0603#0101FFFFFFFFFFF5
(1547754784.626924) can0 04EF0006#641510F00000930E
(1547754784.631636) can0 0CF00300#FF0000FF06FFFFFF
(1547754784.632227) can0 0CEFFF00#6406007DFFFFFFFF
(1547754784.632801) can0 18FEF200#0000FFFFFFFFFFFF
(1547754784.641580) can0 0CF00400#F0FF7D0000FFFFFF
(1547754784.646212) can0 0DEF0603#0101FFFFFFFFFFF5
(1547754784.646785) can0 04EF0006#641510F00000930E
(1547754784.647351) can0 18FEF147#FF0000FFFFFFFFFF
(1547754784.647947) can0 18F00503#FFFFFFFFFFFFFFFF
(1547754784.651444) can0 0CF00300#FF0000FF06FFFFFF
(1547754784.652013) can0 0CEFFF00#6406007DFFFFFFFF
(1547754784.652584) can0 18EF0600#640E2100FFFFFFFF
(1547754784.661410) can0 0CF00400#F0FF7D0000FFFFFF
(1547754784.665948) can0 0DEF0647#0104FFFFFFFFFFF1
(1547754784.666565) can0 0DEF0603#0101FFFFFFFFFFF5
(1547754784.667110) can0 04EF0006#641510F00000930E
(1547754784.671304) can0 0CF00300#FF0000FF06FFFFFF
(1547754784.671869) can0 0CEFFF00#6406007DFFFFFFFF
(1547754784.672397) can0 18EFFF00#64100B0B0000007D
(1547754784.672983) can0 18FEF700#FFFFFFFFFFFFA100
(1547754784.681217) can0 0CF00400#F0FF7D0000FFFFFF
(1547754784.685877) can0 0DEF0603#0101FFFFFFFFFFF5
(1547754784.686421) can0 04EF0006#641510F00000930E
(1547754784.686965) can0 0CFE4947#FFFFFFFFFFFFFFFF
(1547754784.687587) can0 0CFE4347#FFFFFFFFFFFFFFFF
(1547754784.688168) can0 0CFE4447#0000FFFF3FFFFFFF
(1547754784.688725) can0 0CFFFE06#5C271D271DFFFFFF
(1547754784.691103) can0 0CF00300#FF0000FF06FFFFFF
(1547754784.691682) can0 0CEFFF00#6406007DFFFFFFFF
(1547754784.701044) can0 0CF00400#F0FF7D0000FFFFFF
(1547754784.705680) can0 0DEF0603#0101FFFFFFFFFFF5
(1547754784.706279) can0 04EF0006#641510F00000930E
(1547754784.710967) can0 0CF00300#FF0000FF06FFFFFF
(1547754784.711560) can0 0CEFFF00#6406007DFFFFFFFF
(1547754784.720908) can0 0CF00400#F0FF7D0000FFFFFF
(1547754784.724203) can0 18EEFF47#4D74300400340220
(1547754784.724746) can0 18EEFF06#4D743004000E0020
(1547754784.725341) can0 18EEFF03#4D74300400030220
(1547754784.725912) can0 0DEF0603#0101FFFFFFFFFFF5
(1547754784.726456) can0 04EF0006#641510F00000930E
(1547754784.727003) can0 18FEF147#FF0000FFFFFFFFFF
(1547754784.727621) can0 18F00503#FFFFFFFFFFFFFFFF
(1547754784.730785) can0 0CF00300#FF0000FF06FFFFFF
(1547754784.731351) can0 0CEFFF00#6406007DFFFFFFFF
(1547754784.731923) can0 18FEF200#0000FFFFFFFFFFFF
(1547754784.740711) can0 0CF00400#F0FF7D0000FFFFFF
(1547754784.745376) can0 0DEF0603#0101FFFFFFFFFFF5
(1547754784.745944) can0 04EF0006#641510F00000930E
(1547754784.750632) can0 0CF00300#FF0000FF06FFFFFF
(1547754784.751201) can0 0CEFFF00#6406007DFFFFFFFF
(1547754784.751771) can0 18EF0600#640E2B00FFFFFFFF
(1547754784.760598) can0 0CF00400#F0FF7D0000FFFFFF
(1547754784.765111) can0 0DEF0647#0104FFFFFFFFFFF1
(1547754784.765729) can0 0DEF0603#0101FFFFFFFFFFF5
(1547754784.766270) can0 04EF0006#641510F00000930E
(1547754784.766817) can0 0CFFFE06#5C271D271DFFFFFF
(1547754784.770463) can0 0CF00300#FF0000FF06FFFFFF
(1547754784.771033) can0 0CEFFF00#6406007DFFFFFFFF
(1547754784.771601) can0 18EFFF00#64100B0B0000007D
(1547754784.772195) can0 18FED500#FFFFFCFFFFFFFFFF
(1547754784.780424) can0 0CF00400#F0FF7D0000FFFFFF
(1547754784.785033) can0 0DEF0603#0101FFFFFFFFFFF5
(1547754784.785608) can0 04EF0006#641510F00000930E
(1547754784.790294) can0 0CF00300#FF0000FF06FFFFFF
(1547754784.790867) can0 0CEFFF00#6406007DFFFFFFFF
(1547754784.800260) can0 0CF00400#F0FF7D0000FFFFFF
(1547754784.804895) can0 0DEF0603#0101FFFFFFFFFFF5
(1547754784.805443) can0 04EF0006#641510F00000930E
(1547754784.806010) can0 0CFE4947#FFFFFFFFFFFFFFFF
(1547754784.806582) can0 0CFE4347#FFFFFFFFFFFFFFFF
(1547754784.807176) can0 0CFE4447#0000FFFF3FFFFFFF
(1547754784.810128) can0 0CF00300#FF0000FF06FFFFFF
(1547754784.810699) can0 0CEFFF00#6406007DFFFFFFFF
(1547754784.811268) can0 18FDB300#FFFF7E28FFFFFFFF
(1547754784.820060) can0 0CF00400#F0FF7D0000FFFFFF
(1547754784.824663) can0 0DEF0603#0101FFFFFFFFFFF5
(1547754784.825273) can0 04EF0006#641510F00000930E
(1547754784.830011) can0 0CF00300#FF0000FF06FFFFFF
(1547754784.830578) can0 0CEFFF00#6406007DFFFFFFFF
(1547754784.831175) can0 18FEF200#0000FFFFFFFFFFFF
(1547754784.839953) can0 0CF00400#F0FF7D8205FFFFFF
(1547754784.844908) can0 0DEF0603#0101FFFFFFFFFFF5
(1547754784.846121) can0 04EF0006#641510F00000930E
(1547754784.846717) can0 18FEF147#FF0000FFFFFFFFFF
(1547754784.847309) can0 18F00503#FFFFFFFFFFFFFFFF
(1547754784.849840) can0 0CF00300#FF0000FF06FFFFFF
(1547754784.850407) can0 0CEFFF00#6406F77CFFFFFFFF
(1547754784.850981) can0 18EF0600#640E3500FFFFFFFF
(1547754784.859809) can0 0CF00400#F0FF7D9C05FFFFFF
(1547754784.864693) can0 0DEF0647#0104FFFFFFFFFFF1
(1547754784.865286) can0 0DEF0603#0101FFFFFFFFFFF5
(1547754784.866501) can0 04EF0006#641510F00000930E
(1547754784.869701) can0 0CF00300#FF0000FF06FFFFFF
(1547754784.870266) can0 0CEFFF00#6406F77CFFFFFFFF
(1547754784.870862) can0 18EFFF00#641000000000007D
(1547754784.871433) can0 18FEDF00#7E261DFFFFFFFFFF
(1547754784.879667) can0 0CF00400#F0FF7D9C05FFFFFF
(1547754784.884897) can0 0DEF0603#0101FFFFFFFFFFF5
(1547754784.886112) can0 04EF0006#641510F00000930E
(1547754784.886680) can0 0CFE4947#FFFFFFFFFFFFFFFF
(1547754784.887274) can0 0CFFFF47#5DFFFFF3FFFFFFFF
(1547754784.889537) can0 0CF00300#FF0000FF06FFFFFF
(1547754784.890118) can0 0CEFFF00#6406F77CFFFFFFFF
(1547754784.890698) can0 18FEEF00#FFFFFF07FFFFFFFA
(1547754784.899498) can0 0CF00400#F0FF7D9C05FFFFFF
(1547754784.909343) can0 0CF00300#FF0000FF06FFFFFF
(1547754784.909908) can0 0CEFFF00#6406F77CFFFFFFFF
(1547754784.919284) can0 0CF00400#F0FF7D9C05FFFFFF
(1547754784.929194) can0 0CF00300#FF0000FF06FFFFFF
(1547754784.929763) can0 0CEFFF00#6406F77CFFFFFFFF
(1547754784.930359) can0 18FEF200#0000FFFFFFFFFFFF
(1547754784.939136) can0 0CF00400#F0FF7D9C05FFFFFF
(1547754784.949027) can0 0CF00300#FF0000FF06FFFFFF
(1547754784.949575) can0 0CEFFF00#6406F77CFFFFFFFF
(1547754784.950167) can0 18EF0600#640E3F00FFFFFFFF
(1547754784.958968) can0 0CF00400#F0FF7D1E05FFFFFF
(1547754784.968839) can0 0CF00300#FF0000FF06FFFFFF
(1547754784.969428) can0 0CEFFF00#6406F87CFFFFFFFF
(1547754784.969999) can0 18EFFF00#641000000000007D
(1547754784.970567) can0 18FEF600#FF0046FF00FFFFFF
(1547754784.978775) can0 0CF00400#F0FF7D1805FFFFFF
(1547754784.988694) can0 0CF00300#FF0000FF06FFFFFF
(1547754784.989288) can0 0CEFFF00#6406F87CFFFFFFFF
(1547754784.998674) can0 0CF00400#F0FF7D1805FFFFFF
(1547754785.008492) can0 0CF00300#FF0000FF06FFFFFF
(1547754785.009095) can0 0CEFFF00#6406F87CFFFFFFFF
(1547754785.018481) can0 0CF00400#F0FF7D1805FFFFFF
(1547754785.019070) can0 18FFFA00#022C0000180C0000
(1547754785.028407) can0 0CF00300#FF0000FF06FFFFFF
(1547754785.028999) can0 0CEFFF00#6406F87CFFFFFFFF
(1547754785.029570) can0 18FEF200#0000FFFFFFFFFFFF
(1547754785.038381) can0 0CF00400#F0FF7D1805FFFFFF
(1547754785.048184) can0 0CF00300#FF0000FF06FFFFFF
(1547754785.048737) can0 0CEFFF00#6406F87CFFFFFFFF
(1547754785.049346) can0 18EF0600#640E4900FFFFFFFF
(1547754785.049914) can0 18FEF500#C8FFFFFFFF3FFFFF
(1547754785.058181) can0 0CF00400#F0FF7D9806FFFFFF
(1547754785.068084) can0 0CF00300#FF0000FF06FFFFFF
(1547754785.068654) can0 0CEFFF00#6406F67CFFFFFFFF
(1547754785.069249) can0 18EFFF00#641000000000007D
(1547754785.078036) can0 0CF00400#F0FF7D9E06FFFFFF
(1547754785.087939) can0 0CF00300#FF0000FF06FFFFFF
(1547754785.088506) can0 0CEFFF00#6406F67CFFFFFFFF
(1547754785.089091) can0 18FE6900#E2259027FFFF60FE
(1547754785.097910) can0 0CF00400#F0FF7D9E06FFFFFF
(1547754785.107787) can0 0CF00300#FF0000FF06FFFFFF
(1547754785.108356) can0 0CEFFF00#6406F67CFFFFFFFF
(1547754785.117739) can0 0CF00400#F0FF7D9E06FFFFFF
(1547754785.118331) can0 18FEDF00#80FC1CFFFFFFFFFF
(1547754785.127664) can0 0CF00300#FF0000FF06FFFFFF
(1547754785.128257) can0 0CEFFF00#6406F67CFFFFFFFF
(1547754785.128781) can0 18FEF200#0000FFFFFFFFFFFF
(1547754785.137564) can0 0CF00400#F0FF7D9E06FFFFFF
(1547754785.147490) can0 0CF00300#FF0000FF06FFFFFF
(1547754785.148061) can0 0CEFFF00#6406F67CFFFFFFFF
(1547754785.148631) can0 18EF0600#640E5306FFFFFFFF
(1547754785.157412) can0 0CF00400#F0FF7D7204FFFFFF
(1547754785.167342) can0 0CF00300#FF0000FF06FFFFFF
(1547754785.167913) can0 0CEFFF00#6406F97CFFFFFFFF
(1547754785.168483) can0 18EFFF00#641000000000007D
(1547754785.177274) can0 0CF00400#F0FF7D5404FFFFFF
(1547754785.187196) can0 0CF00300#FF0000FF06FFFFFF
(1547754785.187765) can0 0CEFFF00#6406F97CFFFFFFFF
(1547754785.197195) can0 0CF00400#F0FF7D5404FFFFFF
(1547754785.207049) can0 0CF00300#FF0000FF06FFFFFF
(1547754785.207616) can0 0CEFFF00#6406F97CFFFFFFFF
(1547754785.208187) can0 18FD7C00#F880F0F000CF03FC
(1547754785.216977) can0 0CF00400#F0FF7D0009FFFFFF
(1547754785.226924) can0 0CF00300#FF0000FF06FFFFFF
(1547754785.227492) can0 0CEFFF00#6406F27CFFFFFFFF
(1547754785.228089) can0 18FEF200#0000FFFFFFFFFFFF
(1547754785.236876) can0 0CF00400#FEFF7DFA07FFFFFF
(1547754785.246804) can0 0CF00300#FF0064FF06FFFFFF
(1547754785.247396) can0 0CEFFF00#64068C7DFFFFFFFF
(1547754785.247941) can0 18EF0600#640E5D06FFFFFFFF
(1547754785.256728) can0 0CF00400#FEFFB8AC06FFFFFF
(1547754785.266631) can0 0CF00300#FF0064FF06FFFFFF
(1547754785.267176) can0 0CEFFF00#64068C7DFFFFFFFF
(1547754785.267768) can0 18EFFF00#641000000000007D
(1547754785.276604) can0 0CF00400#FEFFB7EC05FFFFFF
(1547754785.286503) can0 0CF00300#FF0064FF06FFFFFF
(1547754785.287077) can0 0CEFFF00#64068C7DFFFFFFFF
(1547754785.296411) can0 0CF00400#FEFFB62405FFFFFF
(1547754785.306306) can0 0CF00300#FF0064FF06FFFFFF
(1547754785.306874) can0 0CEFFF00#64068C7DFFFFFFFF
(1547754785.307447) can0 18FDB300#FFFF7228FFFFFFFF
(1547754785.308029) can0 1CEFFF00#64070000FFFFFFFF
(1547754785.316333) can0 0CF00400#FEFFB65A05FFFFFF
(1547754785.326211) can0 0CF00300#FF0064FF06FFFFFF
(1547754785.326780) can0 0CEFFF00#64068C7DFFFFFFFF
(1547754785.327349) can0 18FEF200#1500FFFFFFFFFFFF
(1547754785.336161) can0 0CF00400#FEFFB6E006FFFFFF
(1547754785.346016) can0 0CF00300#FF0064FF06FFFFFF
(1547754785.346604) can0 0CEFFF00#64068C7DFFFFFFFF
(1547754785.347151) can0 18EF0600#640E6706FFFFFFFF
(1547754785.355986) can0 0CF00400#FEFFB77A07FFFFFF
(1547754785.365890) can0 0CF00300#FF0064FF06FFFFFF
(1547754785.366457) can0 0CEFFF00#64068C7DFFFFFFFF
(1547754785.367054) can0 18EFFF00#641000000000007D
(1547754785.367622) can0 18FEDF00#80201CFFFFFFFFFF
(1547754785.375842) can0 0CF00400#FEFFB78807FFFFFF
(1547754785.385743) can0 0CF00300#FF0064FF06FFFFFF
(1547754785.386310) can0 0CEFFF00#64068C7DFFFFFFFF
(1547754785.386881) can0 18FEEF00#FFFFFF21FFFFFFFA
(1547754785.395720) can0 0CF00400#FEFFB76607FFFFFF
(1547754785.405581) can0 0CF00300#FF0064FF06FFFFFF
(1547754785.406188) can0 0CEFFF00#64068C7DFFFFFFFF
(1547754785.415571) can0 0CF00400#FEFFB70C07FFFFFF
(1547754785.425478) can0 0CF00300#FF0064FF06FFFFFF
(1547754785.426063) can0 0CEFFF00#64068C7DFFFFFFFF
(1547754785.426635) can0 18FEF200#1C00FFFFFFFFFFFF
(1547754785.435446) can0 0CF00400#FEFFB7AE06FFFFFF
(1547754785.445297) can0 0CF00300#FF0064FF06FFFFFF
(1547754785.445866) can0 0CEFFF00#64068C7DFFFFFFFF
(1547754785.446437) can0 18EF0600#640E7106FFFFFFFF
(1547754785.455270) can0 0CF00400#FEFFB73406FFFFFF
(1547754785.465151) can0 0CF00300#FF0064FF06FFFFFF
(1547754785.465719) can0 0CEFFF00#64068C7DFFFFFFFF
(1547754785.466313) can0 18EFFF00#641000000000007D
(1547754785.466883) can0 18FEF600#FF0045FF00FFFFFF
(1547754785.475153) can0 0CF00400#FEFFB76205FFFFFF
(1547754785.484999) can0 18EFFA00#6401FF0000FFFFFF
(1547754785.485573) can0 0CEFFF00#64068C7DFFFFFFFF
(1547754785.486143) can0 0CF00300#FF0064FF06FFFFFF
(1547754785.495006) can0 0CF00400#FEFFB64A05FFFFFF
(1547754785.504876) can0 0CF00300#FF0064FF06FFFFFF
(1547754785.505473) can0 0CEFFF00#64068C7DFFFFFFFF
(1547754785.514832) can0 0CF00400#FEFFB68009FFFFFF
(1547754785.524778) can0 0CF00300#FF0064FF06FFFFFF
(1547754785.525349) can0 0CEFFF00#64068C7DFFFFFFFF
(1547754785.525944) can0 18FEF200#2800FFFFFFFFFFFF
(1547754785.534708) can0 0CF00400#FEFFB9340CFFFFFF
(1547754785.544582) can0 0CF00300#FF0064FF06FFFFFF
(1547754785.545175) can0 0CEFFF00#64068C7DFFFFFFFF
(1547754785.545726) can0 18EF0600#640E7B06FFFFFFFF
(1547754785.554533) can0 0CF00400#FEFFBBAA0CFFFFFF
(1547754785.564433) can0 0CF00300#FF0064FF06FFFFFF
(1547754785.565002) can0 0CEFFF00#64068C7DFFFFFFFF
(1547754785.565577) can0 18EFFF00#641000000000007D
(1547754785.574385) can0 0CF00400#FEFFBB360CFFFFFF
(1547754785.584287) can0 0CF00300#FF0064FF06FFFFFF
(1547754785.584811) can0 0CEFFF00#64068C7DFFFFFFFF
(1547754785.585428) can0 18FEEE00#5343FFFFFFFFFFFF
(1547754785.594337) can0 0CF00400#FEFFBB580AFFFFFF
(1547754785.604139) can0 0CF00300#FF0064FF06FFFFFF
(1547754785.604709) can0 0CEFFF00#64068C7DFFFFFFFF
(1547754785.614141) can0 0CF00400#FEFFB95A0BFFFFFF
(1547754785.614707) can0 18FEDF00#84201CFFFFFFFFFF
(1547754785.623989) can0 0CF00300#FF0064FF06FFFFFF
(1547754785.624561) can0 0CEFFF00#64068C7DFFFFFFFF
(1547754785.625132) can0 18FEF200#3000FFFFFFFFFFFF
(1547754785.633904) can0 0CF00400#FEFFBA540FFFFFFF
(1547754785.643841) can0 0CF00300#FF0064FF06FFFFFF
(1547754785.644411) can0 0CEFFF00#64068C7DFFFFFFFF
(1547754785.644982) can0 18EF0600#640E8506FFFFFFFF
(1547754785.653792) can0 0CF00400#FEFFBCDE0EFFFFFF
(1547754785.663720) can0 0CF00300#FF0064FF06FFFFFF
(1547754785.664289) can0 0CEFFF00#64068C7DFFFFFFFF
(1547754785.664858) can0 18EFFF00#641000000000007D
(1547754785.665457) can0 18FEF700#FFFFFFFFFFFFC600
(1547754785.673719) can0 0CF00400#FEFFBCD20EFFFFFF
(1547754785.683670) can0 0CF00300#FF0064FF06FFFFFF
(1547754785.684241) can0 0CEFFF00#64068C7DFFFFFFFF
(1547754785.693520) can0 0CF00400#FEFFBC8C0DFFFFFF
(1547754785.703397) can0 0CF00300#FF0064FF06FFFFFF
(1547754785.703970) can0 0CEFFF00#64068C7DFFFFFFFF
(1547754785.713400) can0 0CF00400#FEFFBB2E11FFFFFF
(1547754785.723298) can0 0CF00300#FF0064FF06FFFFFF
(1547754785.723894) can0 0CEFFF00#64068C7DFFFFFFFF
(1547754785.724466) can0 18FEF200#4C00FFFFFFFFFFFF
(1547754785.733173) can0 0CF00400#FEFFBE4210FFFFFF
(1547754785.743158) can0 0CF00300#FF0064FF06FFFFFF
(1547754785.743768) can0 0CEFFF00#64068C7DFFFFFFFF
(1547754785.744343) can0 18EF0600#640E8F06FFFFFFFF
(1547754785.753204) can0 0CF00400#FEFFBDC010FFFFFF
(1547754785.762982) can0 0CF00300#FF0064FF06FFFFFF
(1547754785.763548) can0 0CEFFF00#64068C7DFFFFFFFF
(1547754785.764144) can0 18EFFF00#641000000000007D
(1547754785.764697) can0 18FED500#FFFFFCFFFFFFFFFF
(1547754785.772954) can0 0CF00400#FEFFBDB411FFFFFF
(1547754785.782831) can0 0CF00300#FF0064FF06FFFFFF
(1547754785.783384) can0 0CEFFF00#64068C7DFFFFFFFF
(1547754785.792758) can0 0CF00400#FEFFBE9E12FFFFFF
(1547754785.802758) can0 0CF00300#FF0064FF06FFFFFF
(1547754785.803352) can0 0CEFFF00#64068C7DFFFFFFFF
(1547754785.803925) can0 18FDB300#FFFF7E28FFFFFFFF
(1547754785.812809) can0 0CF00400#FEFFBE6C13FFFFFF
(1547754785.822560) can0 0CF00300#FF0064FF06FFFFFF
(1547754785.823129) can0 0CEFFF00#64068C7DFFFFFFFF
(1547754785.823698) can0 18FEF200#5800FFFFFFFFFFFF
(1547754785.832460) can0 0CF00400#FEFFBF8A14FFFFFF
(1547754785.842365) can0 0CF00300#FF0064FF06FFFFFF
(1547754785.842887) can0 0CEFFF00#64068C7DFFFFFFFF
(1547754785.843504) can0 18EF0600#640E9906FFFFFFFF
(1547754785.852364) can0 0CF00400#FEFFBF7215FFFFFF
(1547754785.862338) can0 0CF00300#FF0064FF06FFFFFF
(1547754785.862878) can0 0CEFFF00#64068C7DFFFFFFFF
(1547754785.863503) can0 18EFFF00#641000000000007D
(1547754785.864020) can0 18FEDF00#88201CFFFFFFFFFF
(1547754785.872291) can0 0CF00400#FEFFBF6C16FFFFFF
(1547754785.882093) can0 0CF00300#FF0064FF06FFFFFF
(1547754785.882661) can0 0CEFFF00#64068C7DFFFFFFFF
(1547754785.883233) can0 18FEEF00#FFFFFF55FFFFFFFA
(1547754785.892045) can0 0CF00400#FEFFC06C17FFFFFF
(1547754785.901946) can0 0CF00300#FF0064FF06FFFFFF
(1547754785.902511) can0 0CEFFF00#64068F7DFFFFFFFF
(1547754785.911965) can0 0CF00400#FEFFC13818FFFFFF
(1547754785.921921) can0 0CF00300#FF0064FF06FFFFFF
(1547754785.922490) can0 0CEFFF00#6406927DFFFFFFFF
(1547754785.923028) can0 18FEF200#7000FFFFFFFFFFFF
(1547754785.931649) can0 0CF00400#FEFFC23A19FFFFFF
(1547754785.941799) can0 0CF00300#FF0064FF06FFFFFF
(1547754785.942390) can0 0CEFFF00#6406957DFFFFFFFF
(1547754785.942936) can0 18EF0600#640EA306FFFFFFFF
(1547754785.951625) can0 0CF00400#FEFFC41A1AFFFFFF
(1547754785.961479) can0 0CF00300#FF0064FF06FFFFFF
(1547754785.962042) can0 0CEFFF00#6406987DFFFFFFFF
(1547754785.962614) can0 18EFFF00#64100000B002007D
(1547754785.963210) can0 18FEF600#FF0044FF00FFFFFF
(1547754785.971374) can0 0CF00400#FEFFC5021BFFFFFF
(1547754785.981303) can0 0CF00300#FF0064FF06FFFFFF
(1547754785.981873) can0 0CEFFF00#64069B7DFFFFFFFF
(1547754785.991305) can0 0CF00400#F8FFC6E61BFFFFFF
(1547754786.001254) can0 0CF00300#FF0064FF06FFFFFF
(1547754786.001823) can0 0CEFFF00#64069E7DFFFFFFFF
(1547754786.011280) can0 0CF00400#F8FFC8E01CFFFFFF
(1547754786.011876) can0 18FFFA00#022C0000180C00A1
(1547754786.021118) can0 0CF00300#FF0064FF06FFFFFF
(1547754786.021686) can0 0CEFFF00#6406A17DFFFFFFFF
(1547754786.022259) can0 18FEF200#5500FFFFFFFFFFFF
(1547754786.031050) can0 0CF00400#F8FFC9A81DFFFFFF
(1547754786.040938) can0 0CF00300#FF0060FF06FFFFFF
(1547754786.041506) can0 0CEFFF00#6406A27DFFFFFFFF
(1547754786.042033) can0 18EF0600#640EAD06FFFFFFFF
(1547754786.042648) can0 18FEF500#C8FFFFFFFF3FFFFF
(1547754786.051019) can0 0CF00400#F0FFCA341EFFFFFF
(1547754786.060781) can0 0CF00300#FF0043FF06FFFFFF
(1547754786.061376) can0 0CEFFF00#6406817DFFFFFFFF
(1547754786.061946) can0 18EFFF00#64100101FF02007D
(1547754786.070766) can0 0CF00400#F0FFBDCC1EFFFFFF
(1547754786.080678) can0 0CF00300#FF0024FF06FFFFFF
(1547754786.081243) can0 0CEFFF00#6406417DFFFFFFFF
(1547754786.081793) can0 18FE6900#92259227FFFF60FE
(1547754786.090799) can0 0CF00400#F0FFA54A1FFFFFFF
(1547754786.100520) can0 0CF00300#FF0008FF06FFFFFF
(1547754786.101112) can0 0CEFFF00#6406027DFFFFFFFF
(1547754786.103575) can0 18EEFF47#4D74300400340220
(1547754786.104143) can0 18EEFF06#4D743004000E0020
(1547754786.104715) can0 18EEFF03#4D74300400030220
(1547754786.110504) can0 0CF00400#F0FF8DA21FFFFFFF
(1547754786.111072) can0 18FEDF00#8B201CFFFFFFFFFF
(1547754786.120488) can0 0CF00300#FF0000FF06FFFFFF
(1547754786.121058) can0 0CEFFF00#6406D97CFFFFFFFF
(1547754786.121657) can0 18FEF200#0000FFFFFFFFFFFF
(1547754786.130348) can0 0CF00400#F1FF7DA21FFFFFFF
(1547754786.140186) can0 0CF00300#FF0000FF06FFFFFF
(1547754786.140775) can0 0CEFFF00#6406D97CFFFFFFFF
(1547754786.141312) can0 18EF0600#640EB706FFFFFFFF
(1547754786.150189) can0 0CF00400#F1FF7D6C1FFFFFFF
(1547754786.160200) can0 0CF00300#FF0000FF06FFFFFF
(1547754786.160770) can0 0CEFFF00#6406D97CFFFFFFFF
(1547754786.161321) can0 18EFFF00#641001010103057D
(1547754786.170089) can0 0CF00400#F1FF7D0C1FFFFFFF
(1547754786.174334) can0 18EEFF17#0C6E240400130220
(1547754786.179949) can0 0CF00300#FF0000FF06FFFFFF
(1547754786.180516) can0 0CEFFF00#6406DA7CFFFFFFFF
(1547754786.189956) can0 0CF00400#F1FF7DA41EFFFFFF
(1547754786.199894) can0 0CF00300#FF000CFF06FFFFFF
(1547754786.200461) can0 0CEFFF00#6406DE7CFFFFFFFF
(1547754786.201006) can0 18FD7C00#F880F1F500CF03FD
(1547754786.209975) can0 0CF00400#F1FF7F341EFFFFFF
(1547754786.219759) can0 0CF00300#FF0016FF06FFFFFF
(1547754786.220328) can0 0CEFFF00#6406F97CFFFFFFFF
(1547754786.220926) can0 18FEF200#0B00FFFFFFFFFFFF
(1547754786.229745) can0 0CF00400#F1FF89D01DFFFFFF
(1547754786.239603) can0 0CF00300#FF0017FF06FFFFFF
(1547754786.240199) can0 0CEFFF00#6406037DFFFFFFFF
(1547754786.240770) can0 18EF0600#640EC106FFFFFFFF
(1547754786.249613) can0 0CF00400#F1FF8D861DFFFFFF
(1547754786.259521) can0 0CF00300#FF001DFF06FFFFFF
(1547754786.260092) can0 0CEFFF00#64060B7DFFFFFFFF
(1547754786.260666) can0 18EFFF00#64100101DC02037D
(1547754786.269435) can0 0CF00400#F1FF8F3C1DFFFFFF
(1547754786.279341) can0 0CF00300#FF0020FF06FFFFFF
(1547754786.279913) can0 0CEFFF00#6406117DFFFFFFFF
(1547754786.289426) can0 0CF00400#F0FF92FE1CFFFFFF
(1547754786.299387) can0 0CF00300#FF004EFF06FFFFFF
(1547754786.299982) can0 0CEFFF00#6406717DFFFFFFFF
(1547754786.300528) can0 18FDB300#FFFF7E28FFFFFFFF
(1547754786.301097) can0 1CEFFF00#64070000FFFFFFFF
(1547754786.309174) can0 0CF00400#F0FFB7DA1CFFFFFF
(1547754786.319124) can0 0CF00300#FF004BFF06FFFFFF
(1547754786.319724) can0 0CEFFF00#6406777DFFFFFFFF
(1547754786.320296) can0 18FEF200#3E00FFFFFFFFFFFF
(1547754786.329163) can0 0CF00400#F0FFB91C1DFFFFFF
(1547754786.339226) can0 0CF00300#FF003EFF06FFFFFF
(1547754786.339795) can0 0CEFFF00#6406637DFFFFFFFF
(1547754786.340365) can0 18EF0600#640ECB06FFFFFFFF
(1547754786.348959) can0 0CF00400#F0FFB1681DFFFFFF
(1547754786.358844) can0 0CF00300#FF0031FF06FFFFFF
(1547754786.359389) can0 0CEFFF00#6406497DFFFFFFFF
(1547754786.359960) can0 18EFFF00#64100101EA02037D
(1547754786.360525) can0 18FEDF00#8B201CFFFFFFFFFF
(1547754786.363117) can0 0DEF0603#0101FFFFFFFFFFF5
(1547754786.368804) can0 0CF00400#F0FFA7C21DFFFFFF
(1547754786.378985) can0 0CF00300#FF0022FF06FFFFFF
(1547754786.379557) can0 0CEFFF00#64062C7DFFFFFFFF
(1547754786.380129) can0 18FEEF00#FFFFFF64FFFFFFFA
(1547754786.382913) can0 0DEF0647#0104FFFFFFFFFFF1
(1547754786.383509) can0 0DEF0603#0101FFFFFFFFFFF5
(1547754786.383879) can0 18EAFF47#00EE00
(1547754786.384430) can0 0CFFFE06#5CFFFFFFFFFFFFFF
(1547754786.388699) can0 0CF00400#F0FF9D1E1EFFFFFF
(1547754786.398583) can0 0CF00300#FF0014FF06FFFFFF
(1547754786.399151) can0 0CEFFF00#64060B7DFFFFFFFF
(1547754786.402879) can0 0DEF0603#0101FFFFFFFFFFF5
(1547754786.408592) can0 0CF00400#F0FF90321EFFFFFF
(1547754786.413535) can0 18EEFF00#56F5290400000220
(1547754786.418551) can0 0CF00300#FF000EFF06FFFFFF
(1547754786.419121) can0 0CEFFF00#6406FB7CFFFFFFFF
(1547754786.419693) can0 18FEF200#0B00FFFFFFFFFFFF
(1547754786.422726) can0 0DEF0603#0101FFFFFFFFFFF5
(1547754786.423345) can0 0CFE4947#FFFFFFFFFFFFFFFF
(1547754786.423939) can0 0CFE4347#FFFFFFFFFFFFFFFF
(1547754786.424537) can0 0CFE4447#0000FFFF3FFFFFFF
(1547754786.428387) can0 0CF00400#F1FF8A341EFFFFFF
(1547754786.438273) can0 0CF00300#FF0000FF06FFFFFF
(1547754786.438842) can0 0CEFFF00#6406DA7CFFFFFFFF
(1547754786.439415) can0 18EF0600#640ED506FFFFFFFF
(1547754786.442594) can0 0DEF0603#0101FFFFFFFFFFF5
(1547754786.448256) can0 0CF00400#F1FF7D0E1EFFFFFF
(1547754786.453097) can0 18EAFF17#00EE00
(1547754786.458119) can0 0CF00300#FF0000FF06FFFFFF
(1547754786.458734) can0 0CEFFF00#6406DA7CFFFFFFFF
(1547754786.459282) can0 18EFFF00#64100101E802067D
(1547754786.459853) can0 18FEF600#FF0043FF00FFFFFF
(1547754786.460649) can0 18EEFF00#56F5290400000220
(1547754786.462515) can0 0DEF0603#0101FFFFFFFFFFF5
(1547754786.463082) can0 18FEF147#FF0000FFFFFFFFFF
(1547754786.463677) can0 18F00503#FFFFFFFFFFFFFFFF
(1547754786.468129) can0 0CF00400#F1FF7DCA1DFFFFFF
(1547754786.473017) can0 1CFFFF17#22FFFF3CFFFFFFFF
(1547754786.478009) can0 18EFFA00#6401FF0000FFFFFF
(1547754786.478589) can0 0CEFFF00#6406E57CFFFFFFFF
(1547754786.479150) can0 0CF00300#FF000FFF06FFFFFF
(1547754786.482231) can0 0DEF0647#0104FFFFFFFFFFF1
(1547754786.482852) can0 0DEF0603#0101FFFFFFFFFFF5
(1547754786.488047) can0 0CF00400#F1FF816C1DFFFFFF
(1547754786.498006) can0 0CF00300#FF0017FF06FFFFFF
(1547754786.498528) can0 0CEFFF00#6406017DFFFFFFFF
(1547754786.502226) can0 0DEF0603#0101FFFFFFFFFFF5
(1547754786.502822) can0 0CFE4947#FFFFFFFFFFFFFFFF
(1547754786.503416) can0 0CFE4347#FFFFFFFFFFFFFFFF
(1547754786.504014) can0 0CFE4447#0000FFFF3FFFFFFF
(1547754786.504634) can0 0CFFFE06#5CFFFFFFFFFFFFFF
(1547754786.507914) can0 0CF00400#F1FF8C0E1DFFFFFF
(1547754786.517801) can0 0CF00300#FF001DFF06FFFFFF
(1547754786.518394) can0 0CEFFF00#6406107DFFFFFFFF
(1547754786.518964) can0 18FEF200#1400FFFFFFFFFFFF
(1547754786.522063) can0 0DEF0603#0101FFFFFFFFFFF5
(1547754786.527758) can0 0CF00400#F1FF91B61CFFFFFF
(1547754786.537718) can0 0CF00300#FF0038FF06FFFFFF
(1547754786.538285) can0 0CEFFF00#6406187DFFFFFFFF
(1547754786.538858) can0 18EF0600#640EDF06FFFFFFFF
(1547754786.541933) can0 0DEF0603#0101FFFFFFFFFFF5
(1547754786.542536) can0 18FEF147#FF0000FFFFFFFFFF
(1547754786.543086) can0 18F00503#FFFFFFFFFFFFFFFF
(1547754786.547826) can0 0CF00400#F0FF946E1CFFFFFF
(1547754786.557537) can0 0CF00300#FF003BFF06FFFFFF
(1547754786.558106) can0 0CEFFF00#64064D7DFFFFFFFF
(1547754786.558655) can0 18EFFF00#64100101D502037D
(1547754786.561784) can0 0DEF0603#0101FFFFFFFFFFF5
(1547754786.567447) can0 0CF00400#F0FFA94E1CFFFFFF
(1547754786.577381) can0 0CF00300#FF0039FF06FFFFFF
(1547754786.577950) can0 0CEFFF00#64064F7DFFFFFFFF
(1547754786.578499) can0 18FEEE00#5343FFFFFFFFFFFF
(1547754786.581554) can0 0DEF0647#0104FFFFFFFFFFF1
(1547754786.582150) can0 0DEF0603#0101FFFFFFFFFFF5
(1547754786.582769) can0 0CFFFE06#5CFFFFFFFFFFFFFF
(1547754786.587365) can0 0CF00400#F0FFAA701CFFFFFF
(1547754786.597301) can0 0CF00300#FF0036FF06FFFFFF
(1547754786.597869) can0 0CEFFF00#6406497DFFFFFFFF
(1547754786.601995) can0 0DEF0603#0101FFFFFFFFFFF5
(1547754786.603162) can0 0C000006#30FFFFFFF8FFFFFF
(1547754786.603705) can0 04EF0006#641510F00000930E
(1547754786.607185) can0 0CF00400#F0FFA79E1CFFFFFF
(1547754786.607780) can0 18FEDF00#8B201CFFFFFFFFFF
(1547754786.612004) can0 18EA0017#09FF00
(1547754786.617121) can0 0CF00300#FF0032FF06FFFFFF
(1547754786.617690) can0 0CEFFF00#6406427DFFFFFFFF
(1547754786.618263) can0 18FEF200#2D00FFFFFFFFFFFF
(1547754786.621865) can0 0DEF0603#0101FFFFFFFFFFF5
(1547754786.623056) can0 04EF0006#641510F00000930E
(1547754786.623626) can0 0CFE4947#FFFFFFFFFFFFFFFF
(1547754786.624223) can0 18FFFB06#0005CCF8FFFFFFFF
(1547754786.624795) can0 0CFE4347#FFFFFFFFFFFFFFFF
(1547754786.625390) can0 0CFE4447#0000FFFF3FFFFFFF
(1547754786.625959) can0 0CFFFE06#5C271D271DFFFFFF
(1547754786.627104) can0 0CF00400#F0FFA5CC1CFFFFFF
(1547754786.637090) can0 0CF00300#FF002CFF06FFFFFF
(1547754786.637659) can0 0CEFFF00#64063A7DFFFFFFFF
(1547754786.638231) can0 18EF0600#640EE900FFFFFFFF
(1547754786.641734) can0 0DEF0603#0101FFFFFFFFFFF5
(1547754786.642925) can0 04EF0006#641510F00000930E
(1547754786.646998) can0 0CF00400#F0FFA20A1DFFFFFF
(1547754786.656834) can0 0CF00300#FF0026FF06FFFFFF
(1547754786.657403) can0 0CEFFF00#64062A7DFFFFFFFF
(1547754786.657976) can0 18EFFF00#64100101E102037D
(1547754786.658573) can0 18FEF700#FFFFFFFFFFFFED00
(1547754786.659365) can0 18FF0900#454355FFFFFFFFFF
(1547754786.661627) can0 0DEF0603#0101FFFFFFFFFFF5
(1547754786.662819) can0 04EF0006#641510F00000930E
(1547754786.663389) can0 18FEF147#FF0000FFFFFFFFFF
(1547754786.663987) can0 18F00503#FFFFFFFFFFFFFFFF
(1547754786.666843) can0 0CF00400#F0FF9B201DFFFFFF
(1547754786.676952) can0 0CF00300#FF0021FF06FFFFFF
(1547754786.677500) can0 0CEFFF00#6406227DFFFFFFFF
(1547754786.681374) can0 0DEF0647#0104FFFFFFFFFFF1
(1547754786.681994) can0 0DEF0603#0101FFFFFFFFFFF5
(1547754786.683136) can0 04EF0006#641510F00000930E
(1547754786.686664) can0 0CF00400#F0FF98381DFFFFFF
(1547754786.696573) can0 0CF00300#FF001DFF06FFFFFF
(1547754786.697142) can0 0CEFFF00#6406197DFFFFFFFF
(1547754786.701640) can0 0DEF0603#0101FFFFFFFFFFF5
(1547754786.702805) can0 04EF0006#641510F00000930E
(1547754786.703403) can0 0CFE4947#FFFFFFFFFFFFFFFF
(1547754786.703973) can0 0CFFFF47#5DFFFFF3FFFFFFFF
(1547754786.704570) can0 0CFE4347#0000FFFF3FFFFFFF
(1547754786.705164) can0 0CFE4447#0000FFFF3FFFFFFF
(1547754786.706582) can0 0CF00400#F0FF953E1DFFFFFF
(1547754786.716466) can0 0CF00300#FF001DFF06FFFFFF
(1547754786.717036) can0 0CEFFF00#6406147DFFFFFFFF
(1547754786.717634) can0 18FEF200#1500FFFFFFFFFFFF
(1547754786.721509) can0 0DEF0603#0101FFFFFFFFFFF5
(1547754786.722675) can0 04EF0006#641510F00000930E
(1547754786.726402) can0 0CF00400#F0FF932E1DFFFFFF
(1547754786.736312) can0 0CF00300#FF001EFF06FFFFFF
(1547754786.736881) can0 0CEFFF00#6406157DFFFFFFFF
(1547754786.737454) can0 18EF0600#640EF300FFFFFFFF
(1547754786.741379) can0 0DEF0603#0101FFFFFFFFFFF5
(1547754786.742545) can0 04EF0006#641510F00000930E
(1547754786.743116) can0 0CFFFE06#5C271D271DFFFFFF
(1547754786.743686) can0 18FEF147#FF0000FFFFFFFFFF
(1547754786.744284) can0 18FFFB06#000594F8FFFFFFFF
(1547754786.744878) can0 18F00503#7DFFFFFFFFFFFFFF
(1547754786.746317) can0 0CF00400#F0FF93141DFFFFFF
(1547754786.756280) can0 0CF00300#FF0021FF06FFFFFF
(1547754786.756849) can0 0CEFFF00#6406197DFFFFFFFF
(1547754786.757422) can0 18EFFF00#64100101DF02057D
(1547754786.757991) can0 18FED500#FFFFFDFFFFFFFFFF
(1547754786.761247) can0 0DEF0603#0101FFFFFFFFFFF5
(1547754786.762414) can0 04EF0006#641510F00000930E
(1547754786.766190) can0 0CF00400#F0FF95FA1CFFFFFF
(1547754786.776050) can0 0CF00300#FF0023FF06FFFFFF
(1547754786.776619) can0 0CEFFF00#64061E7DFFFFFFFF
(1547754786.780769) can0 0DEF0647#0104FFFFFFFFFFF1
(1547754786.781388) can0 0DEF0603#0101FFFFFFFFFFF5
(1547754786.782432) can0 04EF0006#641510F00000930E
(1547754786.783004) can0 18FFFF06#73FFFFFFFFFFFFFF
(1547754786.784072) can0 18EEFF47#4D74300400340220
(1547754786.784640) can0 18EEFF06#4D743004000E0020
(1547754786.785214) can0 18EEFF03#4D74300400030220
(1547754786.785761) can0 18EEFF17#0C6E240400130220
(1547754786.786330) can0 0CF00400#F0FF97D61CFFFFFF
(1547754786.795940) can0 0CF00300#FF0026FF06FFFFFF
(1547754786.796513) can0 0CEFFF00#6406247DFFFFFFFF
(1547754786.797083) can0 18FDB300#FFFF8A28FFFFFFFF
(1547754786.800985) can0 0DEF0603#0101FFFFFFFFFFF5
(1547754786.802178) can0 04EF0006#641510F00000930E
(1547754786.806301) can0 0CF00400#F0FF99BC1CFFFFFF
(1547754786.815813) can0 0CF00300#FF0027FF06FFFFFF
(1547754786.816382) can0 0CEFFF00#6406287DFFFFFFFF
(1547754786.816980) can0 18FEF200#1F00FFFFFFFFFFFF
(1547754786.820855) can0 0DEF0603#0101FFFFFFFFFFF5
(1547754786.822022) can0 04EF0006#641510F00000930E
(1547754786.822594) can0 0CFE4947#FFFFFFFFFFFFFFFF
(1547754786.823189) can0 1CFDDF47#FCFFFFFFFFFFFFFF
(1547754786.823761) can0 0CFE4347#0000FFFF3FFFFFFF
(1547754786.824355) can0 0CFE4447#0000FFFF3FFFFFFF
(1547754786.824949) can0 0CFFFE06#5C271D271DFFFFFF
(1547754786.825822) can0 0CF00400#F0FF9BAA1CFFFFFF
(1547754786.835683) can0 0CF00300#FF0027FF06FFFFFF
(1547754786.836276) can0 0CEFFF00#6406297DFFFFFFFF
(1547754786.836825) can0 18EF0600#640EFD00FFFFFFFF
(1547754786.840725) can0 0DEF0603#0101FFFFFFFFFFF5
(1547754786.841892) can0 04EF0006#641510F00000930E
(1547754786.845668) can0 0CF00400#F0FF9BA01CFFFFFF
(1547754786.855602) can0 0CF00300#FF0028FF06FFFFFF
(1547754786.856170) can0 0CEFFF00#6406297DFFFFFFFF
(1547754786.856744) can0 18EFFF00#64100101D702047D
(1547754786.857315) can0 18FEDF00#8B201CFFFFFFFFFF
(1547754786.860593) can0 0DEF0603#0101FFFFFFFFFFF5
(1547754786.861760) can0 04EF0006#641510F00000930E
(1547754786.862332) can0 18FEF147#FF0000FFFFFFFFFF
(1547754786.862951) can0 18F00647#FFCFFFFFFFFFFFFF
(1547754786.863524) can0 18FFFB06#0005AAF8FFFFFFFF
(1547754786.864115) can0 18F00503#7DFFFFFFFFFFFFFF
(1547754786.865511) can0 0CF00400#F0FF9B941CFFFFFF
(1547754786.875447) can0 0CF00300#FF0027FF06FFFFFF
(1547754786.876015) can0 0CEFFF00#6406297DFFFFFFFF
(1547754786.876588) can0 18FEEF00#FFFFFF64FFFFFFFA
(1547754786.880140) can0 0DEF0647#0104FFFFFFFFFFF1
(1547754786.880734) can0 0DEF0603#0101FFFFFFFFFFF5
(1547754786.881779) can0 04EF0006#641510F00000930E
(1547754786.885406) can0 0CF00400#F0FF9B9A1CFFFFFF
(1547754786.895390) can0 0CF00300#FF0026FF06FFFFFF
(1547754786.895959) can0 0CEFFF00#6406277DFFFFFFFF
(1547754786.900332) can0 0DEF0603#0101FFFFFFFFFFF5
(1547754786.901524) can0 04EF0006#641511F02D19930E
(1547754786.902095) can0 0CFE4947#FFFFFFFFFFFFFFFF
(1547754786.902691) can0 0CFE4347#0000FFFF3FFFFFFF
(1547754786.903288) can0 0CFE4447#0000FFFF3FFFFFFF
(1547754786.905291) can0 0CF00400#F0FF9AA01CFFFFFF
(1547754786.915209) can0 0CF00300#FF0020FF06FFFFFF
(1547754786.915778) can0 0CEFFF00#6406267DFFFFFFFF
(1547754786.916351) can0 18FEF200#1F00FFFFFFFFFFFF
(1547754786.920173) can0 0DEF0603#0101FFFFFFFFFFF5
(1547754786.921393) can0 04EF0006#641512F03419930E
(1547754786.925119) can0 0CF00400#F0FF9A961CFFFFFF
(1547754786.935303) can0 0CF00300#FF0020FF06FFFFFF
(1547754786.935898) can0 0CEFFF00#6406267DFFFFFFFF
(1547754786.936467) can0 18EF0600#640E0700FFFFFFFF
(1547754786.940071) can0 0DEF0603#0101FFFFFFFFFFF5
(1547754786.941262) can0 04EF0006#641513F09018930E
(1547754786.941810) can0 0CFFFE06#5C271D271DFFFFFF
(1547754786.942381) can0 18FEF147#FF0000FFFFFFFFFF
(1547754786.942976) can0 18F00503#7DFFFFFFFFFFFFFF
(1547754786.944988) can0 0CF00400#F0FF9A961CFFFFFF
(1547754786.954923) can0 0CF00300#FF0020FF06FFFFFF
(1547754786.955492) can0 0CEFFF00#6406257DFFFFFFFF
(1547754786.956040) can0 18EFFF00#64100101D502057D
(1547754786.956612) can0 18FEF600#FF0042FF00FFFFFF
(1547754786.959937) can0 0DEF0603#0101FFFFFFFFFFF5
(1547754786.961132) can0 04EF0006#641514F07F18930E
(1547754786.964858) can0 0CF00400#F0FF99961CFFFFFF
(1547754786.969676) can0 18EA4717#09FF00
(1547754786.970071) can0 18EA0617#09FF00
(1547754786.970442) can0 18EA0317#09FF00
(1547754786.974818) can0 0CF00300#FF0020FF06FFFFFF
(1547754786.975412) can0 0CEFFF00#6406247DFFFFFFFF
(1547754786.979487) can0 0DEF0647#0104FFFFFFFFFFF1
(1547754786.980081) can0 0DEF0603#0101FFFFFFFFFFF5
(1547754786.981126) can0 04EF0006#641515F07F18930E
(1547754786.981698) can0 18FF0947#434355FFFFFFFFFF
(1547754786.982291) can0 18FF0906#454943FFFFFFFFFF
(1547754786.982890) can0 18FF0903#505452FFFFFFFFFF
(1547754786.983486) can0 18FFFB06#0005A4F8FFFFFFFF
(1547754786.984154) can0 18FECA06#00FF00000000FFFF
(1547754786.984777) can0 0CF00400#F0FF998E1CFFFFFF
(1547754786.985347) can0 18FECA47#00FF00000000FFFF
(1547754786.986416) can0 18FECA03#00FF00000000FFFF
(1547754786.994638) can0 0CF00300#FF0020FF06FFFFFF
(1547754786.995206) can0 0CEFFF00#6406257DFFFFFFFF
(1547754786.999679) can0 0DEF0603#0101FFFFFFFFFFF5
(1547754787.000871) can0 04EF0006#641516F03019930E
(1547754787.004572) can0 0CF00400#F0FF998C1CFFFFFF
(1547754787.005165) can0 18FFFA00#022C0000180C0081
(1547754787.014636) can0 0CF00300#FF001FFF06FFFFFF
(1547754787.015232) can0 0CEFFF00#6406247DFFFFFFFF
(1547754787.015777) can0 18FEF200#1E00FFFFFFFFFFFF
(1547754787.019557) can0 0DEF0603#0101FFFFFFFFFFF5
(1547754787.020749) can0 04EF0006#641517F03019930E
(1547754787.021323) can0 0CFE4947#FFFFFFFFFFFFFFFF
(1547754787.021917) can0 0CFE4347#0000FFFF3FFFFFFF
(1547754787.022515) can0 0CFE4447#0000FFFF3FFFFFFF
(1547754787.023084) can0 0CFFFE06#5C271D271DFFFFFF
(1547754787.024674) can0 0CF00400#F0FF99901CFFFFFF
(1547754787.034421) can0 0CF00300#FF001EFF06FFFFFF
(1547754787.034991) can0 0CEFFF00#6406237DFFFFFFFF
(1547754787.035564) can0 18EF0600#640E1100FFFFFFFF
(1547754787.036132) can0 18FEF500#C8FFFFFFFF3DFFFF
(1547754787.039442) can0 0DEF0603#0101FFFFFFFFFFF5
(1547754787.040634) can0 04EF0006#641518F08C18930E
(1547754787.044338) can0 0CF00400#F0FF998A1CFFFFFF
(1547754787.050676) can0 18FECA17#00FF00000000FFFF
(1547754787.054280) can0 0CF00300#FF0010FF06FFFFFF
(1547754787.054850) can0 0CEFFF00#6406237DFFFFFFFF
(1547754787.055398) can0 18EFFF00#64100101D402057D
(1547754787.059326) can0 0DEF0603#0101FFFFFFFFFFF5
(1547754787.060518) can0 04EF0006#641519F03019930E
(1547754787.061091) can0 18FEF147#FF0000FFFFFFFFFF
(1547754787.061686) can0 18F00503#7DFFFFFFFFFFFFFF
(1547754787.064321) can0 0CF00400#FEFF997C1CFFFFFF
(1547754787.074165) can0 0CF00300#FF001BFF06FFFFFF
(1547754787.074735) can0 0CEFFF00#6406167DFFFFFFFF
(1547754787.075283) can0 18FE6900#72259427FFFF60FE
(1547754787.078888) can0 0DEF0647#0104FFFFFFFFFFF1
(1547754787.079482) can0 0DEF0603#0101FFFFFFFFFFF5
(1547754787.080677) can0 04EF0006#64151AF02F19930E
(1547754787.084107) can0 0CF00400#FEFF946C1CFFFFFF
(1547754787.094025) can0 0CF00300#FF0020FF06FFFFFF
(1547754787.094595) can0 0CEFFF00#64061D7DFFFFFFFF
(1547754787.098300) can0 18EAFF06#E5FE00
(1547754787.099269) can0 0DEF0603#0101FFFFFFFFFFF5
(1547754787.100486) can0 04EF0006#64151BF0C118930E
(1547754787.101058) can0 0CFE4947#FFFFFFFFFFFFFFFF
(1547754787.101629) can0 18FFFB06#000596F8FFFFFFFF
(1547754787.102201) can0 0CFE4347#0000FFFF3FFFFFFF
(1547754787.102773) can0 18FEE706#CC0A0000FFFFFFFF
(1547754787.103343) can0 0CFE4447#0000FFFF3FFFFFFF
(1547754787.104165) can0 0CF00400#FEFF96321CFFFFFF
(1547754787.104736) can0 18FEDF00#8B341CFFFFFFFFFF
(1547754787.109431) can0 18FEE500#CC0A0000FFFFFFFF
(1547754787.114104) can0 0CF00300#FF0025FF06FFFFFF
(1547754787.114680) can0 0CEFFF00#64062E7DFFFFFFFF
(1547754787.115249) can0 18FEF200#2300FFFFFFFFFFFF
(1547754787.119104) can0 0DEF0603#0101FFFFFFFFFFF5
(1547754787.120296) can0 04EF0006#64151CF00719930E
(1547754787.123950) can0 0CF00400#F0FF9DF41BFFFFFF
(1547754787.128872) can0 1CFFFF17#22FFFF3CFFFFFFFF
(1547754787.133819) can0 0CF00300#FF0027FF06FFFFFF
(1547754787.134387) can0 0CEFFF00#6406367DFFFFFFFF
(1547754787.134961) can0 18EF0600#640E1B00FFFFFFFF
(1547754787.139013) can0 0DEF0603#0101FFFFFFFFFFF5
(1547754787.140230) can0 04EF0006#64151DF00F19930E
(1547754787.140777) can0 0CFFFE06#5C271D271DFFFFFF
(1547754787.141347) can0 18FEF147#FF0000FFFFFFFFFF
(1547754787.141946) can0 18F00503#7DFFFFFFFFFFFFFF
(1547754787.143810) can0 0CF00400#F0FFA0F01BFFFFFF
(1547754787.153801) can0 0CF00300#FF0027FF06FFFFFF
(1547754787.154422) can0 0CEFFF00#6406367DFFFFFFFF
(1547754787.154942) can0 18EFFF00#64100101C802057D
(1547754787.158897) can0 0DEF0603#0101FFFFFFFFFFF5
(1547754787.160089) can0 04EF0006#64151EF00F19930E
(1547754787.163719) can0 0CF00400#F0FFA0F81BFFFFFF
(1547754787.173586) can0 0CF00300#FF0026FF06FFFFFF
(1547754787.174156) can0 0CEFFF00#6406357DFFFFFFFF
(1547754787.178309) can0 0DEF0647#0104FFFFFFFFFFF1
(1547754787.179003) can0 0DEF0603#0101FFFFFFFFFFF5
(1547754787.180223) can0 04EF0006#64151FF00C19930E
(1547754787.183554) can0 0CF00400#F0FF9FFE1BFFFFFF
(1547754787.193571) can0 0CF00300#FF0026FF06FFFFFF
(1547754787.194140) can0 0CEFFF00#6406347DFFFFFFFF
(1547754787.194688) can0 18FD7C00#F880F1F000CF03FD
(1547754787.198667) can0 0DEF0603#0101FFFFFFFFFFF5
(1547754787.199883) can0 04EF0006#641510F00C19930E
(1547754787.203588) can0 0CF00400#F0FF9F121CFFFFFF
(1547754787.213381) can0 0CF00300#FF0025FF06FFFFFF
(1547754787.213974) can0 0CEFFF00#6406317DFFFFFFFF
(1547754787.214549) can0 18FEF200#2400FFFFFFFFFFFF
(1547754787.218550) can0 0DEF0603#0101FFFFFFFFFFF5
(1547754787.219767) can0 04EF0006#641511F00919930E
(1547754787.220340) can0 0CFE4947#FFFFFFFFFFFFFFFF
(1547754787.220910) can0 18FFFB06#0005B5F8FFFFFFFF
(1547754787.221484) can0 0CFFFF47#5DFFFFF3FFFFFFFF
(1547754787.222080) can0 0CFE4347#0000FFFF3FFFFFFF
(1547754787.222671) can0 0CFE4447#0000FFFF3FFFFFFF
(1547754787.223247) can0 0CFFFE06#5C271D271DFFFFFF
(1547754787.223817) can0 0CF00400#F0FF9E281CFFFFFF
(1547754787.233264) can0 0CF00300#FF0023FF06FFFFFF
(1547754787.233835) can0 0CEFFF00#64062E7DFFFFFFFF
(1547754787.234407) can0 18EF0600#640E2500FFFFFFFF
(1547754787.238410) can0 0DEF0603#0101FFFFFFFFFFF5
(1547754787.239602) can0 04EF0006#641512F01119930E
(1547754787.243481) can0 0CF00400#F0FF9D341CFFFFFF
(1547754787.253149) can0 0CF00300#FF0023FF06FFFFFF
(1547754787.253744) can0 0CEFFF00#64062C7DFFFFFFFF
(1547754787.254292) can0 18EFFF00#64100101CD02057D
(1547754787.258294) can0 0DEF0603#0101FFFFFFFFFFF5
(1547754787.259487) can0 04EF0006#641513F00719930E
(1547754787.260059) can0 18FEF147#FF0000FFFFFFFFFF
(1547754787.260699) can0 18FFFB06#001BFFFFFFFFFFFF
(1547754787.261252) can0 18F00503#7DFFFFFFFFFFFFFF
(1547754787.263116) can0 0CF00400#F0FF9C3E1CFFFFFF
(1547754787.273033) can0 0CF00300#FF0022FF06FFFFFF
(1547754787.273604) can0 0CEFFF00#64062A7DFFFFFFFF
(1547754787.277732) can0 0DEF0647#0104FFFFFFFFFFF1
(1547754787.278326) can0 0DEF0603#0101FFFFFFFFFFF5
(1547754787.279496) can0 04EF0006#641514F0CC18930E
(1547754787.283051) can0 0CF00400#F0FF9B4E1CFFFFFF
(1547754787.292940) can0 0CF00300#FF0021FF06FFFFFF
(1547754787.293513) can0 0CEFFF00#6406287DFFFFFFFF
(1547754787.294087) can0 18FDB300#FFFF8A28FFFFFFFF
(1547754787.294683) can0 1CEFFF00#64070000FFFFFFFF
(1547754787.298089) can0 0DEF0603#0101FFFFFFFFFFF5
(1547754787.299256) can0 04EF0006#641515F00B19930E
(1547754787.299828) can0 0CFE4947#FFFFFFFFFFFFFFFF
(1547754787.300424) can0 18FE6847#3CFFFFFFFFFFFFFF
(1547754787.300996) can0 0CFE4347#0000FFFF3FFFFFFF
(1547754787.301590) can0 18FFFF06#73FFFFFFFFFFFFFF
(1547754787.302163) can0 0CFE4447#0000FFFF3FFFFFFF
(1547754787.302910) can0 0CF00400#F0FF9B5C1CFFFFFF
(1547754787.312851) can0 0CF00300#FF0021FF06FFFFFF
(1547754787.313422) can0 0CEFFF00#6406267DFFFFFFFF
(1547754787.313995) can0 18FEF200#1F00FFFFFFFFFFFF
(1547754787.317948) can0 0DEF0603#0101FFFFFFFFFFF5
(1547754787.319139) can0 04EF0006#641516F0C618930E
(1547754787.322868) can0 0CF00400#F0FF9A541CFFFFFF
(1547754787.332811) can0 0CF00300#FF0021FF06FFFFFF
(1547754787.333383) can0 0CEFFF00#6406277DFFFFFFFF
(1547754787.333952) can0 18EF0600#640E2F00FFFFFFFF
(1547754787.337832) can0 0DEF0603#0101FFFFFFFFFFF5
(1547754787.339024) can0 04EF0006#641517F0C918930E
(1547754787.339596) can0 0CFFFF47#5EFFFFFFFFFFFFFF
(1547754787.340191) can0 18FEF147#FF0000FFFFFFFFFF
(1547754787.340739) can0 0CFFFE06#5C271D271DFFFFFF
(1547754787.341337) can0 18FEFC47#FFFFFFFFFFFFFFFF
(1547754787.341904) can0 18EF0047#F220610FFFFFFFFF
(1547754787.342480) can0 18F00647#FFCFFFFFFFFFFFFF
(1547754787.343049) can0 0CF00400#F0FF9A541CFFFFFF
(1547754787.343623) can0 1CFDDF47#FCFFFFFFFFFFFFFF
(1547754787.344218) can0 18FFFB06#0005A7F8FFFFFFFF
(1547754787.344817) can0 18F00503#7DFFFFFFFFFFFFFF
(1547754787.352570) can0 0CF00300#FF0020FF06FFFFFF
(1547754787.353140) can0 0CEFFF00#6406277DFFFFFFFF
(1547754787.353689) can0 18EFFF00#64100101CF02057D
(1547754787.354285) can0 18FEDF00#8B201CFFFFFFFFFF
(1547754787.357713) can0 0DEF0603#0101FFFFFFFFFFF5
(1547754787.358909) can0 04EF0006#641518F0C918930E
(1547754787.362513) can0 0CF00400#F0FF9A521CFFFFFF
(1547754787.372455) can0 0CF00300#FF0021FF06FFFFFF
(1547754787.373025) can0 0CEFFF00#6406267DFFFFFFFF
(1547754787.373599) can0 18FEEF00#FFFFFF65FFFFFFFA
(1547754787.377153) can0 0DEF0647#0104FFFFFFFFFFF1
(1547754787.377748) can0 0DEF0603#0101FFFFFFFFFFF5
(1547754787.378942) can0 04EF0006#641519F0C918930E
(1547754787.382448) can0 0CF00400#F0FF9A481CFFFFFF
(1547754787.392315) can0 0CF00300#FF0021FF06FFFFFF
(1547754787.392884) can0 0CEFFF00#6406277DFFFFFFFF
(1547754787.397485) can0 0DEF0603#0101FFFFFFFFFFF5
(1547754787.398677) can0 04EF0006#64151AF00B19930E
(1547754787.402307) can0 0CF00400#F0FF9A481CFFFFFF
(1547754787.412224) can0 0CF00300#FF0021FF06FFFFFF
(1547754787.412793) can0 0CEFFF00#6406277DFFFFFFFF
(1547754787.413393) can0 18FEF200#1F00FFFFFFFFFFFF
(1547754787.417370) can0 0DEF0603#0101FFFFFFFFFFF5
(1547754787.418562) can0 04EF0006#64151BF00B19930E
(1547754787.419134) can0 0CFE4947#FFFFFFFFFFFFFFFF
(1547754787.419730) can0 0CFE4347#0000FFFF3FFFFFFF
(1547754787.420327) can0 0CFE4447#0000FFFF3FFFFFFF
(1547754787.420898) can0 0CFFFE06#5C271D271DFFFFFF
(1547754787.422374) can0 0CF00400#F0FF9A4C1CFFFFFF
(1547754787.432133) can0 0CF00300#FF0020FF06FFFFFF
(1547754787.432703) can0 0CEFFF00#6406267DFFFFFFFF
(1547754787.433276) can0 18EF0600#640E3900FFFFFFFF
(1547754787.437254) can0 0DEF0603#0101FFFFFFFFFFF5
(1547754787.438446) can0 04EF0006#64151CF00B19930E
(1547754787.442076) can0 0CF00400#F0FF9A481CFFFFFF
(1547754787.451993) can0 0CF00300#FF0021FF06FFFFFF
(1547754787.452563) can0 0CEFFF00#6406277DFFFFFFFF
(1547754787.453136) can0 18EFFF00#64100101CE02057D
(1547754787.453708) can0 18FEF600#FF0042FF00FFFFFF
(1547754787.457163) can0 0DEF0603#0101FFFFFFFFFFF5
(1547754787.458331) can0 04EF0006#64151DF00B19930E
(1547754787.458903) can0 18FEF147#FF0000FFFFFFFFFF
(1547754787.459497) can0 18F00503#7DFFFFFFFFFFFFFF
(1547754787.462234) can0 0CF00400#F0FF9A3E1CFFFFFF
(1547754787.471878) can0 18EFFA00#6401FF0000FFFFFF
(1547754787.472448) can0 0CEFFF00#6406287DFFFFFFFF
(1547754787.473021) can0 0CF00300#FF0021FF06FFFFFF
(1547754787.476576) can0 0DEF0647#0104FFFFFFFFFFF1
(1547754787.477194) can0 0DEF0603#0101FFFFFFFFFFF5
(1547754787.478365) can0 04EF0006#64151EF0CC18930E
(1547754787.481845) can0 0CF00400#F0FF9B3C1CFFFFFF
(1547754787.491762) can0 0CF00300#FF0021FF06FFFFFF
(1547754787.492332) can0 0CEFFF00#6406287DFFFFFFFF
(1547754787.496908) can0 0DEF0603#0101FFFFFFFFFFF5
(1547754787.498125) can0 04EF0006#64151FF0CC18930E
(1547754787.498696) can0 0CFE4947#FFFFFFFFFFFFFFFF
(1547754787.499268) can0 18FFFB06#0005AAF8FFFFFFFF
(1547754787.499840) can0 0CFE4347#0000FFFF3FFFFFFF
(1547754787.500462) can0 0CFE4447#0000FFFF3FFFFFFF
(1547754787.501829) can0 0CF00400#F0FF9B361CFFFFFF
(1547754787.511795) can0 0CF00300#FF0022FF06FFFFFF
(1547754787.512367) can0 0CEFFF00#6406287DFFFFFFFF
(1547754787.512937) can0 18FEF200#1F00FFFFFFFFFFFF
(1547754787.516814) can0 0DEF0603#0101FFFFFFFFFFF5
(1547754787.517985) can0 04EF0006#641510F00719930E
(1547754787.521638) can0 0CF00400#F0FF9B261CFFFFFF
(1547754787.531531) can0 0CF00300#FF0022FF06FFFFFF
(1547754787.532101) can0 0CEFFF00#64062A7DFFFFFFFF
(1547754787.532649) can0 18EF0600#640E4300FFFFFFFF
(1547754787.536701) can0 0DEF0603#0101FFFFFFFFFFF5
(1547754787.537869) can0 04EF0006#641511F00B19930E
(1547754787.538440) can0 0CFFFE06#5C271D271DFFFFFF
(1547754787.539010) can0 18FEF147#FF0000FFFFFFFFFF
(1547754787.539610) can0 18F00503#7DFFFFFFFFFFFFFF
(1547754787.541472) can0 0CF00400#F0FF9B2C1CFFFFFF
(1547754787.551713) can0 0CF00300#FF0022FF06FFFFFF
(1547754787.552310) can0 0CEFFF00#6406297DFFFFFFFF
(1547754787.552854) can0 18EFFF00#64100101CC02057D
(1547754787.556561) can0 0DEF0603#0101FFFFFFFFFFF5
(1547754787.557753) can0 04EF0006#641512F01119930E
(1547754787.561383) can0 0CF00400#F0FF9B321CFFFFFF
(1547754787.571299) can0 0CF00300#FF0022FF06FFFFFF
(1547754787.571868) can0 0CEFFF00#6406287DFFFFFFFF
(1547754787.572443) can0 18FEEE00#5343FFFFFFFFFFFF
(1547754787.575998) can0 0DEF0647#0104FFFFFFFFFFF1
(1547754787.576616) can0 0DEF0603#0101FFFFFFFFFFF5
(1547754787.577786) can0 04EF0006#641513F00719930E
(1547754787.581251) can0 0CF00400#F0FF9B281CFFFFFF
(1547754787.591209) can0 0CF00300#FF0022FF06FFFFFF
(1547754787.591778) can0 0CEFFF00#64062A7DFFFFFFFF
(1547754787.596354) can0 0DEF0603#0101FFFFFFFFFFF5
(1547754787.597497) can0 0C000006#30FFFFFFF8FFFFFF
(1547754787.598044) can0 04EF0006#641514F01119930E
(1547754787.601176) can0 0CF00400#F0FF9B201CFFFFFF
(1547754787.601770) can0 18FEDF00#8B201CFFFFFFFFFF
(1547754787.611093) can0 0CF00300#FF0022FF06FFFFFF
(1547754787.611662) can0 0CEFFF00#64062A7DFFFFFFFF
(1547754787.612237) can0 18FEF200#2000FFFFFFFFFFFF
(1547754787.616262) can0 0DEF0603#0101FFFFFFFFFFF5
(1547754787.617455) can0 04EF0006#641515F00B19930E
(1547754787.618027) can0 0CFE4947#FFFFFFFFFFFFFFFF
(1547754787.618622) can0 18FFFB06#0005A9F8FFFFFFFF
(1547754787.619194) can0 0CFE4347#0000FFFF3FFFFFFF
(1547754787.619793) can0 0CFE4447#0000FFFF3FFFFFFF
(1547754787.620321) can0 0CFFFE06#5C271D271DFFFFFF
(1547754787.621078) can0 0CF00400#F0FF9B1E1CFFFFFF
(1547754787.631100) can0 0CF00300#FF0023FF06FFFFFF
(1547754787.631698) can0 0CEFFF00#64062C7DFFFFFFFF
(1547754787.632213) can0 18EF0600#640E4D00FFFFFFFF
(1547754787.636142) can0 0DEF0603#0101FFFFFFFFFFF5
(1547754787.637345) can0 04EF0006#641516F00419930E
(1547754787.641117) can0 0CF00400#F0FF9C141CFFFFFF
(1547754787.650914) can0 0CF00300#FF0024FF06FFFFFF
(1547754787.651481) can0 0CEFFF00#64062D7DFFFFFFFF
(1547754787.652053) can0 18EFFF00#64100101CA02057D
(1547754787.652626) can0 18FEF700#FFFFFFFFFFFFFA00
(1547754787.656055) can0 0DEF0603#0101FFFFFFFFFFF5
(1547754787.657274) can0 04EF0006#641517F00919930E
(1547754787.657845) can0 18FEF147#FF0000FFFFFFFFFF
(1547754787.658442) can0 18F00503#7DFFFFFFFFFFFFFF
(1547754787.660856) can0 0CF00400#F0FF9C0C1CFFFFFF
(1547754787.670746) can0 0CF00300#FF0023FF06FFFFFF
(1547754787.671339) can0 0CEFFF00#64062E7DFFFFFFFF
(1547754787.675494) can0 0DEF0647#0104FFFFFFFFFFF1
(1547754787.676187) can0 0DEF0603#0101FFFFFFFFFFF5
(1547754787.677384) can0 04EF0006#641518F00219930E
(1547754787.680762) can0 0CF00400#F0FF9D121CFFFFFF
(1547754787.690708) can0 0CF00300#FF0023FF06FFFFFF
(1547754787.691275) can0 0CEFFF00#64062E7DFFFFFFFF
(1547754787.695827) can0 0DEF0603#0101FFFFFFFFFFF5
(1547754787.697043) can0 04EF0006#641519F00919930E
(1547754787.697615) can0 0CFE4947#FFFFFFFFFFFFFFFF
(1547754787.698165) can0 0CFFFF47#5DFFFFF3FFFFFFFF
(1547754787.698808) can0 0CFE4347#0000FFFF3FFFFFFF
(1547754787.699405) can0 0CFE4447#0000FFFF3FFFFFFF
(1547754787.700673) can0 0CF00400#F0FF9D141CFFFFFF
(1547754787.710564) can0 0CF00300#FF0024FF06FFFFFF
(1547754787.711135) can0 0CEFFF00#64062D7DFFFFFFFF
(1547754787.711710) can0 18FEF200#2100FFFFFFFFFFFF
(1547754787.715710) can0 0DEF0603#0101FFFFFFFFFFF5
(1547754787.716926) can0 04EF0006#64151AF00919930E
(1547754787.720509) can0 0CF00400#F0FF9C0C1CFFFFFF
(1547754787.730524) can0 0CF00300#FF0024FF06FFFFFF
(1547754787.731094) can0 0CEFFF00#64062F7DFFFFFFFF
(1547754787.731665) can0 18EF0600#640E5700FFFFFFFF
(1547754787.735595) can0 0DEF0603#0101FFFFFFFFFFF5
(1547754787.736810) can0 04EF0006#64151BF00219930E
(1547754787.737383) can0 0CFFFE06#5C271D271DFFFFFF
(1547754787.737953) can0 18FEF147#FF0000FFFFFFFFFF
(1547754787.738550) can0 18FFFB06#0005ACF8FFFFFFFF
(1547754787.739148) can0 18F00503#7DFFFFFFFFFFFFFF
(1547754787.740338) can0 0CF00400#F0FF9D0A1CFFFFFF
(1547754787.750310) can0 0CF00300#FF0024FF06FFFFFF
(1547754787.750880) can0 0CEFFF00#64062F7DFFFFFFFF
(1547754787.751451) can0 18EFFF00#64100101C902057D
(1547754787.751978) can0 18FED500#FFFFFDFFFFFFFFFF
(1547754787.755448) can0 0DEF0603#0101FFFFFFFFFFF5
(1547754787.756698) can0 04EF0006#64151CF00219930E
(1547754787.760277) can0 0CF00400#F0FF9D0A1CFFFFFF
(1547754787.770195) can0 0CF00300#FF0024FF06FFFFFF
(1547754787.770762) can0 0CEFFF00#64062F7DFFFFFFFF
(1547754787.774917) can0 0DEF0647#0104FFFFFFFFFFF1
(1547754787.775510) can0 0DEF0603#0101FFFFFFFFFFF5
(1547754787.776731) can0 04EF0006#64151DF00219930E
(1547754787.777302) can0 18FFFF06#73FFFFFFFFFFFFFF
(1547754787.780163) can0 0CF00400#F0FF9D021CFFFFFF
(1547754787.790051) can0 0CF00300#FF0025FF06FFFFFF
(1547754787.790645) can0 0CEFFF00#6406307DFFFFFFFF
(1547754787.791194) can0 18FDB300#FFFFA428FFFFFFFF
(1547754787.795245) can0 0DEF0603#0101FFFFFFFFFFF5
(1547754787.796439) can0 04EF0006#64151EF01319930E
(1547754787.800043) can0 0CF00400#F0FF9D021CFFFFFF
(1547754787.804964) can0 1CFFFF17#22FFFF3CFFFFFFFF
(1547754787.809986) can0 0CF00300#FF0024FF06FFFFFF
(1547754787.810553) can0 0CEFFF00#6406317DFFFFFFFF
(1547754787.811129) can0 18FEF200#2300FFFFFFFFFFFF
(1547754787.815157) can0 0DEF0603#0101FFFFFFFFFFF5
(1547754787.816376) can0 04EF0006#64151FF01319930E
(1547754787.816948) can0 0CFE4947#FFFFFFFFFFFFFFFF
(1547754787.817517) can0 1CFDDF47#FCFFFFFFFFFFFFFF
(1547754787.818088) can0 0CFE4347#0000FFFF3FFFFFFF
(1547754787.818685) can0 0CFE4447#0000FFFF3FFFFFFF
(1547754787.819212) can0 0CFFFE06#5C271D271DFFFFFF
(1547754787.820021) can0 0CF00400#F0FF9E0E1CFFFFFF
(1547754787.829872) can0 0CF00300#FF0024FF06FFFFFF
(1547754787.830442) can0 0CEFFF00#64062F7DFFFFFFFF
(1547754787.830982) can0 18EF0600#640E6100FFFFFFFF
(1547754787.834986) can0 0DEF0603#0101FFFFFFFFFFF5
(1547754787.836236) can0 04EF0006#641510F00219930E
(1547754787.839815) can0 0CF00400#F0FF9D101CFFFFFF
(1547754787.849736) can0 0CF00300#FF0024FF06FFFFFF
(1547754787.850297) can0 0CEFFF00#64062F7DFFFFFFFF
(1547754787.850870) can0 18EFFF00#64100101CA02057D
(1547754787.851419) can0 18FEDF00#8A201CFFFFFFFFFF
(1547754787.854898) can0 0DEF0603#0101FFFFFFFFFFF5
(1547754787.856090) can0 04EF0006#641511F00919930E
(1547754787.856663) can0 18FEF147#FF0000FFFFFFFFFF
(1547754787.857283) can0 18F00647#FFCFFFFFFFFFFFFF
(1547754787.857856) can0 18FFFB06#0005B2F8FFFFFFFF
(1547754787.858439) can0 18F00503#7DFFFFFFFFFFFFFF
(1547754787.859781) can0 0CF00400#F0FF9D0C1CFFFFFF
(1547754787.869587) can0 0CF00300#FF0024FF06FFFFFF
(1547754787.870182) can0 0CEFFF00#6406307DFFFFFFFF
(1547754787.870731) can0 18FEEF00#FFFFFF64FFFFFFFA
(1547754787.874299) can0 0DEF0647#0104FFFFFFFFFFF1
(1547754787.874904) can0 0DEF0603#0101FFFFFFFFFFF5
(1547754787.876125) can0 04EF0006#641512F00219930E
(1547754787.879582) can0 0CF00400#F0FF9D101CFFFFFF
(1547754787.889501) can0 0CF00300#FF0024FF06FFFFFF
(1547754787.890072) can0 0CEFFF00#64062F7DFFFFFFFF
(1547754787.894670) can0 0DEF0603#0101FFFFFFFFFFF5
(1547754787.895885) can0 04EF0006#641513F00919930E
(1547754787.896460) can0 0CFE4947#FFFFFFFFFFFFFFFF
(1547754787.897079) can0 0CFE4347#0000FFFF3FFFFFFF
(1547754787.897654) can0 0CFE4447#0000FFFF3FFFFFFF
(1547754787.899565) can0 0CF00400#F0FF9D0E1CFFFFFF
(1547754787.909504) can0 0CF00300#FF0025FF06FFFFFF
(1547754787.910079) can0 0CEFFF00#6406307DFFFFFFFF
(1547754787.910675) can0 18FEF200#2300FFFFFFFFFFFF
(1547754787.914552) can0 0DEF0603#0101FFFFFFFFFFF5
(1547754787.915770) can0 04EF0006#641514F00219930E
(1547754787.919353) can0 0CF00400#F0FF9D041CFFFFFF
(1547754787.929272) can0 0CF00300#FF0025FF06FFFFFF
(1547754787.929835) can0 0CEFFF00#6406317DFFFFFFFF
(1547754787.930384) can0 18EF0600#640E6B00FFFFFFFF
(1547754787.934411) can0 0DEF0603#0101FFFFFFFFFFF5
(1547754787.935654) can0 04EF0006#641515F01319930E
(1547754787.936201) can0 0CFFFE06#5C271D271DFFFFFF
(1547754787.936795) can0 18FEF147#FF0000FFFFFFFFFF
(1547754787.937369) can0 18F00503#7DFFFFFFFFFFFFFF
(1547754787.939233) can0 0CF00400#F0FF9E0C1CFFFFFF
(1547754787.949400) can0 0CF00300#FF0024FF06FFFFFF
(1547754787.949969) can0 0CEFFF00#6406307DFFFFFFFF
(1547754787.950540) can0 18EFFF00#64100101CA02057D
(1547754787.951114) can0 18FEF600#FF0041FF00FFFFFF
(1547754787.954282) can0 0DEF0603#0101FFFFFFFFFFF5
(1547754787.955513) can0 04EF0006#641516F00219930E
(1547754787.959117) can0 0CF00400#F0FF9D161CFFFFFF
(1547754787.969038) can0 0CF00300#FF0024FF06FFFFFF
(1547754787.969610) can0 0CEFFF00#64062F7DFFFFFFFF
(1547754787.973764) can0 0DEF0647#0104FFFFFFFFFFF1
(1547754787.974334) can0 0DEF0603#0101FFFFFFFFFFF5
(1547754787.975547) can0 04EF0006#641517F00919930E
(1547754787.976119) can0 18FFFB06#0005B2F8FFFFFFFF
(1547754787.978979) can0 0CF00400#F0FF9D141CFFFFFF
(1547754787.989044) can0 0CF00300#FF0024FF06FFFFFF
(1547754787.989623) can0 0CEFFF00#64062F7DFFFFFFFF
(1547754787.994058) can0 0DEF0603#0101FFFFFFFFFFF5
(1547754787.995307) can0 04EF0006#641518F00919930E
(1547754787.998985) can0 0CF00400#F0FF9D121CFFFFFF
(1547754787.999607) can0 18FFFA00#022C0000180C0081
(1547754788.008861) can0 0CF00300#FF0024FF06FFFFFF
(1547754788.009400) can0 0CEFFF00#6406307DFFFFFFFF
(1547754788.010005) can0 18FEF200#2300FFFFFFFFFFFF
(1547754788.013957) can0 0DEF0603#0101FFFFFFFFFFF5
(1547754788.015203) can0 04EF0006#641519F00919930E
(1547754788.015779) can0 0CFE4947#FFFFFFFFFFFFFFFF
(1547754788.016372) can0 0CFE4347#0000FFFF3FFFFFFF
(1547754788.016969) can0 0CFE4447#0000FFFF3FFFFFFF
(1547754788.017544) can0 0CFFFE06#5C271D271DFFFFFF
(1547754788.018810) can0 0CF00400#F0FF9D141CFFFFFF
(1547754788.028713) can0 0CF00300#FF0024FF06FFFFFF
(1547754788.029279) can0 0CEFFF00#6406307DFFFFFFFF
(1547754788.029852) can0 18EF0600#640E7500FFFFFFFF
(1547754788.030411) can0 18FEF500#C8FFFFFFFF3DFFFF
(1547754788.033845) can0 0DEF0603#0101FFFFFFFFFFF5
(1547754788.035074) can0 04EF0006#64151AF00919930E
(1547754788.039056) can0 0CF00400#F0FF9D101CFFFFFF
(1547754788.048607) can0 0CF00300#FF0025FF06FFFFFF
(1547754788.049176) can0 0CEFFF00#6406307DFFFFFFFF
(1547754788.049750) can0 18EFFF00#64100101CB02057D
(1547754788.053779) can0 0DEF0603#0101FFFFFFFFFFF5
(1547754788.054998) can0 04EF0006#64151BF00919930E
(1547754788.055546) can0 18FEF147#FF0000FFFFFFFFFF
(1547754788.056165) can0 18F00503#7DFFFFFFFFFFFFFF
(1547754788.058555) can0 0CF00400#F0FF9D0A1CFFFFFF
(1547754788.068504) can0 0CF00300#FF0025FF06FFFFFF
(1547754788.069073) can0 0CEFFF00#6406317DFFFFFFFF
(1547754788.069622) can0 18FE6900#46259627FFFF60FE
(1547754788.073230) can0 0DEF0647#0104FFFFFFFFFFF1
(1547754788.073824) can0 0DEF0603#0101FFFFFFFFFFF5
(1547754788.075020) can0 04EF0006#64151CF00219930E
(1547754788.078527) can0 0CF00400#F0FF9E121CFFFFFF
(1547754788.088451) can0 0CF00300#FF0024FF06FFFFFF
(1547754788.089021) can0 0CEFFF00#6406307DFFFFFFFF
(1547754788.093549) can0 0DEF0603#0101FFFFFFFFFFF5
(1547754788.094767) can0 04EF0006#64151DF00919930E
(1547754788.095367) can0 0CFE4947#FFFFFFFFFFFFFFFF
(1547754788.095936) can0 18FFFB06#0005B5F8FFFFFFFF
(1547754788.096509) can0 0CFE4347#0000FFFF3FFFFFFF
(1547754788.097105) can0 0CFE4447#0000FFFF3FFFFFFF
(1547754788.098376) can0 0CF00400#F0FF9D1A1CFFFFFF
(1547754788.098944) can0 18FEDF00#8A201CFFFFFFFFFF
(1547754788.108324) can0 0CF00300#FF0024FF06FFFFFF
(1547754788.108894) can0 0CEFFF00#64062F7DFFFFFFFF
(1547754788.109442) can0 18FEF200#2300FFFFFFFFFFFF
(1547754788.112552) can0 18EAFF06#E5FE00
(1547754788.113496) can0 0DEF0603#0101FFFFFFFFFFF5
(1547754788.114764) can0 04EF0006#64151EF00419930E
(1547754788.118372) can0 0CF00400#F0FF9D121CFFFFFF
(1547754788.128347) can0 0CF00300#FF0025FF06FFFFFF
(1547754788.128918) can0 0CEFFF00#6406307DFFFFFFFF
(1547754788.129488) can0 18EF0600#640E7F00FFFFFFFF
(1547754788.133370) can0 0DEF0603#0101FFFFFFFFFFF5
(1547754788.134587) can0 04EF0006#64151FF00919930E
(1547754788.135110) can0 0CFFFE06#5C271D271DFFFFFF
(1547754788.135706) can0 18FEF147#FF0000FFFFFFFFFF
(1547754788.136280) can0 18FEE706#CC0A0000FFFFFFFF
(1547754788.136902) can0 18F00503#7DFFFFFFFFFFFFFF
(1547754788.138158) can0 0CF00400#F0FF9D101CFFFFFF
(1547754788.148069) can0 0CF00300#FF0025FF06FFFFFF
(1547754788.148663) can0 0CEFFF00#6406317DFFFFFFFF
(1547754788.149213) can0 18EFFF00#64100101CB02057D
(1547754788.150502) can0 18FEE500#CC0A0000FFFFFFFF
(1547754788.153267) can0 0DEF0603#0101FFFFFFFFFFF5
(1547754788.154510) can0 04EF0006#641510F00919930E
(1547754788.158043) can0 0CF00400#F0FF9E0E1CFFFFFF
(1547754788.167992) can0 0CF00300#FF0025FF06FFFFFF
(1547754788.168555) can0 0CEFFF00#6406317DFFFFFFFF
(1547754788.172746) can0 0DEF0647#0104FFFFFFFFFFF1
(1547754788.173414) can0 0DEF0603#0101FFFFFFFFFFF5
(1547754788.174657) can0 04EF0006#641511F00219930E
(1547754788.178018) can0 0CF00400#F0FF9E061CFFFFFF
(1547754788.187893) can0 0CF00300#FF0026FF06FFFFFF
(1547754788.188462) can0 0CEFFF00#6406327DFFFFFFFF
(1547754788.189033) can0 18FD7C00#F880F1F000CF03FD
(1547754788.193089) can0 0DEF0603#0101FFFFFFFFFFF5
(1547754788.194306) can0 04EF0006#641512F01319930E
(1547754788.197869) can0 0CF00400#F0FF9E061CFFFFFF
(1547754788.207911) can0 0CF00300#FF0025FF06FFFFFF
(1547754788.208483) can0 0CEFFF00#6406337DFFFFFFFF
(1547754788.209081) can0 18FEF200#2400FFFFFFFFFFFF
(1547754788.212991) can0 0DEF0603#0101FFFFFFFFFFF5
(1547754788.214205) can0 04EF0006#641513F01319930E
(1547754788.214803) can0 0CFE4947#FFFFFFFFFFFFFFFF
(1547754788.215374) can0 18FFFB06#0005B4F8FFFFFFFF
(1547754788.215945) can0 0CFFFF47#5DFFFFF3FFFFFFFF
(1547754788.216544) can0 0CFE4347#0000FFFF3FFFFFFF
(1547754788.217086) can0 0CFE4447#0000FFFF3FFFFFFF
(1547754788.217679) can0 0CFFFE06#5C271D271DFFFFFF
(1547754788.218286) can0 0CF00400#F0FF9E0C1CFFFFFF
(1547754788.227679) can0 0CF00300#FF0025FF06FFFFFF
(1547754788.228248) can0 0CEFFF00#6406327DFFFFFFFF
(1547754788.228824) can0 18EF0600#640E8900FFFFFFFF
(1547754788.232854) can0 0DEF0603#0101FFFFFFFFFFF5
(1547754788.234076) can0 04EF0006#641514F00219930E
(1547754788.237688) can0 0CF00400#F0FF9E0C1CFFFFFF
(1547754788.247583) can0 0CF00300#FF0025FF06FFFFFF
(1547754788.248155) can0 0CEFFF00#6406327DFFFFFFFF
(1547754788.248700) can0 18EFFF00#64100101CB02057D
(1547754788.252760) can0 0DEF0603#0101FFFFFFFFFFF5
(1547754788.253937) can0 04EF0006#641515F00219930E
(1547754788.254516) can0 18FEF147#FF0000FFFFFFFFFF
(1547754788.255101) can0 18FFFB06#001BFFFFFFFFFFFF
(1547754788.255700) can0 18F00503#7DFFFFFFFFFFFFFF
(1547754788.257555) can0 0CF00400#F0FF9E081CFFFFFF
(1547754788.267507) can0 0CF00300#FF0026FF06FFFFFF
(1547754788.268094) can0 0CEFFF00#6406337DFFFFFFFF
(1547754788.272235) can0 0DEF0647#0104FFFFFFFFFFF1
(1547754788.272826) can0 0DEF0603#0101FFFFFFFFFFF5
(1547754788.274021) can0 04EF0006#641516F00219930E
(1547754788.277481) can0 0CF00400#F0FF9E0C1CFFFFFF
(1547754788.287403) can0 0CF00300#FF0026FF06FFFFFF
(1547754788.287972) can0 0CEFFF00#6406327DFFFFFFFF
(1547754788.288547) can0 18FDB300#FFFF9628FFFFFFFF
(1547754788.289119) can0 1CEFFF00#64070000FFFFFFFF
(1547754788.292577) can0 0DEF0603#0101FFFFFFFFFFF5
(1547754788.293739) can0 04EF0006#641517F00219930E
(1547754788.294368) can0 0CFE4947#FFFFFFFFFFFFFFFF
(1547754788.294963) can0 18FE6847#3CFFFFFFFFFFFFFF
(1547754788.295537) can0 0CFE4347#0000FFFF3FFFFFFF
(1547754788.296080) can0 18FFFF06#73FFFFFFFFFFFFFF
(1547754788.296656) can0 0CFE4447#0000FFFF3FFFFFFF
(1547754788.297427) can0 0CF00400#F0FF9E0C1CFFFFFF
(1547754788.307427) can0 0CF00300#FF0026FF06FFFFFF
(1547754788.307996) can0 0CEFFF00#6406337DFFFFFFFF
(1547754788.308569) can0 18FEF200#2400FFFFFFFFFFFF
(1547754788.312475) can0 0DEF0603#0101FFFFFFFFFFF5
(1547754788.313696) can0 04EF0006#641518F00219930E
(1547754788.317273) can0 0CF00400#F0FF9E001CFFFFFF
(1547754788.327172) can0 0CF00300#FF0026FF06FFFFFF
(1547754788.327748) can0 0CEFFF00#6406347DFFFFFFFF
(1547754788.328318) can0 18EF0600#640E9300FFFFFFFF
(1547754788.332352) can0 0DEF0603#0101FFFFFFFFFFF5
(1547754788.333539) can0 04EF0006#641519F01319930E
(1547754788.334137) can0 0CFFFF47#5EFFFFFFFFFFFFFF
(1547754788.334707) can0 18FEF147#FF0000FFFFFFFFFF
(1547754788.335280) can0 0CFFFE06#5C271D271DFFFFFF
(1547754788.335853) can0 18FEFC47#FFFFFFFFFFFFFFFF
(1547754788.336410) can0 18EF0047#F220610FFFFFFFFF
(1547754788.337008) can0 18F00647#FFCFFFFFFFFFFFFF
(1547754788.337593) can0 0CF00400#F0FF9F081CFFFFFF
(1547754788.338191) can0 1CFDDF47#FCFFFFFFFFFFFFFF
(1547754788.338787) can0 18F00503#7DFFFFFFFFFFFFFF
(1547754788.347168) can0 0CF00300#FF0026FF06FFFFFF
(1547754788.347741) can0 0CEFFF00#6406337DFFFFFFFF
(1547754788.348285) can0 18EFFF00#64100101CC02057D
(1547754788.348861) can0 18FEDF00#8A201CFFFFFFFFFF
(1547754788.352243) can0 0DEF0603#0101FFFFFFFFFFF5
(1547754788.353436) can0 04EF0006#64151AF00219930E
(1547754788.357044) can0 0CF00400#F0FF9E121CFFFFFF
(1547754788.366968) can0 0CF00300#FF0025FF06FFFFFF
(1547754788.367539) can0 0CEFFF00#6406327DFFFFFFFF
(1547754788.368113) can0 18FEEF00#FFFFFF64FFFFFFFA
(1547754788.371721) can0 0DEF0647#0104FFFFFFFFFFF1
(1547754788.372317) can0 0DEF0603#0101FFFFFFFFFFF5
(1547754788.373535) can0 04EF0006#64151BF00919930E
(1547754788.374083) can0 18FFFB06#0005B5F8FFFFFFFF
(1547754788.376966) can0 0CF00400#F0FF9E0E1CFFFFFF
(1547754788.386965) can0 0CF00300#FF0026FF06FFFFFF
(1547754788.387562) can0 0CEFFF00#6406337DFFFFFFFF
(1547754788.392067) can0 0DEF0603#0101FFFFFFFFFFF5
(1547754788.393282) can0 04EF0006#64151CF00219930E
(1547754788.396995) can0 0CF00400#F0FF9E101CFFFFFF
(1547754788.406788) can0 0CF00300#FF0026FF06FFFFFF
(1547754788.407359) can0 0CEFFF00#6406337DFFFFFFFF
(1547754788.407957) can0 18FEF200#2400FFFFFFFFFFFF
(1547754788.411963) can0 0DEF0603#0101FFFFFFFFFFF5
(1547754788.413179) can0 04EF0006#64151DF00919930E
(1547754788.413756) can0 0CFE4947#FFFFFFFFFFFFFFFF
(1547754788.414348) can0 0CFE4347#0000FFFF3FFFFFFF
(1547754788.414947) can0 0CFE4447#0000FFFF3FFFFFFF
(1547754788.415517) can0 0CFFFE06#5C271D271DFFFFFF
(1547754788.416732) can0 0CF00400#F0FF9E141CFFFFFF
(1547754788.426738) can0 0CF00300#FF0025FF06FFFFFF
(1547754788.427306) can0 0CEFFF00#6406327DFFFFFFFF
(1547754788.427854) can0 18EF0600#640E9D00FFFFFFFF
(1547754788.431828) can0 0DEF0603#0101FFFFFFFFFFF5
(1547754788.433052) can0 04EF0006#64151EF00919930E
(1547754788.436913) can0 0CF00400#F0FF9E141CFFFFFF
(1547754788.446587) can0 0CF00300#FF0026FF06FFFFFF
(1547754788.447154) can0 0CEFFF00#6406327DFFFFFFFF
(1547754788.447727) can0 18EFFF00#64100101CD02057D
(1547754788.448274) can0 18FEF600#FF0040FF00FFFFFF
(1547754788.451761) can0 0DEF0603#0101FFFFFFFFFFF5
(1547754788.452976) can0 04EF0006#64151FF00919930E
(1547754788.453549) can0 18FEF147#FF0000FFFFFFFFFF
(1547754788.454144) can0 18F00503#7DFFFFFFFFFFFFFF
(1547754788.456533) can0 0CF00400#F0FF9E121CFFFFFF
(1547754788.461486) can0 1CFFFF17#22FFFF3CFFFFFFFF
(1547754788.466460) can0 18EFFA00#6401FF0000FFFFFF
(1547754788.467027) can0 0CEFFF00#6406337DFFFFFFFF
(1547754788.467601) can0 0CF00300#FF0025FF06FFFFFF
(1547754788.471209) can0 0DEF0647#0104FFFFFFFFFFF1
(1547754788.471805) can0 0DEF0603#0101FFFFFFFFFFF5
(1547754788.472998) can0 04EF0006#641510F00919930E
(1547754788.476531) can0 0CF00400#F0FF9E1C1CFFFFFF
(1547754788.486483) can0 0CF00300#FF0024FF06FFFFFF
(1547754788.487049) can0 0CEFFF00#6406327DFFFFFFFF
(1547754788.491526) can0 0DEF0603#0101FFFFFFFFFFF5
(1547754788.492768) can0 04EF0006#641511F00419930E
(1547754788.493317) can0 0CFE4947#FFFFFFFFFFFFFFFF
(1547754788.493888) can0 18FFFB06#0005B5F8FFFFFFFF
(1547754788.494513) can0 0CFE4347#0000FFFF3FFFFFFF
(1547754788.495109) can0 0CFE4447#0000FFFF3FFFFFFF
(1547754788.496377) can0 0CF00400#F0FF9E261CFFFFFF
(1547754788.506282) can0 0CF00300#FF0024FF06FFFFFF
(1547754788.506847) can0 0CEFFF00#64062F7DFFFFFFFF
(1547754788.507448) can0 18FEF200#2300FFFFFFFFFFFF
(1547754788.511396) can0 0DEF0603#0101FFFFFFFFFFF5
(1547754788.512618) can0 04EF0006#641512F00B19930E
(1547754788.516254) can0 0CF00400#F0FF9D201CFFFFFF
(1547754788.526445) can0 0CF00300#FF0025FF06FFFFFF
(1547754788.527047) can0 0CEFFF00#6406307DFFFFFFFF
(1547754788.527615) can0 18EF0600#640EA700FFFFFFFF
(1547754788.531326) can0 0DEF0603#0101FFFFFFFFFFF5
(1547754788.532517) can0 04EF0006#641513F00B19930E
(1547754788.533090) can0 0CFFFE06#5C271D271DFFFFFF
(1547754788.533661) can0 18FEF147#FF0000FFFFFFFFFF
(1547754788.534257) can0 18F00503#7DFFFFFFFFFFFFFF
(1547754788.536122) can0 0CF00400#F0FF9E261CFFFFFF
(1547754788.546075) can0 0CF00300#FF0024FF06FFFFFF
(1547754788.546643) can0 0CEFFF00#64062F7DFFFFFFFF
(1547754788.547193) can0 18EFFF00#64100101CE02057D
(1547754788.551223) can0 0DEF0603#0101FFFFFFFFFFF5
(1547754788.552437) can0 04EF0006#641514F00B19930E
(1547754788.556048) can0 0CF00400#F0FF9D2A1CFFFFFF
(1547754788.565999) can0 0CF00300#FF0024FF06FFFFFF
(1547754788.566562) can0 0CEFFF00#64062F7DFFFFFFFF
(1547754788.567137) can0 18FEEE00#5344FFFFFFFFFFFF
(1547754788.570669) can0 0DEF0647#0104FFFFFFFFFFF1
(1547754788.571264) can0 0DEF0603#0101FFFFFFFFFFF5
(1547754788.572435) can0 04EF0006#641515F01119930E
(1547754788.575992) can0 0CF00400#F0FF9D261CFFFFFF
(1547754788.585868) can0 0CF00300#FF0024FF06FFFFFF
(1547754788.586439) can0 0CEFFF00#64062F7DFFFFFFFF
(1547754788.591049) can0 0DEF0603#0101FFFFFFFFFFF5
(1547754788.592160) can0 0C000006#30FFFFFFF8FFFFFF
(1547754788.592704) can0 04EF0006#641516F00B19930E
(1547754788.595815) can0 0CF00400#F0FF9D281CFFFFFF
(1547754788.596385) can0 18FEDF00#8B201CFFFFFFFFFF
(1547754788.605888) can0 0CF00300#FF0024FF06FFFFFF
(1547754788.606459) can0 0CEFFF00#64062F7DFFFFFFFF
(1547754788.607030) can0 18FEF200#2300FFFFFFFFFFFF
(1547754788.610943) can0 0DEF0603#0101FFFFFFFFFFF5
(1547754788.612107) can0 04EF0006#641517F01119930E
(1547754788.612678) can0 0CFE4947#FFFFFFFFFFFFFFFF
(1547754788.613275) can0 18FFFB06#0005AFF8FFFFFFFF
(1547754788.613847) can0 0CFE4347#0000FFFF3FFFFFFF
(1547754788.614446) can0 0CFE4447#0000FFFF3FFFFFFF
(1547754788.614975) can0 0CFFFE06#5C271D271DFFFFFF
(1547754788.615947) can0 0CF00400#F0FF9D301CFFFFFF
(1547754788.625715) can0 0CF00300#FF0023FF06FFFFFF
(1547754788.626282) can0 0CEFFF00#64062E7DFFFFFFFF
(1547754788.626822) can0 18EF0600#640EB100FFFFFFFF
(1547754788.630783) can0 0DEF0603#0101FFFFFFFFFFF5
(1547754788.632004) can0 04EF0006#641518F00719930E
(1547754788.635615) can0 0CF00400#F0FF9D321CFFFFFF
(1547754788.645536) can0 0CF00300#FF0024FF06FFFFFF
(1547754788.646132) can0 0CEFFF00#64062E7DFFFFFFFF
(1547754788.646703) can0 18EFFF00#64100101CF02057D
(1547754788.647276) can0 18FEF700#FFFFFFFFFFFF1801
(1547754788.650704) can0 0DEF0603#0101FFFFFFFFFFF5
(1547754788.651902) can0 04EF0006#641519F00719930E
(1547754788.652474) can0 18FEF147#FF0000FFFFFFFFFF
(1547754788.653070) can0 18F00503#7DFFFFFFFFFFFFFF
(1547754788.655533) can0 0CF00400#F0FF9D2E1CFFFFFF
(1547754788.665459) can0 0CF00300#FF0024FF06FFFFFF
(1547754788.666052) can0 0CEFFF00#64062E7DFFFFFFFF
(1547754788.670160) can0 0DEF0647#0104FFFFFFFFFFF1
(1547754788.670854) can0 0DEF0603#0101FFFFFFFFFFF5
(1547754788.672023) can0 04EF0006#64151AF01119930E
(1547754788.675435) can0 0CF00400#F0FF9D301CFFFFFF
(1547754788.685324) can0 0CF00300#FF0024FF06FFFFFF
(1547754788.685949) can0 0CEFFF00#64062E7DFFFFFFFF
(1547754788.690509) can0 0DEF0603#0101FFFFFFFFFFF5
(1547754788.691694) can0 04EF0006#64151BF00719930E
(1547754788.692268) can0 0CFE4947#FFFFFFFFFFFFFFFF
(1547754788.692864) can0 0CFFFF47#5DFFFFF3FFFFFFFF
(1547754788.693437) can0 0CFE4347#0000FFFF3FFFFFFF
(1547754788.694034) can0 0CFE4447#0000FFFF3FFFFFFF
(1547754788.695326) can0 0CF00400#F0FF9D301CFFFFFF
(1547754788.705326) can0 0CF00300#FF0024FF06FFFFFF
(1547754788.705922) can0 0CEFFF00#64062D7DFFFFFFFF
(1547754788.706493) can0 18FEF200#2300FFFFFFFFFFFF
(1547754788.710363) can0 0DEF0603#0101FFFFFFFFFFF5
(1547754788.711568) can0 04EF0006#64151CF00719930E
(1547754788.715226) can0 0CF00400#F0FF9D221CFFFFFF
(1547754788.725124) can0 0CF00300#FF0024FF06FFFFFF
(1547754788.725694) can0 0CEFFF00#64062F7DFFFFFFFF
(1547754788.726267) can0 18EF0600#640EBB00FFFFFFFF
(1547754788.730297) can0 0DEF0603#0101FFFFFFFFFFF5
(1547754788.731466) can0 04EF0006#64151DF00B19930E
(1547754788.732038) can0 0CFFFE06#5C271D271DFFFFFF
(1547754788.732609) can0 18FEF147#FF0000FFFFFFFFFF
(1547754788.733207) can0 18F00503#7DFFFFFFFFFFFFFF
(1547754788.735099) can0 0CF00400#F0FF9D281CFFFFFF
(1547754788.745121) can0 0CF00300#FF0024FF06FFFFFF
(1547754788.745693) can0 0CEFFF00#64062E7DFFFFFFFF
(1547754788.746262) can0 18EFFF00#64100101CF02057D
(1547754788.746837) can0 18FED500#FFFFFDFFFFFFFFFF
(1547754788.750181) can0 0DEF0603#0101FFFFFFFFFFF5
(1547754788.751363) can0 04EF0006#64151EF01119930E
(1547754788.754996) can0 0CF00400#F0FF9D301CFFFFFF
(1547754788.764944) can0 0CF00300#FF0023FF06FFFFFF
(1547754788.765516) can0 0CEFFF00#64062D7DFFFFFFFF
(1547754788.769594) can0 0DEF0647#0104FFFFFFFFFFF1
(1547754788.770265) can0 0DEF0603#0101FFFFFFFFFFF5
(1547754788.771436) can0 04EF0006#64151FF00719930E
(1547754788.772010) can0 18FFFF06#73FFFFFFFFFFFFFF
(1547754788.774922) can0 0CF00400#F0FF9D281CFFFFFF
(1547754788.784922) can0 0CF00300#FF0024FF06FFFFFF
(1547754788.785516) can0 0CEFFF00#64062E7DFFFFFFFF
(1547754788.786022) can0 18FDB300#FFFF9628FFFFFFFF
(1547754788.790018) can0 0DEF0603#0101FFFFFFFFFFF5
(1547754788.791185) can0 04EF0006#641510F01119930E
(1547754788.794966) can0 0CF00400#F0FF9D241CFFFFFF
(1547754788.804768) can0 0CF00300#FF0024FF06FFFFFF
(1547754788.805335) can0 0CEFFF00#64062F7DFFFFFFFF
(1547754788.805908) can0 18FEF200#2300FFFFFFFFFFFF
(1547754788.809854) can0 0DEF0603#0101FFFFFFFFFFF5
(1547754788.811080) can0 04EF0006#641511F00B19930E
(1547754788.811654) can0 0CFE4947#FFFFFFFFFFFFFFFF
(1547754788.812224) can0 1CFDDF47#FCFFFFFFFFFFFFFF
(1547754788.812798) can0 0CFE4347#0000FFFF3FFFFFFF
(1547754788.813397) can0 0CFE4447#0000FFFF3FFFFFFF
(1547754788.813976) can0 0CFFFE06#5C271D271DFFFFFF
(1547754788.814724) can0 0CF00400#F0FF9D241CFFFFFF
(1547754788.824666) can0 0CF00300#FF0024FF06FFFFFF
(1547754788.825235) can0 0CEFFF00#64062F7DFFFFFFFF
(1547754788.825778) can0 18EF0600#640EC500FFFFFFFF
(1547754788.829778) can0 0DEF0603#0101FFFFFFFFFFF5
(1547754788.831005) can0 04EF0006#641512F00B19930E
(1547754788.834840) can0 0CF00400#F0FF9D221CFFFFFF
(1547754788.844509) can0 0CF00300#FF0024FF06FFFFFF
(1547754788.845079) can0 0CEFFF00#64062F7DFFFFFFFF
(1547754788.845654) can0 18EFFF00#64100101CE02057D
(1547754788.846226) can0 18FEDF00#8B201CFFFFFFFFFF
(1547754788.849683) can0 0DEF0603#0101FFFFFFFFFFF5
(1547754788.850851) can0 04EF0006#641513F00B19930E
(1547754788.851449) can0 18FEF147#FF0000FFFFFFFFFF
(1547754788.852044) can0 18F00647#FFCFFFFFFFFFFFFF
(1547754788.852643) can0 18F00503#7DFFFFFFFFFFFFFF
(1547754788.854497) can0 0CF00400#F0FF9D1E1CFFFFFF
(1547754788.864432) can0 0CF00300#FF0024FF06FFFFFF
(1547754788.865002) can0 0CEFFF00#6406307DFFFFFFFF
(1547754788.865552) can0 18FEEF00#FFFFFF64FFFFFFFA
(1547754788.869133) can0 0DEF0647#0104FFFFFFFFFFF1
(1547754788.869754) can0 0DEF0603#0101FFFFFFFFFFF5
(1547754788.870948) can0 04EF0006#641514F00419930E
(1547754788.874455) can0 0CF00400#F0FF9D261CFFFFFF
(1547754788.884404) can0 0CF00300#FF0024FF06FFFFFF
(1547754788.884976) can0 0CEFFF00#64062E7DFFFFFFFF
(1547754788.889479) can0 0DEF0603#0101FFFFFFFFFFF5
(1547754788.890660) can0 04EF0006#641515F00B19930E
(1547754788.891245) can0 0CFE4947#FFFFFFFFFFFFFFFF
(1547754788.891840) can0 0CFE4347#0000FFFF3FFFFFFF
(1547754788.892438) can0 0CFE4447#0000FFFF3FFFFFFF
(1547754788.894303) can0 0CF00400#F0FF9D2C1CFFFFFF
(1547754788.904202) can0 0CF00300#FF0024FF06FFFFFF
(1547754788.904772) can0 0CEFFF00#64062D7DFFFFFFFF
(1547754788.905334) can0 18FEF200#2300FFFFFFFFFFFF
(1547754788.909344) can0 0DEF0603#0101FFFFFFFFFFF5
(1547754788.910544) can0 04EF0006#641516F01119930E
(1547754788.914276) can0 0CF00400#F0FF9D221CFFFFFF
(1547754788.924249) can0 0CF00300#FF0024FF06FFFFFF
(1547754788.924829) can0 0CEFFF00#64062F7DFFFFFFFF
(1547754788.925366) can0 18EF0600#640ECF00FFFFFFFF
(1547754788.929273) can0 0DEF0603#0101FFFFFFFFFFF5
(1547754788.930467) can0 04EF0006#641517F00B19930E
(1547754788.931014) can0 0CFFFE06#5C271D271DFFFFFF
(1547754788.931559) can0 18FEF147#FF0000FFFFFFFFFF
(1547754788.932182) can0 18F00503#7DFFFFFFFFFFFFFF
(1547754788.934074) can0 0CF00400#F0FF9D221CFFFFFF
(1547754788.944000) can0 0CF00300#FF0024FF06FFFFFF
(1547754788.944568) can0 0CEFFF00#64062F7DFFFFFFFF
(1547754788.945140) can0 18EFFF00#64100101CE02057D
(1547754788.945714) can0 18FEF600#FF0040FF00FFFFFF
(1547754788.949157) can0 0DEF0603#0101FFFFFFFFFFF5
(1547754788.950364) can0 04EF0006#641518F00B19930E
(1547754788.953972) can0 0CF00400#F0FF9D221CFFFFFF
(1547754788.963896) can0 0CF00300#FF0024FF06FFFFFF
(1547754788.964489) can0 0CEFFF00#64062F7DFFFFFFFF
(1547754788.968622) can0 0DEF0647#0104FFFFFFFFFFF1
(1547754788.969216) can0 0DEF0603#0101FFFFFFFFFFF5
(1547754788.970386) can0 04EF0006#641519F00B19930E
(1547754788.973944) can0 0CF00400#F0FF9D1C1CFFFFFF
(1547754788.983793) can0 0CF00300#FF0025FF06FFFFFF
(1547754788.984387) can0 0CEFFF00#6406307DFFFFFFFF
(1547754788.988991) can0 0DEF0603#0101FFFFFFFFFFF5
(1547754788.990208) can0 04EF0006#64151AF00419930E
(1547754788.993766) can0 0CF00400#F0FF9D1E1CFFFFFF
(1547754788.994336) can0 18FFFA00#022C0000180C0081
(1547754789.003792) can0 0CF00300#FF0024FF06FFFFFF
(1547754789.004361) can0 0CEFFF00#6406307DFFFFFFFF
(1547754789.004956) can0 18FEF200#2300FFFFFFFFFFFF
(1547754789.008889) can0 0DEF0603#0101FFFFFFFFFFF5
(1547754789.010108) can0 04EF0006#64151BF00419930E
(1547754789.010680) can0 0CFE4947#FFFFFFFFFFFFFFFF
(1547754789.011251) can0 0CFE4347#0000FFFF3FFFFFFF
(1547754789.011874) can0 0CFE4447#0000FFFF3FFFFFFF
(1547754789.012422) can0 0CFFFE06#5C271D271DFFFFFF
(1547754789.013829) can0 0CF00400#F0FF9D241CFFFFFF
(1547754789.023622) can0 0CF00300#FF0024FF06FFFFFF
(1547754789.024216) can0 0CEFFF00#64062E7DFFFFFFFF
(1547754789.024791) can0 18EF0600#640ED900FFFFFFFF
(1547754789.025327) can0 18FEF500#C8FFFFFFFF3DFFFF
(1547754789.028761) can0 0DEF0603#0101FFFFFFFFFFF5
(1547754789.029967) can0 04EF0006#64151CF00B19930E
(1547754789.033577) can0 0CF00400#F0FF9D261CFFFFFF
(1547754789.043506) can0 0CF00300#FF0024FF06FFFFFF
(1547754789.044075) can0 0CEFFF00#64062E7DFFFFFFFF
(1547754789.044627) can0 18EFFF00#64100101CF02057D
(1547754789.048683) can0 0DEF0603#0101FFFFFFFFFFF5
(1547754789.049876) can0 04EF0006#64151DF00B19930E
(1547754789.050449) can0 18FEF147#FF0000FFFFFFFFFF
(1547754789.051043) can0 18F00503#7DFFFFFFFFFFFFFF
(1547754789.053561) can0 0CF00400#F0FF9D221CFFFFFF
(1547754789.063440) can0 0CF00300#FF0024FF06FFFFFF
(1547754789.064010) can0 0CEFFF00#64062E7DFFFFFFFF
(1547754789.064584) can0 18FE6900#1A259827FFFF60FE
(1547754789.068144) can0 0DEF0647#0104FFFFFFFFFFF1
(1547754789.068763) can0 0DEF0603#0101FFFFFFFFFFF5
(1547754789.069935) can0 04EF0006#64151EF00B19930E
(1547754789.073395) can0 0CF00400#F0FF9D241CFFFFFF
(1547754789.083323) can0 0CF00300#FF0024FF06FFFFFF
(1547754789.083894) can0 0CEFFF00#64062E7DFFFFFFFF
(1547754789.088402) can0 0DEF0603#0101FFFFFFFFFFF5
(1547754789.089570) can0 04EF0006#64151FF00B19930E
(1547754789.090142) can0 0CFE4947#FFFFFFFFFFFFFFFF
(1547754789.090538) can0 18EA0006#E3FE00
(1547754789.091113) can0 0CFE4347#0000FFFF3FFFFFFF
(1547754789.091683) can0 0CFE4447#0000FFFF3FFFFFFF
(1547754789.093329) can0 0CF00400#F0FF9D241CFFFFFF
(1547754789.093950) can0 18FEDF00#8B201CFFFFFFFFFF
(1547754789.098779) can0 1CEC0600#1022000505E3FE00
(1547754789.101342) can0 1CEC0006#110501FFFFE3FE00
(1547754789.103432) can0 0CF00300#FF0024FF06FFFFFF
(1547754789.104004) can0 0CEFFF00#64062E7DFFFFFFFF
(1547754789.104600) can0 18FEF200#2300FFFFFFFFFFFF
(1547754789.108360) can0 0DEF0603#0101FFFFFFFFFFF5
(1547754789.109554) can0 04EF0006#641510F00B19930E
(1547754789.113212) can0 0CF00400#F0FF9D1A1CFFFFFF
(1547754789.118215) can0 1CFFFF17#22FFFF3CFFFFFFFF
(1547754789.123141) can0 0CF00300#FF0025FF06FFFFFF
(1547754789.123711) can0 0CEFFF00#6406317DFFFFFFFF
(1547754789.124286) can0 18EF0600#640EE300FFFFFFFF
(1547754789.127448) can0 18EAFF06#E5FE00
(1547754789.128369) can0 0DEF0603#0101FFFFFFFFFFF5
(1547754789.129586) can0 04EF0006#641511F00419930E
(1547754789.130160) can0 0CFFFE06#5C271D271DFFFFFF
(1547754789.130731) can0 18FEF147#FF0000FFFFFFFFFF
(1547754789.131329) can0 18FEE706#CC0A0000FFFFFFFF
(1547754789.131902) can0 18F00503#80FFFFFFFFFFFFFF
(1547754789.133147) can0 0CF00400#F0FF9E201CFFFFFF
(1547754789.143350) can0 0CF00300#FF0024FF06FFFFFF
(1547754789.143923) can0 0CEFFF00#64062F7DFFFFFFFF
(1547754789.144494) can0 18EFFF00#64100101CF02057D
(1547754789.146250) can0 18FEE500#CC0A0000FFFFFFFF
(1547754789.148202) can0 0DEF0603#0101FFFFFFFFFFF5
(1547754789.149398) can0 04EF0006#641512F00B19930E
(1547754789.153055) can0 0CF00400#F0FF9D281CFFFFFF
(1547754789.163009) can0 0CF00300#FF0024FF06FFFFFF
(1547754789.163581) can0 0CEFFF00#64062E7DFFFFFFFF
(1547754789.167714) can0 0DEF0647#0104FFFFFFFFFFF1
(1547754789.168334) can0 0DEF0603#0101FFFFFFFFFFF5
(1547754789.169531) can0 04EF0006#641513F01119930E
(1547754789.170102) can0 18FFFB06#0005AFF8FFFFFFFF
(1547754789.172964) can0 0CF00400#F0FF9D221CFFFFFF
(1547754789.182944) can0 0CF00300#FF0024FF06FFFFFF
(1547754789.183541) can0 0CEFFF00#64062E7DFFFFFFFF
(1547754789.184087) can0 18FD7C00#F880F1F000CF03FC
(1547754789.188022) can0 0DEF0603#0101FFFFFFFFFFF5
(1547754789.189214) can0 04EF0006#641514F00B19930E
(1547754789.192998) can0 0CF00400#F0FF9D221CFFFFFF
(1547754789.198051) can0 1CEB0600#01201CDD6842DCA0
(1547754789.202828) can0 0CF00300#FF0024FF06FFFFFF
(1547754789.203399) can0 0CEFFF00#64062E7DFFFFFFFF
(1547754789.203973) can0 18FEF200#2300FFFFFFFFFFFF
(1547754789.207906) can0 0DEF0603#0101FFFFFFFFFFF5
(1547754789.209099) can0 04EF0006#641515F00B19930E
(1547754789.209673) can0 0CFE4947#FFFFFFFFFFFFFFFF
(1547754789.210269) can0 0CFFFF47#5DFFFFF3FFFFFFFF
(1547754789.210867) can0 0CFE4347#0000FFFF3FFFFFFF
(1547754789.211464) can0 0CFE4447#0000FFFF3FFFFFFF
(1547754789.212021) can0 0CFFFE06#5C271D271DFFFFFF
(1547754789.212794) can0 0CF00400#F0FF9D241CFFFFFF
(1547754789.222713) can0 0CF00300#FF0024FF06FFFFFF
(1547754789.223284) can0 0CEFFF00#64062E7DFFFFFFFF
(1547754789.223844) can0 18EF0600#640EED00FFFFFFFF
(1547754789.227840) can0 0DEF0603#0101FFFFFFFFFFF5
(1547754789.229008) can0 04EF0006#641516F00B19930E
(1547754789.232941) can0 0CF00400#F0FF9D201CFFFFFF
(1547754789.242635) can0 0CF00300#FF0024FF06FFFFFF
(1547754789.243217) can0 0CEFFF00#64062F7DFFFFFFFF
(1547754789.243766) can0 18EFFF00#64100101CE02057D
(1547754789.245060) can0 1CEB0600#020FD58D20E37A31
(1547754789.247750) can0 0DEF0603#0101FFFFFFFFFFF5
(1547754789.248943) can0 04EF0006#641517F00B19930E
(1547754789.249490) can0 18FEF147#FF0000FFFFFFFFFF
(1547754789.250136) can0 18FFFB06#001BFFFFFFFFFFFF
(1547754789.250736) can0 18F00503#80FFFFFFFFFFFFFF
(1547754789.252600) can0 0CF00400#F0FF9D1C1CFFFFFF
(1547754789.262501) can0 0CF00300#FF0024FF06FFFFFF
(1547754789.263083) can0 0CEFFF00#6406307DFFFFFFFF
(1547754789.267259) can0 0DEF0647#0104FFFFFFFFFFF1
(1547754789.267855) can0 0DEF0603#0101FFFFFFFFFFF5
(1547754789.269025) can0 04EF0006#641518F00419930E
(1547754789.272558) can0 0CF00400#F0FF9D261CFFFFFF
(1547754789.282491) can0 0CF00300#FF0023FF06FFFFFF
(1547754789.283086) can0 0CEFFF00#64062E7DFFFFFFFF
(1547754789.283658) can0 18FDB300#FFFF9628FFFFFFFF
(1547754789.284232) can0 1CEFFF00#64070000FFFFFFFF
(1547754789.287566) can0 0DEF0603#0101FFFFFFFFFFF5
(1547754789.288761) can0 04EF0006#641519F00B19930E
(1547754789.289335) can0 0CFE4947#FFFFFFFFFFFFFFFF
(1547754789.289930) can0 18FE6847#3CFFFFFFFFFFFFFF
(1547754789.290503) can0 0CFE4347#0000FFFF3FFFFFFF
(1547754789.291063) can0 18FFFF06#73FFFFFFFFFFFFFF
(1547754789.291633) can0 0CFE4447#0000FFFF3FFFFFFF
(1547754789.292444) can0 0CF00400#F0FF9D301CFFFFFF
(1547754789.297695) can0 1CEB0600#03F1C044FFFF0401
(1547754789.302428) can0 0CF00300#FF0023FF06FFFFFF
(1547754789.302998) can0 0CEFFF00#64062C7DFFFFFFFF
(1547754789.303571) can0 18FEF200#2100FFFFFFFFFFFF
(1547754789.307482) can0 0DEF0603#0101FFFFFFFFFFF5
(1547754789.308670) can0 04EF0006#64151AF00719930E
(1547754789.312454) can0 0CF00400#F0FF9C281CFFFFFF
(1547754789.322435) can0 0CF00300#FF0023FF06FFFFFF
(1547754789.322959) can0 0CEFFF00#64062D7DFFFFFFFF
(1547754789.323578) can0 18EF0600#640EF700FFFFFFFF
(1547754789.327388) can0 0DEF0603#0101FFFFFFFFFFF5
(1547754789.328581) can0 04EF0006#64151BF01119930E
(1547754789.329179) can0 0CFFFF47#5EFFFFFFFFFFFFFF
(1547754789.329750) can0 18FEF147#FF0000FFFFFFFFFF
(1547754789.330297) can0 0CFFFE06#5C271D271DFFFFFF
(1547754789.330896) can0 18FEFC47#FFFFFFFFFFFFFFFF
(1547754789.331436) can0 18EF0047#F220610FFFFFFFFF
(1547754789.332018) can0 18F00647#FFCFFFFFFFFFFFFF
(1547754789.332610) can0 0CF00400#F0FF9D2A1CFFFFFF
(1547754789.333160) can0 1CFDDF47#FCFFFFFFFFFFFFFF
(1547754789.333754) can0 18FFFB06#0005ACF8FFFFFFFF
(1547754789.334349) can0 18F00503#80FFFFFFFFFFFFFF
(1547754789.342170) can0 0CF00300#FF0023FF06FFFFFF
(1547754789.342711) can0 0CEFFF00#64062D7DFFFFFFFF
(1547754789.343287) can0 18EFFF00#64100101CF02057D
(1547754789.343886) can0 18FEDF00#8B201CFFFFFFFFFF
(1547754789.344654) can0 1CEB0600#04204E0001FAC9FA
(1547754789.347323) can0 0DEF0603#0101FFFFFFFFFFF5
(1547754789.348516) can0 04EF0006#64151CF01119930E
(1547754789.352127) can0 0CF00400#F0FF9D2A1CFFFFFF
(1547754789.362102) can0 0CF00300#FF0023FF06FFFFFF
(1547754789.362672) can0 0CEFFF00#64062D7DFFFFFFFF
(1547754789.363218) can0 18FEEF00#FFFFFF64FFFFFFFA
(1547754789.366780) can0 0DEF0647#0104FFFFFFFFFFF1
(1547754789.367400) can0 0DEF0603#0101FFFFFFFFFFF5
(1547754789.368522) can0 04EF0006#64151DF01119930E
(1547754789.372081) can0 0CF00400#F0FF9D221CFFFFFF
(1547754789.381962) can0 0CF00300#FF0024FF06FFFFFF
(1547754789.382531) can0 0CEFFF00#64062E7DFFFFFFFF
(1547754789.387113) can0 0DEF0603#0101FFFFFFFFFFF5
(1547754789.388306) can0 04EF0006#64151EF00B19930E
(1547754789.391991) can0 0CF00400#F0FF9D241CFFFFFF
(1547754789.396967) can0 1CEB0600#05C05D0000FFFFFF
(1547754789.401944) can0 0CF00300#FF0023FF06FFFFFF
(1547754789.402542) can0 0CEFFF00#64062E7DFFFFFFFF
(1547754789.403088) can0 18FEF200#2300FFFFFFFFFFFF
(1547754789.404932) can0 1CEC0006#13220005FFE3FE00
(1547754789.407096) can0 0DEF0603#0101FFFFFFFFFFF5
(1547754789.408290) can0 04EF0006#64151FF00B19930E
(1547754789.408864) can0 0CFE4947#FFFFFFFFFFFFFFFF
(1547754789.409434) can0 0CFE4347#0000FFFF3FFFFFFF
(1547754789.410058) can0 0CFE4447#0000FFFF3FFFFFFF
(1547754789.410630) can0 0CFFFE06#5C271D271DFFFFFF
(1547754789.411999) can0 0CF00400#F0FF9D2E1CFFFFFF
(1547754789.421830) can0 0CF00300#FF0023FF06FFFFFF
(1547754789.422400) can0 0CEFFF00#64062C7DFFFFFFFF
(1547754789.422974) can0 18EF0600#640E0100FFFFFFFF
(1547754789.426894) can0 0DEF0603#0101FFFFFFFFFFF5
(1547754789.428100) can0 04EF0006#641510F01119930E
(1547754789.431759) can0 0CF00400#F0FF9C2E1CFFFFFF
(1547754789.441742) can0 0CF00300#FF0023FF06FFFFFF
(1547754789.442312) can0 0CEFFF00#64062C7DFFFFFFFF
(1547754789.442884) can0 18EFFF00#64100101D002057D
(1547754789.443457) can0 18FEF600#FF003FFF00FFFFFF
(1547754789.444452) can0 1CECFF00#20220005FFE3FE00
(1547754789.446871) can0 0DEF0603#0101FFFFFFFFFFF5
(1547754789.448062) can0 04EF0006#641511F01119930E
(1547754789.448588) can0 18FEF147#FF0000FFFFFFFFFF
(1547754789.449252) can0 18FFFB06#000586F8FFFFFFFF
(1547754789.449855) can0 18F00503#80FFFFFFFFFFFFFF
(1547754789.451818) can0 0CF00400#F0FF9C281CFFFFFF
(1547754789.461651) can0 18EFFA00#6401FF0000FFFFFF
(1547754789.462218) can0 0CEFFF00#64062D7DFFFFFFFF
(1547754789.462797) can0 0CF00300#FF0023FF06FFFFFF
(1547754789.466333) can0 0DEF0647#0104FFFFFFFFFFF1
(1547754789.466920) can0 0DEF0603#0101FFFFFFFFFFF5
(1547754789.468042) can0 04EF0006#641512F01119930E
(1547754789.471603) can0 0CF00400#F0FF9D281CFFFFFF
(1547754789.481507) can0 0CF00300#FF0023FF06FFFFFF
(1547754789.482102) can0 0CEFFF00#64062D7DFFFFFFFF
(1547754789.486658) can0 0DEF0603#0101FFFFFFFFFFF5
(1547754789.487853) can0 04EF0006#641513F01119930E
(1547754789.488425) can0 0CFE4947#FFFFFFFFFFFFFFFF
(1547754789.488997) can0 0CFE4347#0000FFFF3FFFFFFF
(1547754789.489595) can0 0CFE4447#0000FFFF3FFFFFFF
(1547754789.491610) can0 0CF00400#F0FF9D261CFFFFFF
(1547754789.496936) can0 1CEBFF00#01201CEC6842EAA0
(1547754789.501591) can0 0CF00300#FF0024FF06FFFFFF
(1547754789.502162) can0 0CEFFF00#64062D7DFFFFFFFF
(1547754789.502733) can0 18FEF200#2100FFFFFFFFFFFF
(1547754789.506543) can0 0DEF0603#0101FFFFFFFFFFF5
(1547754789.507737) can0 04EF0006#641514F00B19930E
(1547754789.511420) can0 0CF00400#F0FF9D1E1CFFFFFF
(1547754789.521325) can0 0CF00300#FF0024FF06FFFFFF
(1547754789.521895) can0 0CEFFF00#64062F7DFFFFFFFF
(1547754789.522470) can0 18EF0600#640E0B00FFFFFFFF
(1547754789.526477) can0 0DEF0603#0101FFFFFFFFFFF5
(1547754789.527721) can0 04EF0006#641515F00419930E
(1547754789.528267) can0 0CFFFE06#5C271D271DFFFFFF
(1547754789.528838) can0 18FEF147#FF0000FFFFFFFFFF
(1547754789.529413) can0 18F00503#80FFFFFFFFFFFFFF
(1547754789.531330) can0 0CF00400#F0FF9D261CFFFFFF
(1547754789.541533) can0 0CF00300#FF0023FF06FFFFFF
(1547754789.542105) can0 0CEFFF00#64062D7DFFFFFFFF
(1547754789.542649) can0 18EFFF00#64100101CF02057D
(1547754789.544294) can0 1CEBFF00#020FE38D20F17A31
(1547754789.546386) can0 0DEF0603#0101FFFFFFFFFFF5
(1547754789.547581) can0 04EF0006#641516F00B19930E
(1547754789.551239) can0 0CF00400#F0FF9D2E1CFFFFFF
(1547754789.561168) can0 0CF00300#FF0023FF06FFFFFF
(1547754789.561739) can0 0CEFFF00#64062C7DFFFFFFFF
(1547754789.562314) can0 18FEEE00#5344FFFFFFFFFFFF
(1547754789.565873) can0 0DEF0647#0104FFFFFFFFFFF1
(1547754789.566491) can0 0DEF0603#0101FFFFFFFFFFF5
(1547754789.567614) can0 04EF0006#641517F01119930E
(1547754789.568186) can0 18FFFB06#000587F8FFFFFFFF
(1547754789.571124) can0 0CF00400#F0FF9C2A1CFFFFFF
(1547754789.581177) can0 0CF00300#FF0023FF06FFFFFF
(1547754789.581749) can0 0CEFFF00#64062C7DFFFFFFFF
(1547754789.586179) can0 0DEF0603#0101FFFFFFFFFFF5
(1547754789.587348) can0 0C000006#30FFFFFFF8FFFFFF
(1547754789.587870) can0 04EF0006#641518F01119930E
(1547754789.591181) can0 0CF00400#F0FF9C261CFFFFFF
(1547754789.591753) can0 18FEDF00#8B201CFFFFFFFFFF
(1547754789.596357) can0 1CEBFF00#03FAC044FFFF0401
(1547754789.601011) can0 0CF00300#FF0023FF06FFFFFF
(1547754789.601557) can0 0CEFFF00#64062D7DFFFFFFFF
(1547754789.602157) can0 18FEF200#2100FFFFFFFFFFFF
(1547754789.606088) can0 0DEF0603#0101FFFFFFFFFFF5
(1547754789.607281) can0 04EF0006#641519F00B19930E
(1547754789.607855) can0 0CFE4947#FFFFFFFFFFFFFFFF
(1547754789.608452) can0 0CFE4347#0000FFFF3FFFFFFF
(1547754789.609050) can0 0CFE4447#0000FFFF3FFFFFFF
(1547754789.609621) can0 0CFFFE06#5C271D271DFFFFFF
(1547754789.610994) can0 0CF00400#F0FF9D261CFFFFFF
(1547754789.620948) can0 0CF00300#FF0023FF06FFFFFF
(1547754789.621520) can0 0CEFFF00#64062D7DFFFFFFFF
(1547754789.622067) can0 18EF0600#640E1500FFFFFFFF
(1547754789.626051) can0 0DEF0603#0101FFFFFFFFFFF5
(1547754789.627245) can0 04EF0006#64151AF00B19930E
(1547754789.631201) can0 0CF00400#F0FF9D221CFFFFFF
(1547754789.640882) can0 0CF00300#FF0024FF06FFFFFF
(1547754789.641455) can0 0CEFFF00#64062D7DFFFFFFFF
(1547754789.641999) can0 18EFFF00#64100101CE02057D
(1547754789.642598) can0 18FEF700#FFFFFFFFFFFF1801
(1547754789.643592) can0 1CEBFF00#04204E0001FAC9FA
(1547754789.645959) can0 0DEF0603#0101FFFFFFFFFFF5
(1547754789.647114) can0 04EF0006#64151BF00B19930E
(1547754789.647724) can0 18FEF147#FF0000FFFFFFFFFF
(1547754789.648321) can0 18F00503#80FFFFFFFFFFFFFF
(1547754789.650814) can0 0CF00400#F0FF9D1C1CFFFFFF
(1547754789.660740) can0 0CF00300#FF0024FF06FFFFFF
(1547754789.661314) can0 0CEFFF00#64062F7DFFFFFFFF
(1547754789.665467) can0 0DEF0647#0104FFFFFFFFFFF1
(1547754789.666090) can0 0DEF0603#0101FFFFFFFFFFF5
(1547754789.667308) can0 04EF0006#64151CF00419930E
(1547754789.670772) can0 0CF00400#F0FF9D241CFFFFFF
(1547754789.680679) can0 0CF00300#FF0023FF06FFFFFF
(1547754789.681271) can0 0CEFFF00#64062D7DFFFFFFFF
(1547754789.685749) can0 0DEF0603#0101FFFFFFFFFFF5
(1547754789.686944) can0 04EF0006#64151DF00B19930E
(1547754789.687516) can0 0CFE4947#FFFFFFFFFFFFFFFF
(1547754789.688087) can0 18FFFB06#000587F8FFFFFFFF
(1547754789.688661) can0 0CFFFF47#5DFFFFF3FFFFFFFF
(1547754789.689260) can0 0CFE4347#0000FFFF3FFFFFFF
(1547754789.689854) can0 0CFE4447#0000FFFF3FFFFFFF
(1547754789.690613) can0 0CF00400#F0FF9D2A1CFFFFFF
(1547754789.695753) can0 1CEBFF00#05C05D0000FFFFFF
(1547754789.700582) can0 0CF00300#FF0023FF06FFFFFF
(1547754789.701179) can0 0CEFFF00#64062C7DFFFFFFFF
(1547754789.701726) can0 18FEF200#2100FFFFFFFFFFFF
(1547754789.705609) can0 0DEF0603#0101FFFFFFFFFFF5
(1547754789.706828) can0 04EF0006#64151EF01119930E
(1547754789.710612) can0 0CF00400#F0FF9C221CFFFFFF
(1547754789.720566) can0 0CF00300#FF0023FF06FFFFFF
(1547754789.721138) can0 0CEFFF00#64062D7DFFFFFFFF
(1547754789.721709) can0 18EF0600#640E1F00FFFFFFFF
(1547754789.725531) can0 0DEF0603#0101FFFFFFFFFFF5
(1547754789.726762) can0 04EF0006#64151FF00B19930E
(1547754789.727310) can0 0CFFFE06#5C271D271DFFFFFF
(1547754789.727879) can0 18FEF147#FF0000FFFFFFFFFF
(1547754789.728480) can0 18F00503#80FFFFFFFFFFFFFF
(1547754789.730421) can0 0CF00400#F0FF9D201CFFFFFF
(1547754789.740325) can0 0CF00300#FF0023FF06FFFFFF
(1547754789.740946) can0 0CEFFF00#64062D7DFFFFFFFF
(1547754789.741496) can0 18EFFF00#64100101CF02057D
(1547754789.742093) can0 18FED500#FFFFFDFFFFFFFFFF
(1547754789.745441) can0 0DEF0603#0101FFFFFFFFFFF5
(1547754789.746646) can0 04EF0006#641510F00B19930E
(1547754789.750331) can0 0CF00400#F0FF9D221CFFFFFF
(1547754789.760261) can0 0CF00300#FF0023FF06FFFFFF
(1547754789.760830) can0 0CEFFF00#64062D7DFFFFFFFF
(1547754789.764988) can0 0DEF0647#0104FFFFFFFFFFF1
(1547754789.765584) can0 0DEF0603#0101FFFFFFFFFFF5
(1547754789.766704) can0 04EF0006#641511F00B19930E
(1547754789.767302) can0 18FFFF06#73FFFFFFFFFFFFFF
(1547754789.770265) can0 0CF00400#F0FF9D1E1CFFFFFF
(1547754789.780145) can0 0CF00300#FF0024FF06FFFFFF
(1547754789.780714) can0 0CEFFF00#64062F7DFFFFFFFF
(1547754789.781288) can0 18FDB300#FFFFA428FFFFFFFF
(1547754789.785296) can0 0DEF0603#0101FFFFFFFFFFF5
(1547754789.786539) can0 04EF0006#641512F00419930E
(1547754789.790149) can0 0CF00400#F0FF9D1E1CFFFFFF
(1547754789.795030) can0 1CFFFF17#22FFFF3CFFFFFFFF
(1547754789.800103) can0 0CF00300#FF0023FF06FFFFFF
(1547754789.800672) can0 0CEFFF00#64062F7DFFFFFFFF
(1547754789.801248) can0 18FEF200#2300FFFFFFFFFFFF
(1547754789.805205) can0 0DEF0603#0101FFFFFFFFFFF5
(1547754789.806449) can0 04EF0006#641513F00419930E
(1547754789.807022) can0 0CFE4947#FFFFFFFFFFFFFFFF
(1547754789.807592) can0 1CFDDF47#FCFFFFFFFFFFFFFF
(1547754789.808166) can0 0CFE4347#0000FFFF3FFFFFFF
(1547754789.808763) can0 18FFFB06#000587F8FFFFFFFF
(1547754789.809321) can0 0CFE4447#0000FFFF3FFFFFFF
(1547754789.809895) can0 0CFFFE06#5C271D271DFFFFFF
(1547754789.810452) can0 0CF00400#F0FF9D261CFFFFFF
(1547754789.820013) can0 0CF00300#FF0023FF06FFFFFF
(1547754789.820581) can0 0CEFFF00#64062D7DFFFFFFFF
(1547754789.821165) can0 18EF0600#640E2900FFFFFFFF
(1547754789.825115) can0 0DEF0603#0101FFFFFFFFFFF5
(1547754789.826282) can0 04EF0006#641514F00B19930E
(1547754789.829993) can0 0CF00400#F0FF9D261CFFFFFF
(1547754789.839923) can0 0CF00300#FF0024FF06FFFFFF
(1547754789.840492) can0 0CEFFF00#64062D7DFFFFFFFF
(1547754789.841065) can0 18EFFF00#64100101CF02057D
(1547754789.841664) can0 18FEDF00#8B201CFFFFFFFFFF
(1547754789.845022) can0 0DEF0603#0101FFFFFFFFFFF5
(1547754789.846198) can0 04EF0006#641515F00B19930E
(1547754789.846790) can0 18FEF147#FF0000FFFFFFFFFF
(1547754789.847385) can0 18F00647#FFCFFFFFFFFFFFFF
(1547754789.847984) can0 18F00503#80FFFFFFFFFFFFFF
(1547754789.849989) can0 0CF00400#F0FF9D201CFFFFFF
(1547754789.859830) can0 0CF00300#FF0024FF06FFFFFF
(1547754789.860401) can0 0CEFFF00#64062D7DFFFFFFFF
(1547754789.860975) can0 18FEEF00#FFFFFF65FFFFFFFA
(1547754789.864497) can0 0DEF0647#0104FFFFFFFFFFF1
(1547754789.865128) can0 0DEF0603#0101FFFFFFFFFFF5
(1547754789.866251) can0 04EF0006#641516F00B19930E
(1547754789.869760) can0 0CF00400#F0FF9D221CFFFFFF
(1547754789.879714) can0 0CF00300#FF0023FF06FFFFFF
(1547754789.880285) can0 0CEFFF00#64062D7DFFFFFFFF
(1547754789.884842) can0 0DEF0603#0101FFFFFFFFFFF5
(1547754789.886036) can0 04EF0006#641517F00B19930E
(1547754789.886583) can0 0CFE4947#FFFFFFFFFFFFFFFF
(1547754789.887204) can0 0CFE4347#0000FFFF3FFFFFFF
(1547754789.887804) can0 0CFE4447#0000FFFF3FFFFFFF
(1547754789.889795) can0 0CF00400#F0FF9D221CFFFFFF
(1547754789.899773) can0 0CF00300#FF0024FF06FFFFFF
(1547754789.900346) can0 0CEFFF00#64062D7DFFFFFFFF
(1547754789.900941) can0 18FEF200#2100FFFFFFFFFFFF
(1547754789.904724) can0 0DEF0603#0101FFFFFFFFFFF5
(1547754789.905944) can0 04EF0006#641518F00B19930E
(1547754789.909578) can0 0CF00400#F0FF9D1A1CFFFFFF
(1547754789.919533) can0 0CF00300#FF0024FF06FFFFFF
(1547754789.920103) can0 0CEFFF00#64062F7DFFFFFFFF
(1547754789.920677) can0 18EF0600#640E3300FFFFFFFF
(1547754789.924660) can0 0DEF0603#0101FFFFFFFFFFF5
(1547754789.925903) can0 04EF0006#641519F00419930E
(1547754789.926451) can0 0CFFFE06#5C271D271DFFFFFF
(1547754789.927021) can0 18FEF147#FF0000FFFFFFFFFF
(1547754789.927621) can0 18F00503#80FFFFFFFFFFFFFF
(1547754789.929513) can0 0CF00400#F0FF9D221CFFFFFF
(1547754789.939716) can0 0CF00300#FF0023FF06FFFFFF
(1547754789.940288) can0 0CEFFF00#64062D7DFFFFFFFF
(1547754789.940857) can0 18EFFF00#64100101CF02057D
(1547754789.941433) can0 18FEF600#FF003EFF00FFFFFF
(1547754789.944555) can0 0DEF0603#0101FFFFFFFFFFF5
(1547754789.945763) can0 04EF0006#64151AF00B19930E
(1547754789.949447) can0 0CF00400#F0FF9D2A1CFFFFFF
(1547754789.959352) can0 0CF00300#FF0023FF06FFFFFF
(1547754789.959921) can0 0CEFFF00#64062C7DFFFFFFFF
(1547754789.964080) can0 0DEF0647#0104FFFFFFFFFFF1
(1547754789.964676) can0 0DEF0603#0101FFFFFFFFFFF5
(1547754789.965795) can0 04EF0006#64151BF01119930E
(1547754789.969380) can0 0CF00400#F0FF9C261CFFFFFF
(1547754789.979335) can0 0CF00300#FF0023FF06FFFFFF
(1547754789.979906) can0 0CEFFF00#64062C7DFFFFFFFF
(1547754789.984386) can0 0DEF0603#0101FFFFFFFFFFF5
(1547754789.985583) can0 04EF0006#64151CF00B19930E
(1547754789.989365) can0 0CF00400#F0FF9C201CFFFFFF
(1547754789.989961) can0 18FFFA00#022C0000180C0081
(1547754789.999218) can0 0CF00300#FF0023FF06FFFFFF
(1547754789.999816) can0 0CEFFF00#64062D7DFFFFFFFF
(1547754790.000362) can0 18FEF200#2100FFFFFFFFFFFF
(1547754790.004272) can0 0DEF0603#0101FFFFFFFFFFF5
(1547754790.005490) can0 04EF0006#64151DF00B19930E
(1547754790.006064) can0 0CFE4947#FFFFFFFFFFFFFFFF
(1547754790.006636) can0 18FFFB06#000586F8FFFFFFFF
(1547754790.007209) can0 0CFE4347#0000FFFF3FFFFFFF
(1547754790.007807) can0 0CFE4447#0000FFFF3FFFFFFF
(1547754790.008389) can0 0CFFFE06#5C271D271DFFFFFF
(1547754790.009163) can0 0CF00400#F0FF9D221CFFFFFF
(1547754790.019212) can0 0CF00300#FF0023FF06FFFFFF
(1547754790.019783) can0 0CEFFF00#64062D7DFFFFFFFF
(1547754790.020341) can0 18EF0600#640E3D00FFFFFFFF
(1547754790.020929) can0 18FEF500#C8FFFFFFFF3DFFFF
(1547754790.024217) can0 0DEF0603#0101FFFFFFFFFFF5
(1547754790.025412) can0 04EF0006#64151EF00B19930E
