(1547753840.677058) can0 18EEFF47#4D74300400340220
(1547753840.677649) can0 18EEFF06#4D743004000E0020
(1547753840.678229) can0 18EEFF03#4D74300400030220
(1547753840.705279) can0 18EEFF00#56F5290400000220
(1547753840.707504) can0 0CF00400#F0FF000000FFFFFF
(1547753840.707886) can0 18EAFF00#00EE00
(1547753840.717377) can0 0CF00300#FF0000FF00FFFFFF
(1547753840.717954) can0 0CEFFF00#6406007DFFFFFFFF
(1547753840.718550) can0 18FEF200#0000FFFFFFFFFFFF
(1547753840.727605) can0 0CF00400#F0FF7D0000FFFFFF
(1547753840.737478) can0 0CF00300#FF0000FF06FFFFFF
(1547753840.738054) can0 0CEFFF00#6406007DFFFFFFFF
(1547753840.738651) can0 18EF0600#640E0302FFFFFFFF
(1547753840.747528) can0 0CF00400#F0FF7D0000FFFFFF
(1547753840.757529) can0 0CF00300#FF0000FF06FFFFFF
(1547753840.758106) can0 0CEFFF00#6406007DFFFFFFFF
(1547753840.758678) can0 18EFFF00#64100B0B0000007D
(1547753840.759279) can0 18FEDF00#7DF81CFFFFFFFFFF
(1547753840.759854) can0 1CECFF00#20220005FFE3FE00
(1547753840.767540) can0 0CF00400#F0FF7D0000FFFFFF
(1547753840.777506) can0 0CF00300#FF0000FF06FFFFFF
(1547753840.778081) can0 0CEFFF00#6406007DFFFFFFFF
(1547753840.778654) can0 18FEEF00#FFFFFFFEFFFFFFFA
(1547753840.787514) can0 0CF00400#F0FF7D0000FFFFFF
(1547753840.797506) can0 0CF00300#FF0000FF06FFFFFF
(1547753840.798107) can0 0CEFFF00#6406007DFFFFFFFF
(1547753840.807532) can0 0CF00400#F0FF7D0000FFFFFF
(1547753840.810659) can0 1CEBFF00#01201CDD6842DCA0
(1547753840.817535) can0 0CF00300#FF0000FF06FFFFFF
(1547753840.818108) can0 0CEFFF00#6406007DFFFFFFFF
(1547753840.818704) can0 18FEF200#0000FFFFFFFFFFFF
(1547753840.827532) can0 0CF00400#F0FF7D0000FFFFFF
(1547753840.837531) can0 0CF00300#FF0000FF06FFFFFF
(1547753840.838108) can0 0CEFFF00#6406007DFFFFFFFF
(1547753840.838681) can0 18EF0600#640E0D02FFFFFFFF
(1547753840.847584) can0 0CF00400#F0FF7D0000FFFFFF
(1547753840.857533) can0 0CF00300#FF0000FF06FFFFFF
(1547753840.858109) can0 0CEFFF00#6406007DFFFFFFFF
(1547753840.858681) can0 18EFFF00#64100B0B0000007D
(1547753840.859259) can0 18FEF600#FF0045FF00FFFFFF
(1547753840.859808) can0 1CEBFF00#020FD58D20E37A31
(1547753840.867567) can0 0CF00400#F0FF7D0000FFFFFF
(1547753840.877511) can0 18EFFA00#6401FF0000FFFFFF
(1547753840.878086) can0 0CEFFF00#6406007DFFFFFFFF
(1547753840.878658) can0 0CF00300#FF0000FF06FFFFFF
(1547753840.887543) can0 0CF00400#F0FF7D0000FFFFFF
(1547753840.897532) can0 0CF00300#FF0000FF06FFFFFF
(1547753840.898109) can0 0CEFFF00#6406007DFFFFFFFF
(1547753840.907589) can0 0CF00400#F0FF7D0000FFFFFF
(1547753840.910761) can0 1CEBFF00#03F1C044FFFF0401
(1547753840.917542) can0 0CF00300#FF0000FF06FFFFFF
(1547753840.918135) can0 0CEFFF00#6406007DFFFFFFFF
(1547753840.918707) can0 18FEF200#0000FFFFFFFFFFFF
(1547753840.927588) can0 0CF00400#F0FF7D0000FFFFFF
(1547753840.937573) can0 0CF00300#FF0000FF06FFFFFF
(1547753840.938149) can0 0CEFFF00#6406007DFFFFFFFF
(1547753840.938720) can0 0DEF0603#0101FFFFFFFFFFF5
(1547753840.939270) can0 04EF0006#641510F00000930E
(1547753840.939872) can0 0C000006#30FFFFFFF8FFFFFF
(1547753840.940445) can0 18EF0600#640E1706FFFFFFFF
(1547753840.947627) can0 0CF00400#F0FF7D0000FFFFFF
(1547753840.957546) can0 0CF00300#FF0000FF06FFFFFF
(1547753840.958122) can0 0CEFFF00#6406007DFFFFFFFF
(1547753840.958678) can0 0DEF0647#0104FFFFFFFFFFF1
(1547753840.959228) can0 04EF0006#641510F00000930E
(1547753840.959848) can0 0DEF0603#0101FFFFFFFFFFF5
(1547753840.960420) can0 18EEFF00#56F5290400000220
(1547753840.960971) can0 0CFFFE06#5C271D271DFFFFFF
(1547753840.961569) can0 18EFFF00#64100B0B0000007D
(1547753840.962109) can0 18FFFB06#00057DF8FFFFFFFF
(1547753840.962659) can0 1CEBFF00#04204E0001FAC9FA
(1547753840.963054) can0 18EAFF47#00EE00
(1547753840.967556) can0 0CF00400#F0FF7D0000FFFFFF
(1547753840.977533) can0 0CF00300#FF0000FF06FFFFFF
(1547753840.978154) can0 0CEFFF00#6406007DFFFFFFFF
(1547753840.978724) can0 0DEF0603#0101FFFFFFFFFFF5
(1547753840.979253) can0 04EF0006#641510F00000930E
(1547753840.979831) can0 18FEEE00#4F41FFFFFFFFFFFF
(1547753840.987626) can0 0CF00400#F0FF7D0000FFFFFF
(1547753840.997553) can0 0CF00300#FF0000FF06FFFFFF
(1547753840.998126) can0 0CEFFF00#6406007DFFFFFFFF
(1547753840.998722) can0 0DEF0603#0101FFFFFFFFFFF5
(1547753840.999274) can0 04EF0006#641510F00000930E
(1547753840.999850) can0 0CFE4947#FFFFFFFFFFFFFFFF
(1547753841.000447) can0 0CFE4347#FFFFFFFFFFFFFFFF
(1547753841.001049) can0 0CFE4447#0000FFFF3FFFFFFF
(1547753841.007561) can0 0CF00400#F0FF7D0000FFFFFF
(1547753841.008131) can0 18FEDF00#7D261DFFFFFFFFFF
(1547753841.011007) can0 18EEFF00#56F5290400000220
(1547753841.011584) can0 1CEBFF00#05C05D0000FFFFFF
(1547753841.017598) can0 0CF00300#FF0000FF07FFFFFF
(1547753841.018142) can0 0CEFFF00#6406007DFFFFFFFF
(1547753841.018773) can0 0DEF0603#0101FFFFFFFFFFF5
(1547753841.019321) can0 04EF0006#641510F00000930E
(1547753841.019898) can0 18FEF200#0000FFFFFFFFFFFF
(1547753841.027630) can0 0CF00400#F0FF7D0000FFFFFF
(1547753841.037555) can0 0CF00300#FF0000FF06FFFFFF
(1547753841.038151) can0 0CEFFF00#6406007DFFFFFFFF
(1547753841.038723) can0 0DEF0603#0101FFFFFFFFFFF5
(1547753841.039232) can0 04EF0006#641510F00000A90E
(1547753841.039808) can0 0CFFFE06#5C531D531DFFFFFF
(1547753841.040405) can0 18EF0600#640E2100FFFFFFFF
(1547753841.041002) can0 18FEF147#FF0000FFFFFFFFFF
(1547753841.041601) can0 18F00503#FFFFFFFFFFFFFFFF
(1547753841.047587) can0 0CF00400#F0FF7D0000FFFFFF
(1547753841.057536) can0 0CF00300#FF0000FF06FFFFFF
(1547753841.058151) can0 0CEFFF00#6406007DFFFFFFFF
(1547753841.058682) can0 0DEF0647#0104FFFFFFFFFFF1
(1547753841.059257) can0 04EF0006#641510F00000930E
(1547753841.059835) can0 0DEF0603#0101FFFFFFFFFFF5
(1547753841.060456) can0 18EFFF00#64100B0B0000007D
(1547753841.060997) can0 18FEF700#FFFFFFFFFFFFA100
(1547753841.067575) can0 0CF00400#F0FF7D0000FFFFFF
(1547753841.077525) can0 0CF00300#FF0000FF06FFFFFF
(1547753841.078098) can0 0CEFFF00#6406007DFFFFFFFF
(1547753841.078730) can0 0DEF0603#0101FFFFFFFFFFF5
(1547753841.079276) can0 04EF0006#641510F00000930E
(1547753841.079853) can0 0CFE4947#FFFFFFFFFFFFFFFF
(1547753841.080409) can0 0CFE4347#FFFFFFFFFFFFFFFF
(1547753841.081008) can0 0CFE4447#0000FFFF3FFFFFFF
(1547753841.081631) can0 0CFFFE06#5C271D271DFFFFFF
(1547753841.087588) can0 0CF00400#F0FF7D0000FFFFFF
(1547753841.097539) can0 0CF00300#FF0000FF06FFFFFF
(1547753841.098157) can0 0CEFFF00#6406007DFFFFFFFF
(1547753841.098751) can0 0DEF0603#0101FFFFFFFFFFF5
(1547753841.099304) can0 04EF0006#641510F00000930E
(1547753841.107609) can0 0CF00400#F0FF7D0000FFFFFF
(1547753841.112153) can0 18EEFF47#4D74300400340220
(1547753841.112725) can0 18EEFF06#4D743004000E0020
(1547753841.113304) can0 18EEFF03#4D74300400030220
(1547753841.117606) can0 0CF00300#FF0000FF06FFFFFF
(1547753841.118180) can0 0CEFFF00#6406007DFFFFFFFF
(1547753841.118805) can0 0DEF0603#0101FFFFFFFFFFF5
(1547753841.119283) can0 04EF0006#641510F00000930E
(1547753841.119852) can0 18FEF147#FF0000FFFFFFFFFF
(1547753841.120412) can0 18FEF200#0000FFFFFFFFFFFF
(1547753841.121012) can0 18F00503#FFFFFFFFFFFFFFFF
(1547753841.127602) can0 0CF00400#F0FF7D0000FFFFFF
(1547753841.137581) can0 0CF00300#FF0000FF06FFFFFF
(1547753841.138152) can0 0CEFFF00#6406007DFFFFFFFF
(1547753841.138750) can0 0DEF0603#0101FFFFFFFFFFF5
(1547753841.139303) can0 04EF0006#641510F00000930E
(1547753841.139877) can0 18EF0600#640E2B00FFFFFFFF
(1547753841.147607) can0 0CF00400#F0FF7D0000FFFFFF
(1547753841.157582) can0 0CF00300#FF0000FF06FFFFFF
(1547753841.158178) can0 0CEFFF00#6406007DFFFFFFFF
(1547753841.158752) can0 0DEF0647#0104FFFFFFFFFFF1
(1547753841.159253) can0 04EF0006#641510F00000930E
(1547753841.159853) can0 0DEF0603#0101FFFFFFFFFFF5
(1547753841.160458) can0 18EFFF00#64100B0B0000007D
(1547753841.161023) can0 18FED500#FFFFFCFFFFFFFFFF
(1547753841.167632) can0 0CF00400#F0FF7D0000FFFFFF
(1547753841.177554) can0 0CF00300#FF0000FF06FFFFFF
(1547753841.178159) can0 0CEFFF00#6406007DFFFFFFFF
(1547753841.178730) can0 0DEF0603#0101FFFFFFFFFFF5
(1547753841.179277) can0 04EF0006#641510F00000930E
(1547753841.187608) can0 0CF00400#F0FF7D0000FFFFFF
(1547753841.197585) can0 0CF00300#FF0000FF06FFFFFF
(1547753841.198154) can0 0CEFFF00#6406007DFFFFFFFF
(1547753841.198753) can0 0DEF0603#0101FFFFFFFFFFF5
(1547753841.199304) can0 04EF0006#641510F00000930E
(1547753841.199831) can0 0CFE4947#FFFFFFFFFFFFFFFF
(1547753841.200415) can0 18FDB300#FFFF9828FFFFFFFF
(1547753841.201029) can0 0CFE4347#FFFFFFFFFFFFFFFF
(1547753841.201596) can0 0CFE4447#0000FFFF3FFFFFFF
(1547753841.202161) can0 0CFFFE06#5C271D271DFFFFFF
(1547753841.207581) can0 0CF00400#F0FF7D260FFFFFFF
(1547753841.217685) can0 0CF00300#FF0000FF06FFFFFF
(1547753841.218257) can0 0CEFFF00#6406E77CFFFFFFFF
(1547753841.218856) can0 18FEF200#0000FFFFFFFFFFFF
(1547753841.219430) can0 0DEF0603#0101FFFFFFFFFFF5
(1547753841.220154) can0 04EF0006#641510F00000930E
(1547753841.227684) can0 0CF00400#F0FF7DCE17FFFFFF
(1547753841.237659) can0 0CF00300#FF0000FF06FFFFFF
(1547753841.238232) can0 0CEFFF00#6406DE7CFFFFFFFF
(1547753841.238806) can0 18EF0600#640E3500FFFFFFFF
(1547753841.239378) can0 0DEF0603#0101FFFFFFFFFFF5
(1547753841.240155) can0 04EF0006#641510F00000930E
(1547753841.240731) can0 18FEF147#FF0000FFFFFFFFFF
(1547753841.241331) can0 18F00503#FFFFFFFFFFFFFFFF
(1547753841.247684) can0 0CF00400#F0FF7DF617FFFFFF
(1547753841.257637) can0 0CF00300#FF0000FF06FFFFFF
(1547753841.258208) can0 0CEFFF00#6406DE7CFFFFFFFF
(1547753841.258807) can0 18EFFF00#641000000000007D
(1547753841.259380) can0 0DEF0647#0104FFFFFFFFFFF1
(1547753841.259956) can0 18FEDF00#89261DFFFFFFFFFF
(1547753841.260483) can0 0DEF0603#0101FFFFFFFFFFF5
(1547753841.261057) can0 04EF0006#641510F00000930E
(1547753841.267708) can0 0CF00400#F0FF7DF617FFFFFF
(1547753841.277663) can0 0CF00300#FF0000FF06FFFFFF
(1547753841.278236) can0 0CEFFF00#6406DE7CFFFFFFFF
(1547753841.278809) can0 18FEEF00#FFFFFF14FFFFFFFA
(1547753841.279383) can0 0DEF0603#0101FFFFFFFFFFF5
(1547753841.280431) can0 04EF0006#641510F00000930E
(1547753841.281009) can0 0CFE4947#FFFFFFFFFFFFFFFF
(1547753841.281606) can0 0CFFFF47#5DFFFFF3FFFFFFFF
(1547753841.287673) can0 0CF00400#F0FF7DF617FFFFFF
(1547753841.297691) can0 0CF00300#FF0000FF06FFFFFF
(1547753841.298236) can0 0CEFFF00#6406DE7CFFFFFFFF
(1547753841.307690) can0 0CF00400#F0FF7DF617FFFFFF
(1547753841.317709) can0 0CF00300#FF0000FF06FFFFFF
(1547753841.318288) can0 0CEFFF00#6406DE7CFFFFFFFF
(1547753841.318884) can0 18FEF200#0000FFFFFFFFFFFF
(1547753841.327690) can0 0CF00400#F0FF7D1A0CFFFFFF
(1547753841.337665) can0 0CF00300#FF0000FF06FFFFFF
(1547753841.338236) can0 0CEFFF00#6406EC7CFFFFFFFF
(1547753841.338810) can0 18EF0600#640E3F00FFFFFFFF
(1547753841.347692) can0 0CF00400#F0FF7D5405FFFFFF
(1547753841.357661) can0 0CF00300#FF0000FF06FFFFFF
(1547753841.358239) can0 0CEFFF00#6406F87CFFFFFFFF
(1547753841.358837) can0 18EFFF00#641000000000007D
(1547753841.359409) can0 18FEF600#FF0040FF00FFFFFF
(1547753841.367691) can0 0CF00400#F0FF7D3405FFFFFF
(1547753841.377638) can0 0CF00300#FF0000FF06FFFFFF
(1547753841.378243) can0 0CEFFF00#6406F87CFFFFFFFF
(1547753841.387718) can0 0CF00400#F0FF7D3405FFFFFF
(1547753841.397689) can0 0CF00300#FF0000FF06FFFFFF
(1547753841.398266) can0 0CEFFF00#6406F87CFFFFFFFF
(1547753841.407690) can0 0CF00400#F0FF7D3405FFFFFF
(1547753841.408289) can0 18FFFA00#022C0000180C0000
(1547753841.417714) can0 0CF00300#FF0000FF06FFFFFF
(1547753841.418314) can0 0CEFFF00#6406F87CFFFFFFFF
(1547753841.418891) can0 18FEF200#0000FFFFFFFFFFFF
(1547753841.427692) can0 0CF00400#F0FF7D7806FFFFFF
(1547753841.437606) can0 0CF00300#FF0000FF06FFFFFF
(1547753841.438174) can0 0CEFFF00#6406F67CFFFFFFFF
(1547753841.438744) can0 18EF0600#640E4900FFFFFFFF
(1547753841.439316) can0 18FEF500#C8FFFFFFFF3BFFFF
(1547753841.447656) can0 0CF00400#F0FF7DAA06FFFFFF
(1547753841.457688) can0 0CF00300#FF0000FF06FFFFFF
(1547753841.458264) can0 0CEFFF00#6406F57CFFFFFFFF
(1547753841.458864) can0 18EFFF00#641000000000007D
(1547753841.467695) can0 0CF00400#F0FF7DAC06FFFFFF
(1547753841.477666) can0 0CF00300#FF0000FF06FFFFFF
(1547753841.478242) can0 0CEFFF00#6406F57CFFFFFFFF
(1547753841.478814) can0 18FE6900#30250E27FFFF60FE
(1547753841.487717) can0 0CF00400#F0FF7DAC06FFFFFF
(1547753841.497667) can0 0CF00300#FF0000FF06FFFFFF
(1547753841.498243) can0 0CEFFF00#6406F57CFFFFFFFF
(1547753841.507690) can0 0CF00400#F0FF7DAC06FFFFFF
(1547753841.508292) can0 18FEDF00#81041DFFFFFFFFFF
(1547753841.517693) can0 0CF00300#FF0000FF06FFFFFF
(1547753841.518268) can0 0CEFFF00#6406F57CFFFFFFFF
(1547753841.518868) can0 18FEF200#0000FFFFFFFFFFFF
(1547753841.527718) can0 0CF00400#F0FF7DAC06FFFFFF
(1547753841.537686) can0 0CF00300#FF0000FF06FFFFFF
(1547753841.538262) can0 0CEFFF00#6406F57CFFFFFFFF
(1547753841.538835) can0 18EF0600#640E5306FFFFFFFF
(1547753841.547736) can0 0CF00400#F0FF7D5404FFFFFF
(1547753841.557686) can0 0CF00300#FF0000FF06FFFFFF
(1547753841.558264) can0 0CEFFF00#6406F97CFFFFFFFF
(1547753841.558860) can0 18EFFF00#641000000000007D
(1547753841.567713) can0 0CF00400#F0FF7D4804FFFFFF
(1547753841.577661) can0 0CF00300#FF0000FF06FFFFFF
(1547753841.578215) can0 0CEFFF00#6406F97CFFFFFFFF
(1547753841.587660) can0 0CF00400#F0FF7D4804FFFFFF
(1547753841.597673) can0 0CF00300#FF0000FF06FFFFFF
(1547753841.598240) can0 0CEFFF00#6406F97CFFFFFFFF
(1547753841.598814) can0 18FD7C00#F880F0F000CF03FC
(1547753841.607741) can0 0CF00400#F0FF7D4804FFFFFF
(1547753841.617717) can0 0CF00300#FF0000FF06FFFFFF
(1547753841.618288) can0 0CEFFF00#6406F97CFFFFFFFF
(1547753841.618866) can0 18FEF200#0000FFFFFFFFFFFF
(1547753841.627717) can0 0CF00400#F0FF7DFE06FFFFFF
(1547753841.637668) can0 0CF00300#FF0000FF06FFFFFF
(1547753841.638195) can0 0CEFFF00#6406F57CFFFFFFFF
(1547753841.638815) can0 18EF0600#640E5D06FFFFFFFF
(1547753841.647716) can0 0CF00400#F0FF7D2207FFFFFF
(1547753841.657668) can0 0CF00300#FF0000FF06FFFFFF
(1547753841.658242) can0 0CEFFF00#6406F57CFFFFFFFF
(1547753841.658840) can0 18EFFF00#641000000000007D
(1547753841.667717) can0 0CF00400#F0FF7D2207FFFFFF
(1547753841.677669) can0 0CF00300#FF0000FF06FFFFFF
(1547753841.678242) can0 0CEFFF00#6406F57CFFFFFFFF
(1547753841.687719) can0 0CF00400#F0FF7D2207FFFFFF
(1547753841.697669) can0 0CF00300#FF0000FF06FFFFFF
(1547753841.698242) can0 0CEFFF00#6406F57CFFFFFFFF
(1547753841.698817) can0 18FDB300#FFFF8C28FFFFFFFF
(1547753841.699392) can0 1CEFFF00#64070000FFFFFFFF
(1547753841.707720) can0 0CF00400#F0FF7D2207FFFFFF
(1547753841.717723) can0 0CF00300#FF0000FF06FFFFFF
(1547753841.718294) can0 0CEFFF00#6406F57CFFFFFFFF
(1547753841.718870) can0 18FEF200#0000FFFFFFFFFFFF
(1547753841.727722) can0 0CF00400#F0FF7D2206FFFFFF
(1547753841.737673) can0 0CF00300#FF0000FF06FFFFFF
(1547753841.738244) can0 0CEFFF00#6406F67CFFFFFFFF
(1547753841.738845) can0 18EF0600#640E6706FFFFFFFF
(1547753841.747725) can0 0CF00400#F0FF7DFA05FFFFFF
(1547753841.757697) can0 0CF00300#FF0000FF06FFFFFF
(1547753841.758271) can0 0CEFFF00#6406F77CFFFFFFFF
(1547753841.758844) can0 18EFFF00#641000000000007D
(1547753841.759443) can0 18FEDF00#81021DFFFFFFFFFF
(1547753841.767730) can0 0CF00400#F0FF7DFA05FFFFFF
(1547753841.777705) can0 0CF00300#FF0000FF06FFFFFF
(1547753841.778269) can0 0CEFFF00#6406F77CFFFFFFFF
(1547753841.778844) can0 18FEEF00#FFFFFF3BFFFFFFFA
(1547753841.787747) can0 0CF00400#F0FF7D8008FFFFFF
(1547753841.797675) can0 0CF00300#FF0000FF06FFFFFF
(1547753841.798246) can0 0CEFFF00#6406F27CFFFFFFFF
(1547753841.807747) can0 0CF00400#FEFF7D2608FFFFFF
(1547753841.817701) can0 0CF00300#FF0064FF06FFFFFF
(1547753841.818270) can0 0CEFFF00#64068C7DFFFFFFFF
(1547753841.818871) can0 18FEF200#2000FFFFFFFFFFFF
(1547753841.827721) can0 0CF00400#FEFFB8CE06FFFFFF
(1547753841.837697) can0 0CF00300#FF0064FF06FFFFFF
(1547753841.838270) can0 0CEFFF00#64068C7DFFFFFFFF
(1547753841.838845) can0 18EF0600#640E7106FFFFFFFF
(1547753841.847721) can0 0CF00400#FEFFB71006FFFFFF
(1547753841.857671) can0 0CF00300#FF0064FF06FFFFFF
(1547753841.858247) can0 0CEFFF00#64068C7DFFFFFFFF
(1547753841.858845) can0 18EFFF00#641000000000007D
(1547753841.859420) can0 18FEF600#FF0040FF00FFFFFF
(1547753841.867722) can0 0CF00400#FEFFB74805FFFFFF
(1547753841.877647) can0 18EFFA00#6401FF0000FFFFFF
(1547753841.878223) can0 0CEFFF00#64068C7DFFFFFFFF
(1547753841.878797) can0 0CF00300#FF0064FF06FFFFFF
(1547753841.887797) can0 0CF00400#FEFFB67405FFFFFF
(1547753841.897698) can0 0CF00300#FF0064FF06FFFFFF
(1547753841.898274) can0 0CEFFF00#64068C7DFFFFFFFF
(1547753841.907724) can0 0CF00400#FEFFB6FA06FFFFFF
(1547753841.917700) can0 0CF00300#FF0064FF06FFFFFF
(1547753841.918274) can0 0CEFFF00#64068C7DFFFFFFFF
(1547753841.918874) can0 18FEF200#1C00FFFFFFFFFFFF
(1547753841.927726) can0 0CF00400#FEFFB79407FFFFFF
(1547753841.937700) can0 0CF00300#FF0064FF06FFFFFF
(1547753841.938276) can0 0CEFFF00#64068C7DFFFFFFFF
(1547753841.938850) can0 18EF0600#640E7B06FFFFFFFF
(1547753841.947726) can0 0CF00400#FEFFB7A207FFFFFF
(1547753841.957702) can0 0CF00300#FF0064FF06FFFFFF
(1547753841.958275) can0 0CEFFF00#64068C7DFFFFFFFF
(1547753841.958849) can0 18EFFF00#641000000000007D
(1547753841.967727) can0 0CF00400#FEFFB77807FFFFFF
(1547753841.977828) can0 0CF00300#FF0064FF06FFFFFF
(1547753841.978398) can0 0CEFFF00#64068C7DFFFFFFFF
(1547753841.978975) can0 18FEEE00#4F41FFFFFFFFFFFF
(1547753841.987703) can0 0CF00400#FEFFB72A07FFFFFF
(1547753841.997703) can0 0CF00300#FF0064FF06FFFFFF
(1547753841.998278) can0 0CEFFF00#64068C7DFFFFFFFF
(1547753842.007729) can0 0CF00400#FEFFB7D206FFFFFF
(1547753842.008327) can0 18FEDF00#81201CFFFFFFFFFF
(1547753842.017828) can0 0CF00300#FF0064FF06FFFFFF
(1547753842.018401) can0 0CEFFF00#64068C7DFFFFFFFF
(1547753842.018978) can0 18FEF200#1C00FFFFFFFFFFFF
(1547753842.027729) can0 0CF00400#FEFFB74206FFFFFF
(1547753842.037829) can0 0CF00300#FF0064FF06FFFFFF
(1547753842.038402) can0 0CEFFF00#64068C7DFFFFFFFF
(1547753842.038954) can0 18EF0600#640E8506FFFFFFFF
(1547753842.047830) can0 0CF00400#FEFFB77205FFFFFF
(1547753842.057730) can0 0CF00300#FF0064FF06FFFFFF
(1547753842.058330) can0 0CEFFF00#64068C7DFFFFFFFF
(1547753842.058904) can0 18EFFF00#641000000000007D
(1547753842.059502) can0 18FEF700#FFFFFFFFFFFFC400
(1547753842.067731) can0 0CF00400#FEFFB6FA05FFFFFF
(1547753842.077681) can0 0CF00300#FF0064FF06FFFFFF
(1547753842.078281) can0 0CEFFF00#64068C7DFFFFFFFF
(1547753842.087757) can0 0CF00400#FEFFB6BC09FFFFFF
(1547753842.097707) can0 0CF00300#FF0064FF06FFFFFF
(1547753842.098282) can0 0CEFFF00#64068C7DFFFFFFFF
(1547753842.107758) can0 0CF00400#FEFFB9460CFFFFFF
(1547753842.117807) can0 0CF00300#FF0064FF06FFFFFF
(1547753842.118330) can0 0CEFFF00#64068C7DFFFFFFFF
(1547753842.118931) can0 18FEF200#3400FFFFFFFFFFFF
(1547753842.127759) can0 0CF00400#FEFFBB980CFFFFFF
(1547753842.137709) can0 0CF00300#FF0064FF06FFFFFF
(1547753842.138258) can0 0CEFFF00#64068C7DFFFFFFFF
(1547753842.138833) can0 18EF0600#640E8F06FFFFFFFF
(1547753842.147758) can0 0CF00400#FEFFBBF40BFFFFFF
(1547753842.157709) can0 0CF00300#FF0064FF06FFFFFF
(1547753842.158285) can0 0CEFFF00#64068C7DFFFFFFFF
(1547753842.158884) can0 18EFFF00#641000000000007D
(1547753842.159457) can0 18FED500#FFFFFCFFFFFFFFFF
(1547753842.167810) can0 0CF00400#FEFFBA1C0AFFFFFF
(1547753842.177711) can0 0CF00300#FF0064FF06FFFFFF
(1547753842.178311) can0 0CEFFF00#64068C7DFFFFFFFF
(1547753842.187738) can0 0CF00400#FEFFB92A0CFFFFFF
(1547753842.197737) can0 0CF00300#FF0064FF06FFFFFF
(1547753842.198312) can0 0CEFFF00#64068C7DFFFFFFFF
(1547753842.198914) can0 18FDB300#FFFF8C28FFFFFFFF
(1547753842.207836) can0 0CF00400#FEFFBB5E0FFFFFFF
(1547753842.217837) can0 0CF00300#FF0064FF06FFFFFF
(1547753842.218387) can0 0CEFFF00#64068C7DFFFFFFFF
(1547753842.218964) can0 18FEF200#4300FFFFFFFFFFFF
(1547753842.227844) can0 0CF00400#FEFFBCE20EFFFFFF
(1547753842.237765) can0 0CF00300#FF0064FF06FFFFFF
(1547753842.238343) can0 0CEFFF00#64068C7DFFFFFFFF
(1547753842.238916) can0 18EF0600#640E9906FFFFFFFF
(1547753842.247895) can0 0CF00400#FEFFBC9E0EFFFFFF
(1547753842.257790) can0 0CF00300#FF0064FF06FFFFFF
(1547753842.258367) can0 0CEFFF00#64068C7DFFFFFFFF
(1547753842.258940) can0 18EFFF00#641000000000007D
(1547753842.259538) can0 18FEDF00#85201CFFFFFFFFFF
(1547753842.267840) can0 0CF00400#FEFFBC1A0EFFFFFF
(1547753842.277765) can0 0CF00300#FF0064FF06FFFFFF
(1547753842.278345) can0 0CEFFF00#64068C7DFFFFFFFF
(1547753842.278915) can0 18FEEF00#FFFFFF52FFFFFFFA
(1547753842.287844) can0 0CF00400#FEFFBCEA0FFFFFFF
(1547753842.297717) can0 0CF00300#FF0064FF06FFFFFF
(1547753842.298317) can0 0CEFFF00#64068C7DFFFFFFFF
(1547753842.307843) can0 0CF00400#FEFFBD1210FFFFFF
(1547753842.317869) can0 0CF00300#FF0064FF06FFFFFF
(1547753842.318441) can0 0CEFFF00#64068C7DFFFFFFFF
(1547753842.319017) can0 18FEF200#4700FFFFFFFFFFFF
(1547753842.327919) can0 0CF00400#FEFFBDA410FFFFFF
(1547753842.337946) can0 0CF00300#FF0064FF06FFFFFF
(1547753842.338517) can0 0CEFFF00#64068C7DFFFFFFFF
(1547753842.339095) can0 18EF0600#640EA306FFFFFFFF
(1547753842.347743) can0 0CF00400#FEFFBD9211FFFFFF
(1547753842.357695) can0 0CF00300#FF0064FF06FFFFFF
(1547753842.358271) can0 0CEFFF00#64068C7DFFFFFFFF
(1547753842.358844) can0 18EFFF00#64100000DB01007D
(1547753842.359416) can0 18FEF600#FF003FFF00FFFFFF
(1547753842.367719) can0 0CF00400#FEFFBE6812FFFFFF
(1547753842.377769) can0 0CF00300#FF0064FF06FFFFFF
(1547753842.378348) can0 0CEFFF00#64068C7DFFFFFFFF
(1547753842.387925) can0 0CF00400#FEFFBE5013FFFFFF
(1547753842.397702) can0 0CF00300#FF0064FF06FFFFFF
(1547753842.398281) can0 0CEFFF00#64068C7DFFFFFFFF
(1547753842.407752) can0 0CF00400#FEFFBF4E14FFFFFF
(1547753842.408303) can0 18FFFA00#022C0000180C00A5
(1547753842.417702) can0 0CF00300#FF0064FF06FFFFFF
(1547753842.418278) can0 0CEFFF00#64068C7DFFFFFFFF
(1547753842.418878) can0 18FEF200#5C00FFFFFFFFFFFF
(1547753842.427752) can0 0CF00400#FEFFBF3415FFFFFF
(1547753842.437751) can0 0CF00300#FF0064FF06FFFFFF
(1547753842.438380) can0 0CEFFF00#64068C7DFFFFFFFF
(1547753842.438928) can0 18EF0600#640EAD06FFFFFFFF
(1547753842.439504) can0 18FEF500#C8FFFFFFFF3BFFFF
(1547753842.447809) can0 0CF00400#FEFFBF2C16FFFFFF
(1547753842.457709) can0 0CF00300#FF0064FF06FFFFFF
(1547753842.458278) can0 0CEFFF00#64068C7DFFFFFFFF
(1547753842.458855) can0 18EFFF00#641000005402007D
(1547753842.467759) can0 0CF00400#FEFFC02A17FFFFFF
(1547753842.477706) can0 0CF00300#FF0064FF06FFFFFF
(1547753842.478235) can0 0CEFFF00#64068E7DFFFFFFFF
(1547753842.478854) can0 18FE6900#F6241227FFFF60FE
(1547753842.487807) can0 0CF00400#FEFFC0F617FFFFFF
(1547753842.497808) can0 0CF00300#FF0064FF06FFFFFF
(1547753842.498381) can0 0CEFFF00#6406917DFFFFFFFF
(1547753842.507733) can0 0CF00400#FEFFC2F218FFFFFF
(1547753842.508307) can0 18FEDF00#89201CFFFFFFFFFF
(1547753842.517708) can0 0CF00300#FF0064FF06FFFFFF
(1547753842.518280) can0 0CEFFF00#6406947DFFFFFFFF
(1547753842.518827) can0 18FEF200#7400FFFFFFFFFFFF
(1547753842.527736) can0 0CF00400#FEFFC3D619FFFFFF
(1547753842.537723) can0 0CF00300#FF0064FF06FFFFFF
(1547753842.538296) can0 0CEFFF00#6406977DFFFFFFFF
(1547753842.538867) can0 18EF0600#640EB706FFFFFFFF
(1547753842.547795) can0 0CF00400#FEFFC5A61AFFFFFF
(1547753842.557722) can0 0CF00300#FF0064FF06FFFFFF
(1547753842.558300) can0 0CEFFF00#64069A7DFFFFFFFF
(1547753842.558870) can0 18EFFF00#64100000C702007D
(1547753842.567774) can0 0CF00400#F8FFC69E1BFFFFFF
(1547753842.577875) can0 0CF00300#FF0064FF06FFFFFF
(1547753842.578419) can0 0CEFFF00#64069D7DFFFFFFFF
(1547753842.587975) can0 0CF00400#F8FFC7781CFFFFFF
(1547753842.597826) can0 0CF00300#FF0064FF06FFFFFF
(1547753842.598397) can0 0CEFFF00#6406A07DFFFFFFFF
(1547753842.598947) can0 18FD7C00#F880F1F500CF03FD
(1547753842.607826) can0 0CF00400#F8FFC9581DFFFFFF
(1547753842.617875) can0 0CF00300#FF0064FF06FFFFFF
(1547753842.618396) can0 0CEFFF00#6406A27DFFFFFFFF
(1547753842.618996) can0 18FEF200#5500FFFFFFFFFFFF
(1547753842.628077) can0 0CF00400#F0FFCAE41DFFFFFF
(1547753842.637802) can0 0CF00300#FF0056FF06FFFFFF
(1547753842.638399) can0 0CEFFF00#64069B7DFFFFFFFF
(1547753842.638973) can0 18EF0600#640EC106FFFFFFFF
(1547753842.647877) can0 0CF00400#F0FFC7661EFFFFFF
(1547753842.657805) can0 0CF00300#FF0036FF06FFFFFF
(1547753842.658368) can0 0CEFFF00#64066C7DFFFFFFFF
(1547753842.658941) can0 18EFFF00#641001010803007D
(1547753842.668144) can0 0CF00400#F0FFB5FE1EFFFFFF
(1547753842.677869) can0 0CF00300#FF0018FF06FFFFFF
(1547753842.678415) can0 0CEFFF00#6406287DFFFFFFFF
(1547753842.687795) can0 0CF00400#F0FF9B6C1FFFFFFF
(1547753842.697745) can0 0CF00300#FF0004FF06FFFFFF
(1547753842.698318) can0 0CEFFF00#6406F27CFFFFFFFF
(1547753842.698894) can0 18FDB300#FFFFA428FFFFFFFF
(1547753842.699490) can0 1CEFFF00#64070000FFFFFFFF
(1547753842.707974) can0 0CF00400#F0FF87A41FFFFFFF
(1547753842.717871) can0 0CF00300#FF0000FF06FFFFFF
(1547753842.718416) can0 0CEFFF00#6406D97CFFFFFFFF
(1547753842.718996) can0 18FEF200#0000FFFFFFFFFFFF
(1547753842.727797) can0 0CF00400#F1FF7DA41FFFFFFF
(1547753842.728344) can0 18EEFF47#4D74300400340220
(1547753842.728919) can0 18EEFF06#4D743004000E0020
(1547753842.729519) can0 18EEFF03#4D74300400030220
(1547753842.737797) can0 0CF00300#FF0000FF06FFFFFF
(1547753842.738378) can0 0CEFFF00#6406D97CFFFFFFFF
(1547753842.738909) can0 18EF0600#640ECB06FFFFFFFF
(1547753842.747761) can0 0CF00400#F1FF7D461FFFFFFF
(1547753842.757731) can0 0CF00300#FF0000FF06FFFFFF
(1547753842.758307) can0 0CEFFF00#6406D97CFFFFFFFF
(1547753842.758877) can0 18EFFF00#641001010703057D
(1547753842.759476) can0 18FEDF00#8CE01CFFFFFFFFFF
(1547753842.767804) can0 0CF00400#F1FF7DE01EFFFFFF
(1547753842.777755) can0 0CF00300#FF0000FF06FFFFFF
(1547753842.778334) can0 0CEFFF00#6406DA7CFFFFFFFF
(1547753842.778904) can0 18FEEF00#FFFFFF65FFFFFFFA
(1547753842.787834) can0 0CF00400#F1FF7D7E1EFFFFFF
(1547753842.797785) can0 0CF00300#FF0012FF06FFFFFF
(1547753842.798354) can0 0CEFFF00#6406EF7CFFFFFFFF
(1547753842.799053) can0 18EEFF17#0C6E240400130220
(1547753842.807835) can0 0CF00400#F1FF85021EFFFFFF
(1547753842.817801) can0 0CF00300#FF0018FF06FFFFFF
(1547753842.818366) can0 0CEFFF00#6406027DFFFFFFFF
(1547753842.818966) can0 18FEF200#0F00FFFFFFFFFFFF
(1547753842.827844) can0 0CF00400#F1FF8CA21DFFFFFF
(1547753842.837769) can0 0CF00300#FF001DFF06FFFFFF
(1547753842.838341) can0 0CEFFF00#64060A7DFFFFFFFF
(1547753842.838916) can0 18EF0600#640ED506FFFFFFFF
(1547753842.847843) can0 0CF00400#F1FF8F381DFFFFFF
(1547753842.857758) can0 0CF00300#FF004DFF06FFFFFF
(1547753842.858361) can0 0CEFFF00#6406207DFFFFFFFF
(1547753842.858908) can0 18EFFF00#64100101E402037D
(1547753842.859506) can0 18FEF600#FF003EFF00FFFFFF
(1547753842.867836) can0 0CF00400#F0FF98F41CFFFFFF
(1547753842.877884) can0 18EFFA00#6401FF0000FFFFFF
(1547753842.878457) can0 0CEFFF00#64067B7DFFFFFFFF
(1547753842.879010) can0 0CF00300#FF0054FF06FFFFFF
(1547753842.887761) can0 0CF00400#F0FFBBC01CFFFFFF
(1547753842.897786) can0 0CF00300#FF0052FF06FFFFFF
(1547753842.898363) can0 0CEFFF00#6406837DFFFFFFFF
(1547753842.907839) can0 0CF00400#F0FFBEFA1CFFFFFF
(1547753842.918090) can0 0CF00300#FF0046FF06FFFFFF
(1547753842.918659) can0 0CEFFF00#6406737DFFFFFFFF
(1547753842.919236) can0 18FEF200#3D00FFFFFFFFFFFF
(1547753842.927840) can0 0CF00400#F0FFB7541DFFFFFF
(1547753842.937763) can0 0CF00300#FF0038FF06FFFFFF
(1547753842.938339) can0 0CEFFF00#6406567DFFFFFFFF
(1547753842.938911) can0 18EF0600#640EDF06FFFFFFFF
(1547753842.947841) can0 0CF00400#F0FFACA81DFFFFFF
(1547753842.957837) can0 0CF00300#FF0029FF06FFFFFF
(1547753842.958435) can0 0CEFFF00#64063D7DFFFFFFFF
(1547753842.959012) can0 18EFFF00#64100101F902037D
(1547753842.967840) can0 0CF00400#F0FFA3121EFFFFFF
(1547753842.977763) can0 0CF00300#FF0018FF06FFFFFF
(1547753842.978341) can0 0CEFFF00#6406187DFFFFFFFF
(1547753842.978913) can0 18FEEE00#4F41FFFFFFFFFFFF
(1547753842.987791) can0 0CF00400#F0FF95401EFFFFFF
(1547753842.989414) can0 0DEF0603#0101FFFFFFFFFFF5
(1547753842.997789) can0 0CF00300#FF000EFF06FFFFFF
(1547753842.998364) can0 0CEFFF00#6406007DFFFFFFFF
(1547753843.007842) can0 0CF00400#F0FF8C581EFFFFFF
(1547753843.008388) can0 18FEDF00#8B201CFFFFFFFFFF
(1547753843.009339) can0 0DEF0647#0104FFFFFFFFFFF1
(1547753843.009941) can0 0DEF0603#0101FFFFFFFFFFF5
(1547753843.010337) can0 18EAFF47#00EE00
(1547753843.010915) can0 0CFFFE06#5CFFFFFFFFFFFFFF
(1547753843.017765) can0 0CF00300#FF0000FF06FFFFFF
(1547753843.018340) can0 0CEFFF00#6406EC7CFFFFFFFF
(1547753843.018915) can0 18FEF200#0600FFFFFFFFFFFF
(1547753843.027791) can0 0CF00400#F1FF84441EFFFFFF
(1547753843.029441) can0 0DEF0603#0101FFFFFFFFFFF5
(1547753843.037768) can0 0CF00300#FF0000FF06FFFFFF
(1547753843.038317) can0 0CEFFF00#6406DA7CFFFFFFFF
(1547753843.038891) can0 18EF0600#640EE906FFFFFFFF
(1547753843.047793) can0 0CF00400#F1FF7DFA1DFFFFFF
(1547753843.049441) can0 0DEF0603#0101FFFFFFFFFFF5
(1547753843.050045) can0 0CFE4947#FFFFFFFFFFFFFFFF
(1547753843.050641) can0 0CFE4347#FFFFFFFFFFFFFFFF
(1547753843.051242) can0 0CFE4447#0000FFFF3FFFFFFF
(1547753843.057744) can0 0CF00300#FF0006FF06FFFFFF
(1547753843.058318) can0 0CEFFF00#6406DA7CFFFFFFFF
(1547753843.058892) can0 18EFFF00#64100101F002067D
(1547753843.059465) can0 18FEF700#FFFFFFFFFFFFED00
(1547753843.060274) can0 18EEFF00#56F5290400000220
(1547753843.067778) can0 0CF00400#F1FF7DA81DFFFFFF
(1547753843.069443) can0 0DEF0603#0101FFFFFFFFFFF5
(1547753843.077794) can0 0CF00300#FF0010FF06FFFFFF
(1547753843.078393) can0 0CEFFF00#6406F77CFFFFFFFF
(1547753843.079592) can0 18EAFF17#00EE00
(1547753843.087845) can0 0CF00400#F1FF88401DFFFFFF
(1547753843.089443) can0 0DEF0603#0101FFFFFFFFFFF5
(1547753843.090021) can0 18FEF147#FF0000FFFFFFFFFF
(1547753843.090617) can0 18F00503#FFFFFFFFFFFFFFFF
(1547753843.097795) can0 0CF00300#FF001AFF06FFFFFF
(1547753843.098381) can0 0CEFFF00#64060C7DFFFFFFFF
(1547753843.099706) can0 1CFFFF17#22FFFF3CFFFFFFFF
(1547753843.107807) can0 0CF00400#F1FF90E21CFFFFFF
(1547753843.109356) can0 0DEF0647#0104FFFFFFFFFFF1
(1547753843.109959) can0 0DEF0603#0101FFFFFFFFFFF5
(1547753843.112731) can0 18EEFF00#56F5290400000220
(1547753843.117858) can0 0CF00300#FF0022FF06FFFFFF
(1547753843.118405) can0 0CEFFF00#6406157DFFFFFFFF
(1547753843.118981) can0 18FEF200#1600FFFFFFFFFFFF
(1547753843.127919) can0 0CF00400#F0FF93921CFFFFFF
(1547753843.129442) can0 0DEF0603#0101FFFFFFFFFFF5
(1547753843.130067) can0 0CFE4947#FFFFFFFFFFFFFFFF
(1547753843.130641) can0 0CFE4347#FFFFFFFFFFFFFFFF
(1547753843.131257) can0 0CFE4447#0000FFFF3FFFFFFF
(1547753843.131857) can0 0CFFFE06#5CFFFFFFFFFFFFFF
(1547753843.137842) can0 0CF00300#FF003BFF06FFFFFF
(1547753843.138405) can0 0CEFFF00#64064B7DFFFFFFFF
(1547753843.138983) can0 18EF0600#640EF306FFFFFFFF
(1547753843.147793) can0 0CF00400#F0FFA8561CFFFFFF
(1547753843.149441) can0 0DEF0603#0101FFFFFFFFFFF5
(1547753843.157820) can0 0CF00300#FF003CFF06FFFFFF
(1547753843.158371) can0 0CEFFF00#6406517DFFFFFFFF
(1547753843.158946) can0 18EFFF00#64100101DD02037D
(1547753843.159544) can0 18FED500#FFFFFDFFFFFFFFFF
(1547753843.167923) can0 0CF00400#F0FFAA401CFFFFFF
(1547753843.169446) can0 0DEF0603#0101FFFFFFFFFFF5
(1547753843.170024) can0 18FEF147#FF0000FFFFFFFFFF
(1547753843.170620) can0 18F00503#FFFFFFFFFFFFFFFF
(1547753843.177947) can0 0CF00300#FF003DFF06FFFFFF
(1547753843.178533) can0 0CEFFF00#6406527DFFFFFFFF
(1547753843.187861) can0 0CF00400#F0FFAB2C1CFFFFFF
(1547753843.189459) can0 0DEF0603#0101FFFFFFFFFFF5
(1547753843.197812) can0 0CF00300#FF003CFF06FFFFFF
(1547753843.198410) can0 0CEFFF00#6406547DFFFFFFFF
(1547753843.198961) can0 18FDB300#FFFF8A28FFFFFFFF
(1547753843.207788) can0 0CF00400#F0FFAC5E1CFFFFFF
(1547753843.209361) can0 0DEF0647#0104FFFFFFFFFFF1
(1547753843.209962) can0 0DEF0603#0101FFFFFFFFFFF5
(1547753843.210585) can0 0CFFFE06#5CFFFFFFFFFFFFFF
(1547753843.218064) can0 0CF00300#FF0037FF06FFFFFF
(1547753843.218634) can0 0CEFFF00#64064C7DFFFFFFFF
(1547753843.219212) can0 18FEF200#2F00FFFFFFFFFFFF
(1547753843.227863) can0 0CF00400#F0FFA8A81CFFFFFF
(1547753843.229462) can0 0DEF0603#0101FFFFFFFFFFF5
(1547753843.237814) can0 0CF00300#FF0033FF06FFFFFF
(1547753843.238350) can0 0CEFFF00#6406427DFFFFFFFF
(1547753843.238950) can0 18EF0600#640EFD06FFFFFFFF
(1547753843.239622) can0 18EA0017#09FF00
(1547753843.247853) can0 0CF00400#F0FFA5D01CFFFFFF
(1547753843.249450) can0 0DEF0603#0101FFFFFFFFFFF5
(1547753843.250052) can0 0CFE4947#FFFFFFFFFFFFFFFF
(1547753843.250650) can0 0CFE4347#FFFFFFFFFFFFFFFF
(1547753843.251252) can0 0CFE4447#0000FFFF3FFFFFFF
(1547753843.257786) can0 0CF00300#FF002EFF06FFFFFF
(1547753843.258376) can0 0CEFFF00#64063B7DFFFFFFFF
(1547753843.258950) can0 18EFFF00#64100101E802047D
(1547753843.259549) can0 18FEDF00#8B201CFFFFFFFFFF
(1547753843.260983) can0 18FF0900#454355FFFFFFFFFF
(1547753843.267834) can0 0CF00400#F0FFA2FE1CFFFFFF
(1547753843.269952) can0 0DEF0603#0101FFFFFFFFFFF5
(1547753843.271101) can0 0C000006#30FFFFFFF8FFFFFF
(1547753843.271649) can0 04EF0006#641510F00000930E
(1547753843.277802) can0 0CF00300#FF0027FF06FFFFFF
(1547753843.278376) can0 0CEFFF00#64062F7DFFFFFFFF
(1547753843.278952) can0 18FEEF00#FFFFFF64FFFFFFFA
(1547753843.287804) can0 0CF00400#F0FF9D221DFFFFFF
(1547753843.289953) can0 0DEF0603#0101FFFFFFFFFFF5
(1547753843.291127) can0 04EF0006#641510F00000930E
(1547753843.291699) can0 0CFFFE06#5C271D271DFFFFFF
(1547753843.292277) can0 18FEF147#FF0000FFFFFFFFFF
(1547753843.292877) can0 18FFFB06#0005B1F8FFFFFFFF
(1547753843.293475) can0 18F00503#FFFFFFFFFFFFFFFF
(1547753843.297854) can0 0CF00300#FF0023FF06FFFFFF
(1547753843.298425) can0 0CEFFF00#6406247DFFFFFFFF
(1547753843.307855) can0 0CF00400#F0FF99321DFFFFFF
(1547753843.309852) can0 0DEF0647#0104FFFFFFFFFFF1
(1547753843.310451) can0 0DEF0603#0101FFFFFFFFFFF5
(1547753843.311602) can0 04EF0006#641510F00000930E
(1547753843.317803) can0 0CF00300#FF0020FF06FFFFFF
(1547753843.318405) can0 0CEFFF00#64061D7DFFFFFFFF
(1547753843.318978) can0 18FEF200#1A00FFFFFFFFFFFF
(1547753843.327808) can0 0CF00400#F0FF963A1DFFFFFF
(1547753843.330231) can0 0DEF0603#0101FFFFFFFFFFF5
(1547753843.331429) can0 04EF0006#641510F00000930E
(1547753843.332004) can0 0CFE4947#FFFFFFFFFFFFFFFF
(1547753843.332603) can0 0CFFFF47#5DFFFFF3FFFFFFFF
(1547753843.333204) can0 0CFE4347#0000FFFF3FFFFFFF
(1547753843.333802) can0 0CFE4447#0000FFFF3FFFFFFF
(1547753843.337918) can0 0CF00300#FF001DFF06FFFFFF
(1547753843.338490) can0 0CEFFF00#6406177DFFFFFFFF
(1547753843.339067) can0 18EF0600#640E0700FFFFFFFF
(1547753843.347954) can0 0CF00400#F0FF94381DFFFFFF
(1547753843.350177) can0 0DEF0603#0101FFFFFFFFFFF5
(1547753843.351390) can0 04EF0006#641510F00000930E
(1547753843.357869) can0 0CF00300#FF001CFF06FFFFFF
(1547753843.358415) can0 0CEFFF00#6406147DFFFFFFFF
(1547753843.358967) can0 18EFFF00#64100101EA02057D
(1547753843.359541) can0 18FEF600#FF003DFF00FFFFFF
(1547753843.367796) can0 0CF00400#FEFF93261DFFFFFF
(1547753843.370229) can0 0DEF0603#0101FFFFFFFFFFF5
(1547753843.371442) can0 04EF0006#641510F00000930E
(1547753843.372018) can0 18FEF147#FF0000FFFFFFFFFF
(1547753843.372617) can0 18F00503#7DFFFFFFFFFFFFFF
(1547753843.377820) can0 0CF00300#FF000EFF06FFFFFF
(1547753843.378380) can0 0CEFFF00#6406DB7CFFFFFFFF
(1547753843.388033) can0 0CF00400#FEFF7D041DFFFFFF
(1547753843.390184) can0 0DEF0603#0101FFFFFFFFFFF5
(1547753843.391406) can0 04EF0006#641510F00000930E
(1547753843.397859) can0 0CF00300#FF0017FF06FFFFFF
(1547753843.398430) can0 0CEFFF00#6406057DFFFFFFFF
(1547753843.407858) can0 0CF00400#FEFF8DDC1CFFFFFF
(1547753843.408405) can0 18FFFA00#022C0000180C0081
(1547753843.409911) can0 0DEF0647#0104FFFFFFFFFFF1
(1547753843.410531) can0 0DEF0603#0101FFFFFFFFFFF5
(1547753843.411582) can0 04EF0006#641510F00000930E
(1547753843.412157) can0 0CFFFE06#5C271D271DFFFFFF
(1547753843.412732) can0 18FFFF06#73FFFFFFFFFFFFFF
(1547753843.413332) can0 18FFFB06#000582F8FFFFFFFF
(1547753843.413892) can0 18EEFF47#4D74300400340220
(1547753843.414464) can0 18EEFF17#0C6E240400130220
(1547753843.415015) can0 18EEFF06#4D743004000E0020
(1547753843.415588) can0 18EEFF03#4D74300400030220
(1547753843.417808) can0 0CF00300#FF001DFF06FFFFFF
(1547753843.418408) can0 0CEFFF00#64060C7DFFFFFFFF
(1547753843.418983) can0 18FEF200#1200FFFFFFFFFFFF
(1547753843.427997) can0 0CF00400#FEFF90981CFFFFFF
(1547753843.430222) can0 0DEF0603#0101FFFFFFFFFFF5
(1547753843.431421) can0 04EF0006#641510F00000930E
(1547753843.437873) can0 0CF00300#FF0026FF06FFFFFF
(1547753843.438419) can0 0CEFFF00#64061B7DFFFFFFFF
(1547753843.438996) can0 18EF0600#640E1100FFFFFFFF
(1547753843.439569) can0 18FEF500#C8FFFFFFFF3AFFFF
(1547753843.447875) can0 0CF00400#F0FF964A1CFFFFFF
(1547753843.450247) can0 0DEF0603#0101FFFFFFFFFFF5
(1547753843.451447) can0 04EF0006#641510F00000930E
(1547753843.452022) can0 0CFE4947#FFFFFFFFFFFFFFFF
(1547753843.452621) can0 1CFDDF47#FCFFFFFFFFFFFFFF
(1547753843.453196) can0 0CFE4347#0000FFFF3FFFFFFF
(1547753843.453794) can0 0CFE4447#0000FFFF3FFFFFFF
(1547753843.457824) can0 0CF00300#FF0031FF06FFFFFF
(1547753843.458397) can0 0CEFFF00#6406397DFFFFFFFF
(1547753843.458971) can0 18EFFF00#64100101DB02047D
(1547753843.467860) can0 0CF00400#F0FFA1281CFFFFFF
(1547753843.470231) can0 0DEF0603#0101FFFFFFFFFFF5
(1547753843.471432) can0 04EF0006#641510F00000930E
(1547753843.478225) can0 0CF00300#FF0032FF06FFFFFF
(1547753843.478795) can0 0CEFFF00#64063B7DFFFFFFFF
(1547753843.479372) can0 18FE6900#D8241427FFFF60FE
(1547753843.487876) can0 0CF00400#F0FFA20A1CFFFFFF
(1547753843.490299) can0 0DEF0603#0101FFFFFFFFFFF5
(1547753843.491508) can0 04EF0006#641510F00000930E
(1547753843.492098) can0 0CFFFE06#5C271D271DFFFFFF
(1547753843.492672) can0 18FEF147#FF0000FFFFFFFFFF
(1547753843.493249) can0 18F00647#FFCFFFFFFFFFFFFF
(1547753843.493876) can0 18F00503#7DFFFFFFFFFFFFFF
(1547753843.497824) can0 0CF00300#FF0033FF06FFFFFF
(1547753843.498399) can0 0CEFFF00#6406407DFFFFFFFF
(1547753843.507877) can0 0CF00400#F0FFA30A1CFFFFFF
(1547753843.508421) can0 18FEDF00#8B201CFFFFFFFFFF
(1547753843.509933) can0 0DEF0647#0104FFFFFFFFFFF1
(1547753843.510546) can0 0DEF0603#0101FFFFFFFFFFF5
(1547753843.511658) can0 04EF0006#641510F00000930E
(1547753843.517903) can0 0CF00300#FF0032FF06FFFFFF
(1547753843.518473) can0 0CEFFF00#64063F7DFFFFFFFF
(1547753843.519049) can0 18FEF200#2A00FFFFFFFFFFFF
(1547753843.527930) can0 0CF00400#F0FFA3221CFFFFFF
(1547753843.530237) can0 0DEF0603#0101FFFFFFFFFFF5
(1547753843.531437) can0 04EF0006#641510F00000930E
(1547753843.532014) can0 0CFE4947#FFFFFFFFFFFFFFFF
(1547753843.532612) can0 18FFFB06#0005C0F8FFFFFFFF
(1547753843.533188) can0 0CFE4347#0000FFFF3FFFFFFF
(1547753843.533786) can0 0CFE4447#0000FFFF3FFFFFFF
(1547753843.537865) can0 0CF00300#FF0030FF06FFFFFF
(1547753843.538411) can0 0CEFFF00#64063B7DFFFFFFFF
(1547753843.538987) can0 18EF0600#640E1B00FFFFFFFF
(1547753843.547849) can0 0CF00400#F0FFA2421CFFFFFF
(1547753843.550222) can0 0DEF0603#0101FFFFFFFFFFF5
(1547753843.551438) can0 04EF0006#641510F00000930E
(1547753843.557942) can0 0CF00300#FF002EFF06FFFFFF
(1547753843.558511) can0 0CEFFF00#6406377DFFFFFFFF
(1547753843.559088) can0 18EFFF00#64100101D902037D
(1547753843.568091) can0 0CF00400#F0FFA0601CFFFFFF
(1547753843.570215) can0 0DEF0603#0101FFFFFFFFFFF5
(1547753843.571414) can0 04EF0006#641510F00000930E
(1547753843.571990) can0 18FEF147#FF0000FFFFFFFFFF
(1547753843.572587) can0 18F00503#7DFFFFFFFFFFFFFF
(1547753843.577892) can0 0CF00300#FF002CFF06FFFFFF
(1547753843.578462) can0 0CEFFF00#6406337DFFFFFFFF
(1547753843.587867) can0 0CF00400#F0FF9F7A1CFFFFFF
(1547753843.590241) can0 0DEF0603#0101FFFFFFFFFFF5
(1547753843.591440) can0 04EF0006#641510F00000930E
(1547753843.597818) can0 0CF00300#FF0029FF06FFFFFF
(1547753843.598390) can0 0CEFFF00#64062F7DFFFFFFFF
(1547753843.598939) can0 18FD7C00#F880F1F000CF03FD
(1547753843.599738) can0 18EA4717#09FF00
(1547753843.600115) can0 18EA0617#09FF00
(1547753843.600513) can0 18EA0317#09FF00
(1547753843.607918) can0 0CF00400#F0FF9D961CFFFFFF
(1547753843.609917) can0 0DEF0647#0104FFFFFFFFFFF1
(1547753843.610514) can0 0DEF0603#0101FFFFFFFFFFF5
(1547753843.611591) can0 04EF0006#641511F08B18930E
(1547753843.612141) can0 0CFFFE06#5C271D271DFFFFFF
(1547753843.612714) can0 18FF0947#434355FFFFFFFFFF
(1547753843.613291) can0 18FF0906#454943FFFFFFFFFF
(1547753843.613894) can0 18FF0903#505452FFFFFFFFFF
(1547753843.614590) can0 18FECA06#00FF00000000FFFF
(1547753843.615674) can0 18FECA47#00FF00000000FFFF
(1547753843.616874) can0 18FECA03#00FF00000000FFFF
(1547753843.617893) can0 0CF00300#FF0027FF06FFFFFF
(1547753843.618464) can0 0CEFFF00#64062A7DFFFFFFFF
(1547753843.619041) can0 18FEF200#2000FFFFFFFFFFFF
(1547753843.627871) can0 0CF00400#F0FF9BAE1CFFFFFF
(1547753843.630242) can0 0DEF0603#0101FFFFFFFFFFF5
(1547753843.631441) can0 04EF0006#641512F0E818930E
(1547753843.637870) can0 0CF00300#FF0020FF06FFFFFF
(1547753843.638415) can0 0CEFFF00#6406277DFFFFFFFF
(1547753843.638967) can0 18EF0600#640E2500FFFFFFFF
(1547753843.647966) can0 0CF00400#F0FF9AAE1CFFFFFF
(1547753843.650287) can0 0DEF0603#0101FFFFFFFFFFF5
(1547753843.651486) can0 04EF0006#641513F0E818930E
(1547753843.652062) can0 0CFE4947#FFFFFFFFFFFFFFFF
(1547753843.652661) can0 18FFFB06#0005A7F8FFFFFFFF
(1547753843.653237) can0 0CFE4347#0000FFFF3FFFFFFF
(1547753843.653834) can0 0CFE4447#0000FFFF3FFFFFFF
(1547753843.658066) can0 0CF00300#FF0020FF06FFFFFF
(1547753843.658633) can0 0CEFFF00#6406267DFFFFFFFF
(1547753843.659214) can0 18EFFF00#64100101E102057D
(1547753843.667866) can0 0CF00400#F0FF9AB21CFFFFFF
(1547753843.670239) can0 0DEF0603#0101FFFFFFFFFFF5
(1547753843.671513) can0 04EF0006#641514F03019930E
(1547753843.677868) can0 0CF00300#FF001FFF06FFFFFF
(1547753843.678439) can0 0CEFFF00#6406247DFFFFFFFF
(1547753843.681263) can0 18FECA17#00FF00000000FFFF
(1547753843.687992) can0 0CF00400#F0FF99B21CFFFFFF
(1547753843.690291) can0 0DEF0603#0101FFFFFFFFFFF5
(1547753843.691511) can0 04EF0006#641515F03019930E
(1547753843.692062) can0 0CFFFE06#5C271D271DFFFFFF
(1547753843.692638) can0 18FEF147#FF0000FFFFFFFFFF
(1547753843.693237) can0 18F00503#7DFFFFFFFFFFFFFF
(1547753843.698016) can0 0CF00300#FF001FFF06FFFFFF
(1547753843.698586) can0 0CEFFF00#6406237DFFFFFFFF
(1547753843.699165) can0 18FDB300#FFFFA428FFFFFFFF
(1547753843.699736) can0 1CEFFF00#64070000FFFFFFFF
(1547753843.707867) can0 0CF00400#F0FF99A61CFFFFFF
(1547753843.709941) can0 0DEF0647#0104FFFFFFFFFFF1
(1547753843.710594) can0 0DEF0603#0101FFFFFFFFFFF5
(1547753843.711765) can0 04EF0006#641516F03419930E
(1547753843.717944) can0 0CF00300#FF001FFF06FFFFFF
(1547753843.718511) can0 0CEFFF00#6406247DFFFFFFFF
(1547753843.719113) can0 18FEF200#1E00FFFFFFFFFFFF
(1547753843.727918) can0 0CF00400#F0FF99A41CFFFFFF
(1547753843.729515) can0 18EAFF06#E5FE00
(1547753843.730491) can0 0DEF0603#0101FFFFFFFFFFF5
(1547753843.731688) can0 04EF0006#641517F03419930E
(1547753843.732266) can0 0CFE4947#FFFFFFFFFFFFFFFF
(1547753843.732837) can0 18FEE706#CC0A0000FFFFFFFF
(1547753843.733440) can0 0CFE4347#0000FFFF3FFFFFFF
(1547753843.734043) can0 0CFE4447#0000FFFF3FFFFFFF
(1547753843.737866) can0 0CF00300#FF001FFF06FFFFFF
(1547753843.738439) can0 0CEFFF00#6406237DFFFFFFFF
(1547753843.739015) can0 18EF0600#640E2F00FFFFFFFF
(1547753843.747870) can0 0CF00400#F0FF99A41CFFFFFF
(1547753843.750367) can0 0DEF0603#0101FFFFFFFFFFF5
(1547753843.751617) can0 04EF0006#641518F03419930E
(1547753843.757865) can0 0CF00300#FF000BFF06FFFFFF
(1547753843.758445) can0 0CEFFF00#6406227DFFFFFFFF
(1547753843.759015) can0 18EFFF00#64100101DF02057D
(1547753843.759591) can0 18FEDF00#8B221CFFFFFFFFFF
(1547753843.760165) can0 1CFFFF17#22FFFF3CFFFFFFFF
(1547753843.760739) can0 18FEE500#CC0A0000FFFFFFFF
(1547753843.761140) can0 18EA0017#E5FE00
(1547753843.767915) can0 0CF00400#FEFF98941CFFFFFF
(1547753843.770442) can0 0DEF0603#0101FFFFFFFFFFF5
(1547753843.771640) can0 04EF0006#641519F09018930E
(1547753843.772218) can0 18FEF147#FF0000FFFFFFFFFF
(1547753843.772814) can0 18FFFB06#0005A1F8FFFFFFFF
(1547753843.773416) can0 18F00503#7DFFFFFFFFFFFFFF
(1547753843.777995) can0 0CF00300#FF001AFF06FFFFFF
(1547753843.778568) can0 0CEFFF00#6406147DFFFFFFFF
(1547753843.779118) can0 18FEEF00#FFFFFF64FFFFFFFA
(1547753843.787945) can0 0CF00400#FEFF93881CFFFFFF
(1547753843.790446) can0 0DEF0603#0101FFFFFFFFFFF5
(1547753843.791617) can0 04EF0006#64151AF03019930E
(1547753843.797867) can0 0CF00300#FF001AFF06FFFFFF
(1547753843.798442) can0 0CEFFF00#6406177DFFFFFFFF
(1547753843.807922) can0 0CF00400#FEFF94781CFFFFFF
(1547753843.809996) can0 0DEF0647#0104FFFFFFFFFFF1
(1547753843.810666) can0 0DEF0603#0101FFFFFFFFFFF5
(1547753843.811867) can0 04EF0006#64151BF02F19930E
(1547753843.812418) can0 0CFFFE06#5C271D271DFFFFFF
(1547753843.812992) can0 18FEE500#CC0A0000FFFFFFFF
(1547753843.817921) can0 0CF00300#FF001DFF06FFFFFF
(1547753843.818453) can0 0CEFFF00#64061B7DFFFFFFFF
(1547753843.819026) can0 18FEF200#1900FFFFFFFFFFFF
(1547753843.828076) can0 0CF00400#FEFF96561CFFFFFF
(1547753843.830378) can0 0DEF0603#0101FFFFFFFFFFF5
(1547753843.831550) can0 04EF0006#64151CF02F19930E
(1547753843.837877) can0 0CF00300#FF0021FF06FFFFFF
(1547753843.838424) can0 0CEFFF00#6406257DFFFFFFFF
(1547753843.839001) can0 18EF0600#640E3900FFFFFFFF
(1547753843.847876) can0 0CF00400#FEFF993A1CFFFFFF
(1547753843.850401) can0 0DEF0603#0101FFFFFFFFFFF5
(1547753843.851601) can0 04EF0006#64151DF0CC18930E
(1547753843.852177) can0 0CFE4947#FFFFFFFFFFFFFFFF
(1547753843.852751) can0 0CFFFF47#5DFFFFF3FFFFFFFF
(1547753843.853352) can0 0CFE4347#0000FFFF3FFFFFFF
(1547753843.853954) can0 0CFE4447#0000FFFF3FFFFFFF
(1547753843.857879) can0 0CF00300#FF0020FF06FFFFFF
(1547753843.858424) can0 0CEFFF00#6406277DFFFFFFFF
(1547753843.858984) can0 18EFFF00#64100101D502057D
(1547753843.859558) can0 18FEF600#FF003DFF00FFFFFF
(1547753843.867935) can0 0CF00400#F0FF9A301CFFFFFF
(1547753843.870388) can0 0DEF0603#0101FFFFFFFFFFF5
(1547753843.871602) can0 04EF0006#64151EF00719930E
(1547753843.877979) can0 18EFFA00#6401FF0000FFFFFF
(1547753843.878552) can0 0CEFFF00#64062C7DFFFFFFFF
(1547753843.879171) can0 0CF00300#FF0023FF06FFFFFF
(1547753843.887921) can0 0CF00400#F0FF9C281CFFFFFF
(1547753843.890477) can0 0DEF0603#0101FFFFFFFFFFF5
(1547753843.891672) can0 04EF0006#64151FF01119930E
(1547753843.892222) can0 0CFFFE06#5C271D271DFFFFFF
(1547753843.892799) can0 18FEF147#FF0000FFFFFFFFFF
(1547753843.893396) can0 18FFFB06#0005ACF8FFFFFFFF
(1547753843.894026) can0 18FFFB06#001BFFFFFFFFFFFF
(1547753843.894622) can0 18F00503#7DFFFFFFFFFFFFFF
(1547753843.897927) can0 0CF00300#FF0024FF06FFFFFF
(1547753843.898471) can0 0CEFFF00#64062D7DFFFFFFFF
(1547753843.907998) can0 0CF00400#F0FF9D221CFFFFFF
(1547753843.909905) can0 0DEF0647#0104FFFFFFFFFFF1
(1547753843.910555) can0 0DEF0603#0101FFFFFFFFFFF5
(1547753843.911721) can0 04EF0006#641510F01119930E
(1547753843.918125) can0 0CF00300#FF0024FF06FFFFFF
(1547753843.918721) can0 0CEFFF00#64062E7DFFFFFFFF
(1547753843.919301) can0 18FEF200#2300FFFFFFFFFFFF
(1547753843.927923) can0 0CF00400#F0FF9D281CFFFFFF
(1547753843.930455) can0 0DEF0603#0101FFFFFFFFFFF5
(1547753843.931647) can0 04EF0006#641511F01119930E
(1547753843.932224) can0 0CFE4947#FFFFFFFFFFFFFFFF
(1547753843.932822) can0 18FE6847#3CFFFFFFFFFFFFFF
(1547753843.933396) can0 0CFE4347#0000FFFF3FFFFFFF
(1547753843.933942) can0 18FFFF06#73FFFFFFFFFFFFFF
(1547753843.934547) can0 0CFE4447#0000FFFF3FFFFFFF
(1547753843.937931) can0 0CF00300#FF0023FF06FFFFFF
(1547753843.938471) can0 0CEFFF00#64062D7DFFFFFFFF
(1547753843.938999) can0 18EF0600#640E4300FFFFFFFF
(1547753843.947877) can0 0CF00400#F0FF9D301CFFFFFF
(1547753843.950403) can0 0DEF0603#0101FFFFFFFFFFF5
(1547753843.951623) can0 04EF0006#641512F00719930E
(1547753843.957951) can0 0CF00300#FF0023FF06FFFFFF
(1547753843.958550) can0 0CEFFF00#64062C7DFFFFFFFF
(1547753843.959100) can0 18EFFF00#64100101D402047D
(1547753843.967942) can0 0CF00400#F0FF9C2E1CFFFFFF
(1547753843.970453) can0 0DEF0603#0101FFFFFFFFFFF5
(1547753843.971651) can0 04EF0006#641513F01119930E
(1547753843.972226) can0 0CFFFF47#5EFFFFFFFFFFFFFF
(1547753843.972798) can0 18FEF147#FF0000FFFFFFFFFF
(1547753843.973399) can0 18FEFC47#FFFFFFFFFFFFFFFF
(1547753843.974003) can0 18EF0047#F220610FFFFFFFFF
(1547753843.974574) can0 18F00647#FFCFFFFFFFFFFFFF
(1547753843.975175) can0 1CFDDF47#FCFFFFFFFFFFFFFF
(1547753843.975726) can0 18F00503#7DFFFFFFFFFFFFFF
(1547753843.977880) can0 0CF00300#FF0023FF06FFFFFF
(1547753843.978431) can0 0CEFFF00#64062C7DFFFFFFFF
(1547753843.979020) can0 18FEEE00#4F41FFFFFFFFFFFF
(1547753843.987929) can0 0CF00400#F0FF9C341CFFFFFF
(1547753843.990453) can0 0DEF0603#0101FFFFFFFFFFF5
(1547753843.991652) can0 04EF0006#641514F00719930E
(1547753843.998057) can0 0CF00300#FF0022FF06FFFFFF
(1547753843.998586) can0 0CEFFF00#64062B7DFFFFFFFF
(1547753844.008085) can0 0CF00400#F0FF9C401CFFFFFF
(1547753844.008675) can0 18FEDF00#8B201CFFFFFFFFFF
(1547753844.009978) can0 0DEF0647#0104FFFFFFFFFFF1
(1547753844.010576) can0 0DEF0603#0101FFFFFFFFFFF5
(1547753844.011752) can0 04EF0006#641515F00719930E
(1547753844.012328) can0 0CFFFE06#5C271D271DFFFFFF
(1547753844.012928) can0 18FFFB06#0005ACF8FFFFFFFF
(1547753844.017928) can0 0CF00300#FF0021FF06FFFFFF
(1547753844.018525) can0 0CEFFF00#6406297DFFFFFFFF
(1547753844.019127) can0 18FEF200#2000FFFFFFFFFFFF
(1547753844.027926) can0 0CF00400#F0FF9B441CFFFFFF
(1547753844.030453) can0 0DEF0603#0101FFFFFFFFFFF5
(1547753844.031652) can0 04EF0006#641516F07319930E
(1547753844.037881) can0 0CF00300#FF0022FF06FFFFFF
(1547753844.038454) can0 0CEFFF00#6406297DFFFFFFFF
(1547753844.038993) can0 18EF0600#640E4D00FFFFFFFF
(1547753844.048034) can0 0CF00400#F0FF9B3C1CFFFFFF
(1547753844.050455) can0 0DEF0603#0101FFFFFFFFFFF5
(1547753844.051654) can0 04EF0006#641517F0D018930E
(1547753844.052230) can0 0CFE4947#FFFFFFFFFFFFFFFF
(1547753844.052827) can0 0CFE4347#0000FFFF3FFFFFFF
(1547753844.053428) can0 0CFE4447#0000FFFF3FFFFFFF
(1547753844.057958) can0 0CF00300#FF0022FF06FFFFFF
(1547753844.058502) can0 0CEFFF00#64062A7DFFFFFFFF
(1547753844.059079) can0 18EFFF00#64100101D402057D
(1547753844.059650) can0 18FEF700#FFFFFFFFFFFFF700
(1547753844.067884) can0 0CF00400#F0FF9B3A1CFFFFFF
(1547753844.070400) can0 0DEF0603#0101FFFFFFFFFFF5
(1547753844.071655) can0 04EF0006#641518F0CC18930E
(1547753844.077886) can0 0CF00300#FF0022FF06FFFFFF
(1547753844.078453) can0 0CEFFF00#64062A7DFFFFFFFF
(1547753844.088058) can0 0CF00400#F0FF9B361CFFFFFF
(1547753844.090433) can0 0DEF0603#0101FFFFFFFFFFF5
(1547753844.091629) can0 04EF0006#641519F0CC18930E
(1547753844.092179) can0 0CFFFE06#5C271D271DFFFFFF
(1547753844.092754) can0 18FEF147#FF0000FFFFFFFFFF
(1547753844.093380) can0 18F00503#7DFFFFFFFFFFFFFF
(1547753844.097985) can0 0CF00300#FF0022FF06FFFFFF
(1547753844.098556) can0 0CEFFF00#64062A7DFFFFFFFF
(1547753844.107960) can0 0CF00400#F0FF9B2A1CFFFFFF
(1547753844.109982) can0 0DEF0647#0104FFFFFFFFFFF1
(1547753844.110603) can0 0DEF0603#0101FFFFFFFFFFF5
(1547753844.111782) can0 04EF0006#64151AF01119930E
(1547753844.117937) can0 0CF00300#FF0023FF06FFFFFF
(1547753844.118504) can0 0CEFFF00#64062B7DFFFFFFFF
(1547753844.119082) can0 18FEF200#2000FFFFFFFFFFFF
(1547753844.127936) can0 0CF00400#F0FF9C301CFFFFFF
(1547753844.130423) can0 0DEF0603#0101FFFFFFFFFFF5
(1547753844.131658) can0 04EF0006#64151BF00719930E
(1547753844.132234) can0 0CFE4947#FFFFFFFFFFFFFFFF
(1547753844.132774) can0 18FFFB06#0005ACF8FFFFFFFF
(1547753844.133342) can0 0CFE4347#0000FFFF3FFFFFFF
(1547753844.133940) can0 0CFE4447#0000FFFF3FFFFFFF
(1547753844.138136) can0 0CF00300#FF0022FF06FFFFFF
(1547753844.138709) can0 0CEFFF00#64062A7DFFFFFFFF
(1547753844.139282) can0 18EF0600#640E5700FFFFFFFF
(1547753844.147913) can0 0CF00400#F0FF9B381CFFFFFF
(1547753844.150459) can0 0DEF0603#0101FFFFFFFFFFF5
(1547753844.151659) can0 04EF0006#64151CF0CC18930E
(1547753844.157936) can0 0CF00300#FF0022FF06FFFFFF
(1547753844.158507) can0 0CEFFF00#6406297DFFFFFFFF
(1547753844.159056) can0 18EFFF00#64100101D402057D
(1547753844.159656) can0 18FED500#FFFFFDFFFFFFFFFF
(1547753844.167938) can0 0CF00400#F0FF9B301CFFFFFF
(1547753844.170463) can0 0DEF0603#0101FFFFFFFFFFF5
(1547753844.171660) can0 04EF0006#64151DF00719930E
(1547753844.172234) can0 18FEF147#FF0000FFFFFFFFFF
(1547753844.172833) can0 18F00503#7DFFFFFFFFFFFFFF
(1547753844.177990) can0 0CF00300#FF0022FF06FFFFFF
(1547753844.178557) can0 0CEFFF00#64062A7DFFFFFFFF
(1547753844.188090) can0 0CF00400#F0FF9B2A1CFFFFFF
(1547753844.190437) can0 0DEF0603#0101FFFFFFFFFFF5
(1547753844.191611) can0 04EF0006#64151EF00719930E
(1547753844.197938) can0 0CF00300#FF0022FF06FFFFFF
(1547753844.198509) can0 0CEFFF00#64062B7DFFFFFFFF
(1547753844.199086) can0 18FDB300#FFFFA428FFFFFFFF
(1547753844.207940) can0 0CF00400#F0FF9C2A1CFFFFFF
(1547753844.210012) can0 0DEF0647#0104FFFFFFFFFFF1
(1547753844.210610) can0 0DEF0603#0101FFFFFFFFFFF5
(1547753844.211759) can0 04EF0006#64151FF01119930E
(1547753844.212361) can0 0CFFFE06#5C271D271DFFFFFF
(1547753844.217940) can0 0CF00300#FF0022FF06FFFFFF
(1547753844.218510) can0 0CEFFF00#64062B7DFFFFFFFF
(1547753844.219111) can0 18FEF200#2000FFFFFFFFFFFF
(1547753844.228315) can0 0CF00400#F0FF9C241CFFFFFF
(1547753844.230437) can0 0DEF0603#0101FFFFFFFFFFF5
(1547753844.231638) can0 04EF0006#641510F01119930E
(1547753844.237942) can0 0CF00300#FF0023FF06FFFFFF
(1547753844.238484) can0 0CEFFF00#64062B7DFFFFFFFF
(1547753844.239061) can0 18EF0600#640E6100FFFFFFFF
(1547753844.247940) can0 0CF00400#F0FF9C1C1CFFFFFF
(1547753844.250488) can0 0DEF0603#0101FFFFFFFFFFF5
(1547753844.251713) can0 04EF0006#641511F00419930E
(1547753844.252281) can0 0CFE4947#FFFFFFFFFFFFFFFF
(1547753844.252885) can0 18FFFB06#0005ACF8FFFFFFFF
(1547753844.253462) can0 0CFE4347#0000FFFF3FFFFFFF
(1547753844.254068) can0 0CFE4447#0000FFFF3FFFFFFF
(1547753844.257942) can0 0CF00300#FF0023FF06FFFFFF
(1547753844.258484) can0 0CEFFF00#64062E7DFFFFFFFF
(1547753844.259061) can0 18EFFF00#64100101D202057D
(1547753844.259590) can0 18FEDF00#8B201CFFFFFFFFFF
(1547753844.267941) can0 0CF00400#F0FF9D261CFFFFFF
(1547753844.270408) can0 0DEF0603#0101FFFFFFFFFFF5
(1547753844.271615) can0 0C000006#30FFFFFFF8FFFFFF
(1547753844.272164) can0 04EF0006#641512F00B19930E
(1547753844.277991) can0 0CF00300#FF0022FF06FFFFFF
(1547753844.278561) can0 0CEFFF00#64062B7DFFFFFFFF
(1547753844.279141) can0 18FEEF00#FFFFFF64FFFFFFFA
(1547753844.287994) can0 0CF00400#F0FF9C2C1CFFFFFF
(1547753844.290467) can0 0DEF0603#0101FFFFFFFFFFF5
(1547753844.291663) can0 04EF0006#641513F01119930E
(1547753844.292238) can0 0CFFFE06#5C271D271DFFFFFF
(1547753844.292816) can0 18FEF147#FF0000FFFFFFFFFF
(1547753844.293390) can0 18F00503#7DFFFFFFFFFFFFFF
(1547753844.297944) can0 0CF00300#FF0022FF06FFFFFF
(1547753844.298513) can0 0CEFFF00#64062A7DFFFFFFFF
(1547753844.308069) can0 0CF00400#F0FF9B281CFFFFFF
(1547753844.309992) can0 0DEF0647#0104FFFFFFFFFFF1
(1547753844.310664) can0 0DEF0603#0101FFFFFFFFFFF5
(1547753844.311864) can0 04EF0006#641514F01119930E
(1547753844.318093) can0 0CF00300#FF0022FF06FFFFFF
(1547753844.318663) can0 0CEFFF00#64062B7DFFFFFFFF
(1547753844.319240) can0 18FEF200#2000FFFFFFFFFFFF
(1547753844.327944) can0 0CF00400#F0FF9C281CFFFFFF
(1547753844.330468) can0 0DEF0603#0101FFFFFFFFFFF5
(1547753844.331666) can0 04EF0006#641515F01119930E
(1547753844.332265) can0 0CFE4947#FFFFFFFFFFFFFFFF
(1547753844.332842) can0 0CFFFF47#5DFFFFF3FFFFFFFF
(1547753844.333444) can0 0CFE4347#0000FFFF3FFFFFFF
(1547753844.334046) can0 0CFE4447#0000FFFF3FFFFFFF
(1547753844.337945) can0 0CF00300#FF0022FF06FFFFFF
(1547753844.338489) can0 0CEFFF00#64062B7DFFFFFFFF
(1547753844.339069) can0 18EF0600#640E6B00FFFFFFFF
(1547753844.347896) can0 0CF00400#F0FF9C261CFFFFFF
(1547753844.350419) can0 0DEF0603#0101FFFFFFFFFFF5
(1547753844.351668) can0 04EF0006#641516F00B19930E
(1547753844.357946) can0 0CF00300#FF0023FF06FFFFFF
(1547753844.358518) can0 0CEFFF00#64062B7DFFFFFFFF
(1547753844.359092) can0 18EFFF00#64100101D302057D
(1547753844.359664) can0 18FEF600#FF003DFF00FFFFFF
(1547753844.367997) can0 0CF00400#F0FF9C1A1CFFFFFF
(1547753844.370496) can0 0DEF0603#0101FFFFFFFFFFF5
(1547753844.371717) can0 04EF0006#641517F00419930E
(1547753844.372292) can0 18FEF147#FF0000FFFFFFFFFF
(1547753844.372891) can0 18FFFB06#0005ACF8FFFFFFFF
(1547753844.373492) can0 18F00503#7DFFFFFFFFFFFFFF
(1547753844.377947) can0 0CF00300#FF0024FF06FFFFFF
(1547753844.378516) can0 0CEFFF00#64062D7DFFFFFFFF
(1547753844.387910) can0 0CF00400#F0FF9C181CFFFFFF
(1547753844.390498) can0 0DEF0603#0101FFFFFFFFFFF5
(1547753844.391717) can0 04EF0006#641518F00419930E
(1547753844.397974) can0 0CF00300#FF0023FF06FFFFFF
(1547753844.398542) can0 0CEFFF00#64062E7DFFFFFFFF
(1547753844.408095) can0 0CF00400#F0FF9D1E1CFFFFFF
(1547753844.408667) can0 18FFFA00#022C0000180C0081
(1547753844.410025) can0 0DEF0647#0104FFFFFFFFFFF1
(1547753844.410617) can0 0DEF0603#0101FFFFFFFFFFF5
(1547753844.411845) can0 04EF0006#641519F00419930E
(1547753844.412418) can0 0CFFFE06#5C271D271DFFFFFF
(1547753844.412998) can0 18FFFF06#73FFFFFFFFFFFFFF
(1547753844.417950) can0 0CF00300#FF0023FF06FFFFFF
(1547753844.418519) can0 0CEFFF00#64062D7DFFFFFFFF
(1547753844.419096) can0 18FEF200#2100FFFFFFFFFFFF
(1547753844.427950) can0 0CF00400#F0FF9C1E1CFFFFFF
(1547753844.430497) can0 0DEF0603#0101FFFFFFFFFFF5
(1547753844.431744) can0 04EF0006#64151AF00419930E
(1547753844.437950) can0 0CF00300#FF0024FF06FFFFFF
(1547753844.438518) can0 0CEFFF00#64062D7DFFFFFFFF
(1547753844.439095) can0 18EF0600#640E7500FFFFFFFF
(1547753844.439670) can0 18FEF500#C8FFFFFFFF39FFFF
(1547753844.440245) can0 1CFFFF17#22FFFF3CFFFFFFFF
(1547753844.448075) can0 0CF00400#F0FF9C161CFFFFFF
(1547753844.450499) can0 0DEF0603#0101FFFFFFFFFFF5
(1547753844.451722) can0 04EF0006#64151BF00919930E
(1547753844.452296) can0 0CFE4947#FFFFFFFFFFFFFFFF
(1547753844.452895) can0 1CFDDF47#FCFFFFFFFFFFFFFF
(1547753844.453470) can0 0CFE4347#0000FFFF3FFFFFFF
(1547753844.454076) can0 0CFE4447#0000FFFF3FFFFFFF
(1547753844.457977) can0 0CF00300#FF0024FF06FFFFFF
(1547753844.458545) can0 0CEFFF00#64062E7DFFFFFFFF
(1547753844.459124) can0 18EFFF00#64100101D202057D
(1547753844.467900) can0 0CF00400#F0FF9D141CFFFFFF
(1547753844.470451) can0 0DEF0603#0101FFFFFFFFFFF5
(1547753844.471722) can0 04EF0006#64151CF00919930E
(1547753844.477949) can0 0CF00300#FF0024FF06FFFFFF
(1547753844.478496) can0 0CEFFF00#64062E7DFFFFFFFF
(1547753844.479072) can0 18FE6900#C2241627FFFF60FE
(1547753844.488049) can0 0CF00400#F0FF9D121CFFFFFF
(1547753844.490502) can0 0DEF0603#0101FFFFFFFFFFF5
(1547753844.491723) can0 04EF0006#64151DF00919930E
(1547753844.492273) can0 0CFFFE06#5C271D271DFFFFFF
(1547753844.492871) can0 18FEF147#FF0000FFFFFFFFFF
(1547753844.493449) can0 18F00647#FFCFFFFFFFFFFFFF
(1547753844.494053) can0 18FFFB06#0005AFF8FFFFFFFF
(1547753844.494646) can0 18F00503#7DFFFFFFFFFFFFFF
(1547753844.497978) can0 0CF00300#FF0024FF06FFFFFF
(1547753844.498546) can0 0CEFFF00#64062F7DFFFFFFFF
(1547753844.507927) can0 0CF00400#F0FF9D061CFFFFFF
(1547753844.508505) can0 18FEDF00#8A201CFFFFFFFFFF
(1547753844.510053) can0 0DEF0647#0104FFFFFFFFFFF1
(1547753844.510674) can0 0DEF0603#0101FFFFFFFFFFF5
(1547753844.511873) can0 04EF0006#64151EF01319930E
(1547753844.517927) can0 0CF00300#FF0025FF06FFFFFF
(1547753844.518522) can0 0CEFFF00#6406307DFFFFFFFF
(1547753844.519100) can0 18FEF200#2300FFFFFFFFFFFF
(1547753844.527949) can0 0CF00400#F0FF9D0E1CFFFFFF
(1547753844.530501) can0 0DEF0603#0101FFFFFFFFFFF5
(1547753844.531723) can0 04EF0006#64151FF00219930E
(1547753844.532302) can0 0CFE4947#FFFFFFFFFFFFFFFF
(1547753844.532897) can0 0CFE4347#0000FFFF3FFFFFFF
(1547753844.533500) can0 0CFE4447#0000FFFF3FFFFFFF
(1547753844.538200) can0 0CF00300#FF0024FF06FFFFFF
(1547753844.538798) can0 0CEFFF00#64062F7DFFFFFFFF
(1547753844.539375) can0 18EF0600#640E7F00FFFFFFFF
(1547753844.548008) can0 0CF00400#F0FF9D141CFFFFFF
(1547753844.550510) can0 0DEF0603#0101FFFFFFFFFFF5
(1547753844.551733) can0 04EF0006#641510F00919930E
(1547753844.557962) can0 0CF00300#FF0024FF06FFFFFF
(1547753844.558533) can0 0CEFFF00#64062F7DFFFFFFFF
(1547753844.559110) can0 18EFFF00#64100101D202057D
(1547753844.567984) can0 0CF00400#F0FF9D101CFFFFFF
(1547753844.570513) can0 0DEF0603#0101FFFFFFFFFFF5
(1547753844.571734) can0 04EF0006#641511F00919930E
(1547753844.572311) can0 18FEF147#FF0000FFFFFFFFFF
(1547753844.572910) can0 18F00503#7DFFFFFFFFFFFFFF
(1547753844.578040) can0 0CF00300#FF0024FF06FFFFFF
(1547753844.578610) can0 0CEFFF00#64062F7DFFFFFFFF
(1547753844.588112) can0 0CF00400#F0FF9D0C1CFFFFFF
(1547753844.590488) can0 0DEF0603#0101FFFFFFFFFFF5
(1547753844.591713) can0 04EF0006#641512F00919930E
(1547753844.597930) can0 0CF00300#FF0025FF06FFFFFF
(1547753844.598549) can0 0CEFFF00#6406307DFFFFFFFF
(1547753844.599101) can0 18FD7C00#F880F1F000CF03FD
(1547753844.607957) can0 0CF00400#F0FF9D0C1CFFFFFF
(1547753844.610055) can0 0DEF0647#0104FFFFFFFFFFF1
(1547753844.610651) can0 0DEF0603#0101FFFFFFFFFFF5
(1547753844.611851) can0 04EF0006#641513F00219930E
(1547753844.612427) can0 0CFFFE06#5C271D271DFFFFFF
(1547753844.613001) can0 18FFFB06#0005B2F8FFFFFFFF
(1547753844.617984) can0 0CF00300#FF0025FF06FFFFFF
(1547753844.618551) can0 0CEFFF00#6406307DFFFFFFFF
(1547753844.619128) can0 18FEF200#2300FFFFFFFFFFFF
(1547753844.628284) can0 0CF00400#F0FF9D061CFFFFFF
(1547753844.630480) can0 0DEF0603#0101FFFFFFFFFFF5
(1547753844.631702) can0 04EF0006#641514F00219930E
(1547753844.637921) can0 0CF00300#FF0025FF06FFFFFF
(1547753844.638485) can0 0CEFFF00#6406317DFFFFFFFF
(1547753844.639062) can0 18EF0600#640E8900FFFFFFFF
(1547753844.647959) can0 0CF00400#F0FF9E001CFFFFFF
(1547753844.650507) can0 0DEF0603#0101FFFFFFFFFFF5
(1547753844.651729) can0 04EF0006#641515F01319930E
(1547753844.652306) can0 0CFE4947#FFFFFFFFFFFFFFFF
(1547753844.652905) can0 0CFE4347#0000FFFF3FFFFFFF
(1547753844.653505) can0 0CFE4447#0000FFFF3FFFFFFF
(1547753844.657958) can0 0CF00300#FF0025FF06FFFFFF
(1547753844.658529) can0 0CEFFF00#6406327DFFFFFFFF
(1547753844.659104) can0 18EFFF00#64100101D102057D
(1547753844.668059) can0 0CF00400#F0FF9E081CFFFFFF
(1547753844.670508) can0 0DEF0603#0101FFFFFFFFFFF5
(1547753844.671730) can0 04EF0006#641516F00219930E
(1547753844.678035) can0 0CF00300#FF0025FF06FFFFFF
(1547753844.678604) can0 0CEFFF00#6406327DFFFFFFFF
(1547753844.687987) can0 0CF00400#F0FF9E101CFFFFFF
(1547753844.690508) can0 0DEF0603#0101FFFFFFFFFFF5
(1547753844.691730) can0 04EF0006#641517F00919930E
(1547753844.692282) can0 0CFFFE06#5C271D271DFFFFFF
(1547753844.692880) can0 18FEF147#FF0000FFFFFFFFFF
(1547753844.693459) can0 18F00503#7DFFFFFFFFFFFFFF
(1547753844.697961) can0 0CF00300#FF0025FF06FFFFFF
(1547753844.698505) can0 0CEFFF00#6406307DFFFFFFFF
(1547753844.699081) can0 18FDB300#FFFF9828FFFFFFFF
(1547753844.699682) can0 1CEFFF00#64070000FFFFFFFF
(1547753844.708013) can0 0CF00400#F0FF9D081CFFFFFF
(1547753844.710010) can0 0DEF0647#0104FFFFFFFFFFF1
(1547753844.710662) can0 0DEF0603#0101FFFFFFFFFFF5
(1547753844.711884) can0 04EF0006#641518F00219930E
(1547753844.718211) can0 0CF00300#FF0025FF06FFFFFF
(1547753844.718781) can0 0CEFFF00#6406327DFFFFFFFF
(1547753844.719357) can0 18FEF200#2400FFFFFFFFFFFF
(1547753844.727963) can0 0CF00400#F0FF9E0A1CFFFFFF
(1547753844.730535) can0 0DEF0603#0101FFFFFFFFFFF5
(1547753844.731762) can0 04EF0006#641519F00219930E
(1547753844.732335) can0 0CFE4947#FFFFFFFFFFFFFFFF
(1547753844.732907) can0 18FFFB06#0005B4F8FFFFFFFF
(1547753844.733483) can0 0CFE4347#0000FFFF3FFFFFFF
(1547753844.734088) can0 0CFE4447#0000FFFF3FFFFFFF
(1547753844.737964) can0 0CF00300#FF0025FF06FFFFFF
(1547753844.738532) can0 0CEFFF00#6406327DFFFFFFFF
(1547753844.739110) can0 18EF0600#640E9300FFFFFFFF
(1547753844.747913) can0 0CF00400#F0FF9E0A1CFFFFFF
(1547753844.749534) can0 18EAFF06#E5FE00
(1547753844.750586) can0 0DEF0603#0101FFFFFFFFFFF5
(1547753844.751809) can0 04EF0006#64151AF00219930E
(1547753844.757989) can0 0CF00300#FF0025FF06FFFFFF
(1547753844.758558) can0 0CEFFF00#6406327DFFFFFFFF
(1547753844.759133) can0 18EFFF00#64100101D202057D
(1547753844.759708) can0 18FEDF00#8A201CFFFFFFFFFF
(1547753844.761111) can0 18FEE500#CC0A0000FFFFFFFF
(1547753844.768036) can0 0CF00400#F0FF9E041CFFFFFF
(1547753844.770507) can0 0DEF0603#0101FFFFFFFFFFF5
(1547753844.771736) can0 04EF0006#64151BF01319930E
(1547753844.772334) can0 18FEF147#FF0000FFFFFFFFFF
(1547753844.772959) can0 18FEE706#CC0A0000FFFFFFFF
(1547753844.773509) can0 18F00503#7DFFFFFFFFFFFFFF
(1547753844.777990) can0 0CF00300#FF0026FF06FFFFFF
(1547753844.778559) can0 0CEFFF00#6406337DFFFFFFFF
(1547753844.779136) can0 18FEEF00#FFFFFF65FFFFFFFA
(1547753844.787992) can0 0CF00400#F0FF9E061CFFFFFF
(1547753844.790513) can0 0DEF0603#0101FFFFFFFFFFF5
(1547753844.791736) can0 04EF0006#64151CF01319930E
(1547753844.798066) can0 0CF00300#FF0025FF06FFFFFF
(1547753844.798636) can0 0CEFFF00#6406337DFFFFFFFF
(1547753844.808141) can0 0CF00400#F0FF9E141CFFFFFF
(1547753844.810037) can0 0DEF0647#0104FFFFFFFFFFF1
(1547753844.810710) can0 0DEF0603#0101FFFFFFFFFFF5
(1547753844.811965) can0 04EF0006#64151DF01319930E
(1547753844.812511) can0 0CFFFE06#5C271D271DFFFFFF
(1547753844.818017) can0 0CF00300#FF0024FF06FFFFFF
(1547753844.818588) can0 0CEFFF00#6406317DFFFFFFFF
(1547753844.819161) can0 18FEF200#2300FFFFFFFFFFFF
(1547753844.827957) can0 0CF00400#F0FF9E1A1CFFFFFF
(1547753844.830495) can0 0DEF0603#0101FFFFFFFFFFF5
(1547753844.831720) can0 04EF0006#64151EF00419930E
(1547753844.837922) can0 0CF00300#FF0024FF06FFFFFF
(1547753844.838492) can0 0CEFFF00#6406307DFFFFFFFF
(1547753844.839069) can0 18EF0600#640E9D00FFFFFFFF
(1547753844.847948) can0 0CF00400#F0FF9D1A1CFFFFFF
(1547753844.850470) can0 0DEF0603#0101FFFFFFFFFFF5
(1547753844.851720) can0 04EF0006#64151FF00419930E
(1547753844.852296) can0 0CFE4947#FFFFFFFFFFFFFFFF
(1547753844.852869) can0 18FFFB06#0005B2F8FFFFFFFF
(1547753844.853446) can0 0CFFFF47#5DFFFFF3FFFFFFFF
(1547753844.854049) can0 0CFE4347#0000FFFF3FFFFFFF
(1547753844.854643) can0 0CFE4447#0000FFFF3FFFFFFF
(1547753844.857931) can0 0CF00300#FF0024FF06FFFFFF
(1547753844.858502) can0 0CEFFF00#6406307DFFFFFFFF
(1547753844.859078) can0 18EFFF00#64100101D302057D
(1547753844.859676) can0 18FEF600#FF003CFF00FFFFFF
(1547753844.867923) can0 0CF00400#F0FF9D201CFFFFFF
(1547753844.870472) can0 0DEF0603#0101FFFFFFFFFFF5
(1547753844.871670) can0 04EF0006#641510F00B19930E
(1547753844.877873) can0 18EFFA00#6401FF0000FFFFFF
(1547753844.878446) can0 0CEFFF00#64062F7DFFFFFFFF
(1547753844.879046) can0 0CF00300#FF0024FF06FFFFFF
(1547753844.887972) can0 0CF00400#F0FF9D241CFFFFFF
(1547753844.890497) can0 0DEF0603#0101FFFFFFFFFFF5
(1547753844.891696) can0 04EF0006#641511F00B19930E
(1547753844.892247) can0 0CFFFE06#5C271D271DFFFFFF
(1547753844.892845) can0 18FEF147#FF0000FFFFFFFFFF
(1547753844.893447) can0 18FFFB06#001BFFFFFFFFFFFF
(1547753844.894049) can0 18F00503#7DFFFFFFFFFFFFFF
(1547753844.898024) can0 0CF00300#FF0024FF06FFFFFF
(1547753844.898595) can0 0CEFFF00#64062E7DFFFFFFFF
(1547753844.907963) can0 0CF00400#F0FF9D1C1CFFFFFF
(1547753844.910035) can0 0DEF0647#0104FFFFFFFFFFF1
(1547753844.910657) can0 0DEF0603#0101FFFFFFFFFFF5
(1547753844.911860) can0 04EF0006#641512F00419930E
(1547753844.917988) can0 0CF00300#FF0024FF06FFFFFF
(1547753844.918558) can0 0CEFFF00#6406307DFFFFFFFF
(1547753844.919162) can0 18FEF200#2300FFFFFFFFFFFF
(1547753844.927980) can0 0CF00400#F0FF9D281CFFFFFF
(1547753844.930527) can0 0DEF0603#0101FFFFFFFFFFF5
(1547753844.931724) can0 04EF0006#641513F01119930E
(1547753844.932260) can0 0CFE4947#FFFFFFFFFFFFFFFF
(1547753844.932877) can0 18FE6847#3CFFFFFFFFFFFFFF
(1547753844.933478) can0 0CFE4347#0000FFFF3FFFFFFF
(1547753844.934006) can0 18FFFF06#73FFFFFFFFFFFFFF
(1547753844.934625) can0 0CFE4447#0000FFFF3FFFFFFF
(1547753844.938054) can0 0CF00300#FF0023FF06FFFFFF
(1547753844.938601) can0 0CEFFF00#64062E7DFFFFFFFF
(1547753844.939131) can0 18EF0600#640EA700FFFFFFFF
(1547753844.947960) can0 0CF00400#F0FF9D341CFFFFFF
(1547753844.950481) can0 0DEF0603#0101FFFFFFFFFFF5
(1547753844.951702) can0 04EF0006#641514F00719930E
(1547753844.957980) can0 0CF00300#FF0023FF06FFFFFF
(1547753844.958525) can0 0CEFFF00#64062C7DFFFFFFFF
(1547753844.959102) can0 18EFFF00#64100101D602057D
(1547753844.968006) can0 0CF00400#F0FF9C321CFFFFFF
(1547753844.970529) can0 0DEF0603#0101FFFFFFFFFFF5
(1547753844.971702) can0 04EF0006#641515F00719930E
(1547753844.972303) can0 0CFFFF47#5EFFFFFFFFFFFFFF
(1547753844.972884) can0 18FEF147#FF0000FFFFFFFFFF
(1547753844.973477) can0 18FEFC47#FFFFFFFFFFFFFFFF
(1547753844.974055) can0 18EF0047#F220610FFFFFFFFF
(1547753844.974654) can0 18F00647#FFCFFFFFFFFFFFFF
(1547753844.975252) can0 1CFDDF47#FCFFFFFFFFFFFFFF
(1547753844.975806) can0 18FFFB06#0005AFF8FFFFFFFF
(1547753844.976406) can0 18F00503#7DFFFFFFFFFFFFFF
(1547753844.978036) can0 0CF00300#FF0023FF06FFFFFF
(1547753844.978612) can0 0CEFFF00#64062C7DFFFFFFFF
(1547753844.979228) can0 18FEEE00#4F41FFFFFFFFFFFF
(1547753844.988133) can0 0CF00400#F0FF9C321CFFFFFF
(1547753844.990508) can0 0DEF0603#0101FFFFFFFFFFF5
(1547753844.991679) can0 04EF0006#641516F00719930E
(1547753844.998033) can0 0CF00300#FF0023FF06FFFFFF
(1547753844.998605) can0 0CEFFF00#64062C7DFFFFFFFF
(1547753845.008058) can0 0CF00400#F0FF9C321CFFFFFF
(1547753845.008629) can0 18FEDF00#8B201CFFFFFFFFFF
(1547753845.010083) can0 0DEF0647#0104FFFFFFFFFFF1
(1547753845.010705) can0 0DEF0603#0101FFFFFFFFFFF5
(1547753845.011880) can0 04EF0006#641517F00719930E
(1547753845.012434) can0 0CFFFE06#5C271D271DFFFFFF
(1547753845.017997) can0 0CF00300#FF0023FF06FFFFFF
(1547753845.018621) can0 0CEFFF00#64062C7DFFFFFFFF
(1547753845.019197) can0 18FEF200#2100FFFFFFFFFFFF
(1547753845.028270) can0 0CF00400#F0FF9C2C1CFFFFFF
(1547753845.030499) can0 0DEF0603#0101FFFFFFFFFFF5
(1547753845.031670) can0 04EF0006#641518F00719930E
(1547753845.038000) can0 0CF00300#FF0023FF06FFFFFF
(1547753845.038570) can0 0CEFFF00#64062D7DFFFFFFFF
(1547753845.039123) can0 18EF0600#640EB100FFFFFFFF
(1547753845.048002) can0 0CF00400#F0FF9D241CFFFFFF
(1547753845.050527) can0 0DEF0603#0101FFFFFFFFFFF5
(1547753845.051724) can0 04EF0006#641519F00B19930E
(1547753845.052297) can0 0CFE4947#FFFFFFFFFFFFFFFF
(1547753845.052871) can0 0CFE4347#0000FFFF3FFFFFFF
(1547753845.053501) can0 0CFE4447#0000FFFF3FFFFFFF
(1547753845.058003) can0 0CF00300#FF0023FF06FFFFFF
(1547753845.058574) can0 0CEFFF00#64062E7DFFFFFFFF
(1547753845.059148) can0 18EFFF00#64100101D402057D
(1547753845.059721) can0 18FEF700#FFFFFFFFFFFF1801
(1547753845.068028) can0 0CF00400#F0FF9D2C1CFFFFFF
(1547753845.070475) can0 0DEF0603#0101FFFFFFFFFFF5
(1547753845.071697) can0 04EF0006#64151AF01119930E
(1547753845.078053) can0 0CF00300#FF0023FF06FFFFFF
(1547753845.078622) can0 0CEFFF00#64062C7DFFFFFFFF
(1547753845.088003) can0 0CF00400#F0FF9C321CFFFFFF
(1547753845.090527) can0 0DEF0603#0101FFFFFFFFFFF5
(1547753845.091697) can0 04EF0006#64151BF00719930E
(1547753845.092273) can0 0CFFFE06#5C271D271DFFFFFF
(1547753845.092849) can0 18FEF147#FF0000FFFFFFFFFF
(1547753845.093448) can0 18FFFB06#0005ACF8FFFFFFFF
(1547753845.094053) can0 18F00503#7DFFFFFFFFFFFFFF
(1547753845.097978) can0 0CF00300#FF0023FF06FFFFFF
(1547753845.098547) can0 0CEFFF00#64062B7DFFFFFFFF
(1547753845.099973) can0 1CFFFF17#22FFFF3CFFFFFFFF
(1547753845.108130) can0 0CF00400#F0FF9C281CFFFFFF
(1547753845.110027) can0 0DEF0647#0104FFFFFFFFFFF1
(1547753845.110651) can0 0DEF0603#0101FFFFFFFFFFF5
(1547753845.111825) can0 04EF0006#64151CF00719930E
(1547753845.118129) can0 0CF00300#FF0023FF06FFFFFF
(1547753845.118700) can0 0CEFFF00#64062D7DFFFFFFFF
(1547753845.119275) can0 18FEF200#2100FFFFFFFFFFFF
(1547753845.127979) can0 0CF00400#F0FF9D261CFFFFFF
(1547753845.130528) can0 0DEF0603#0101FFFFFFFFFFF5
(1547753845.131725) can0 04EF0006#64151DF00B19930E
(1547753845.132300) can0 0CFE4947#FFFFFFFFFFFFFFFF
(1547753845.132900) can0 0CFE4347#0000FFFF3FFFFFFF
(1547753845.133499) can0 0CFE4447#0000FFFF3FFFFFFF
(1547753845.137981) can0 0CF00300#FF0023FF06FFFFFF
(1547753845.138546) can0 0CEFFF00#64062D7DFFFFFFFF
(1547753845.139062) can0 18EF0600#640EBB00FFFFFFFF
(1547753845.147985) can0 0CF00400#F0FF9D241CFFFFFF
(1547753845.150531) can0 0DEF0603#0101FFFFFFFFFFF5
(1547753845.151728) can0 04EF0006#64151EF00B19930E
(1547753845.158003) can0 0CF00300#FF0024FF06FFFFFF
(1547753845.158575) can0 0CEFFF00#64062D7DFFFFFFFF
(1547753845.159153) can0 18EFFF00#64100101D402057D
(1547753845.159752) can0 18FED500#FFFFFDFFFFFFFFFF
(1547753845.168077) can0 0CF00400#F0FF9D1E1CFFFFFF
(1547753845.170533) can0 0DEF0603#0101FFFFFFFFFFF5
(1547753845.171778) can0 04EF0006#64151FF00419930E
(1547753845.172351) can0 18FEF147#FF0000FFFFFFFFFF
(1547753845.172978) can0 18F00503#7DFFFFFFFFFFFFFF
(1547753845.177983) can0 0CF00300#FF0024FF06FFFFFF
(1547753845.178550) can0 0CEFFF00#64062F7DFFFFFFFF
(1547753845.188002) can0 0CF00400#F0FF9D1E1CFFFFFF
(1547753845.190558) can0 0DEF0603#0101FFFFFFFFFFF5
(1547753845.191777) can0 04EF0006#641510F00419930E
(1547753845.198104) can0 0CF00300#FF0023FF06FFFFFF
(1547753845.198678) can0 0CEFFF00#64062F7DFFFFFFFF
(1547753845.199252) can0 18FDB300#FFFFB028FFFFFFFF
(1547753845.208154) can0 0CF00400#F0FF9D2A1CFFFFFF
(1547753845.210057) can0 0DEF0647#0104FFFFFFFFFFF1
(1547753845.210654) can0 0DEF0603#0101FFFFFFFFFFF5
(1547753845.211881) can0 04EF0006#641511F00419930E
(1547753845.212428) can0 0CFFFE06#5C271D271DFFFFFF
(1547753845.213029) can0 18FFFB06#0005AFF8FFFFFFFF
(1547753845.218057) can0 0CF00300#FF0023FF06FFFFFF
(1547753845.218630) can0 0CEFFF00#64062C7DFFFFFFFF
(1547753845.219207) can0 18FEF200#2100FFFFFFFFFFFF
(1547753845.228005) can0 0CF00400#F0FF9C2C1CFFFFFF
(1547753845.230559) can0 0DEF0603#0101FFFFFFFFFFF5
(1547753845.231729) can0 04EF0006#641512F01119930E
(1547753845.237982) can0 0CF00300#FF0023FF06FFFFFF
(1547753845.238554) can0 0CEFFF00#64062C7DFFFFFFFF
(1547753845.239129) can0 18EF0600#640EC500FFFFFFFF
(1547753845.248083) can0 0CF00400#F0FF9C261CFFFFFF
(1547753845.250536) can0 0DEF0603#0101FFFFFFFFFFF5
(1547753845.251731) can0 04EF0006#641513F00B19930E
(1547753845.252305) can0 0CFE4947#FFFFFFFFFFFFFFFF
(1547753845.252905) can0 0CFE4347#0000FFFF3FFFFFFF
(1547753845.253506) can0 0CFE4447#0000FFFF3FFFFFFF
(1547753845.258011) can0 0CF00300#FF0023FF06FFFFFF
(1547753845.258579) can0 0CEFFF00#64062D7DFFFFFFFF
(1547753845.259130) can0 18EFFF00#64100101D402057D
(1547753845.259728) can0 18FEDF00#8B201CFFFFFFFFFF
(1547753845.267987) can0 0CF00400#F0FF9D241CFFFFFF
(1547753845.270482) can0 0DEF0603#0101FFFFFFFFFFF5
(1547753845.271682) can0 0C000006#30FFFFFFF8FFFFFF
(1547753845.272232) can0 04EF0006#641514F00B19930E
(1547753845.277949) can0 0CF00300#FF0023FF06FFFFFF
(1547753845.278554) can0 0CEFFF00#64062D7DFFFFFFFF
(1547753845.279131) can0 18FEEF00#FFFFFF65FFFFFFFA
(1547753845.288037) can0 0CF00400#F0FF9D241CFFFFFF
(1547753845.290536) can0 0DEF0603#0101FFFFFFFFFFF5
(1547753845.291732) can0 04EF0006#641515F00B19930E
(1547753845.292308) can0 0CFFFE06#5C271D271DFFFFFF
(1547753845.292880) can0 18FEF147#FF0000FFFFFFFFFF
(1547753845.293484) can0 18F00503#7DFFFFFFFFFFFFFF
(1547753845.298089) can0 0CF00300#FF0024FF06FFFFFF
(1547753845.298657) can0 0CEFFF00#64062D7DFFFFFFFF
(1547753845.308013) can0 0CF00400#F0FF9D181CFFFFFF
(1547753845.310114) can0 0DEF0647#0104FFFFFFFFFFF1
(1547753845.310781) can0 0DEF0603#0101FFFFFFFFFFF5
(1547753845.312009) can0 04EF0006#641516F00419930E
(1547753845.318012) can0 0CF00300#FF0024FF06FFFFFF
(1547753845.318550) can0 0CEFFF00#64062F7DFFFFFFFF
(1547753845.319183) can0 18FEF200#2300FFFFFFFFFFFF
(1547753845.328015) can0 0CF00400#F0FF9D221CFFFFFF
(1547753845.330536) can0 0DEF0603#0101FFFFFFFFFFF5
(1547753845.331734) can0 04EF0006#641517F00B19930E
(1547753845.332311) can0 0CFE4947#FFFFFFFFFFFFFFFF
(1547753845.332883) can0 18FFFB06#0005AFF8FFFFFFFF
(1547753845.333460) can0 0CFFFF47#5DFFFFF3FFFFFFFF
(1547753845.334090) can0 0CFE4347#0000FFFF3FFFFFFF
(1547753845.334683) can0 0CFE4447#0000FFFF3FFFFFFF
(1547753845.338241) can0 0CF00300#FF0023FF06FFFFFF
(1547753845.338811) can0 0CEFFF00#64062D7DFFFFFFFF
(1547753845.339338) can0 18EF0600#640ECF00FFFFFFFF
(1547753845.347990) can0 0CF00400#F0FF9D2C1CFFFFFF
(1547753845.350489) can0 0DEF0603#0101FFFFFFFFFFF5
(1547753845.351736) can0 04EF0006#641518F01119930E
(1547753845.357990) can0 0CF00300#FF0023FF06FFFFFF
(1547753845.358584) can0 0CEFFF00#64062C7DFFFFFFFF
(1547753845.359110) can0 18EFFF00#64100101D402057D
(1547753845.359732) can0 18FEF600#FF003CFF00FFFFFF
(1547753845.368041) can0 0CF00400#F0FF9C281CFFFFFF
(1547753845.370538) can0 0DEF0603#0101FFFFFFFFFFF5
(1547753845.371734) can0 04EF0006#641519F01119930E
(1547753845.372310) can0 18FEF147#FF0000FFFFFFFFFF
(1547753845.372911) can0 18F00503#7DFFFFFFFFFFFFFF
(1547753845.378090) can0 0CF00300#FF0023FF06FFFFFF
(1547753845.378661) can0 0CEFFF00#64062C7DFFFFFFFF
(1547753845.388166) can0 0CF00400#F0FF9C241CFFFFFF
(1547753845.390515) can0 0DEF0603#0101FFFFFFFFFFF5
(1547753845.391654) can0 04EF0006#64151AF01119930E
(1547753845.398016) can0 0CF00300#FF0023FF06FFFFFF
(1547753845.398584) can0 0CEFFF00#64062D7DFFFFFFFF
(1547753845.408039) can0 0CF00400#F0FF9D241CFFFFFF
(1547753845.408612) can0 18FFFA00#022C0000180C0081
(1547753845.410098) can0 0DEF0647#0104FFFFFFFFFFF1
(1547753845.410719) can0 0DEF0603#0101FFFFFFFFFFF5
(1547753845.411898) can0 04EF0006#64151BF00B19930E
(1547753845.412472) can0 0CFFFE06#5C271D271DFFFFFF
(1547753845.413046) can0 18FFFF06#73FFFFFFFFFFFFFF
(1547753845.417983) can0 0CF00300#FF0023FF06FFFFFF
(1547753845.418619) can0 0CEFFF00#64062D7DFFFFFFFF
(1547753845.419198) can0 18FEF200#2100FFFFFFFFFFFF
(1547753845.428301) can0 0CF00400#F0FF9D201CFFFFFF
(1547753845.430523) can0 0DEF0603#0101FFFFFFFFFFF5
(1547753845.431723) can0 04EF0006#64151CF00B19930E
(1547753845.438028) can0 0CF00300#FF0024FF06FFFFFF
(1547753845.438596) can0 0CEFFF00#64062D7DFFFFFFFF
(1547753845.439171) can0 18EF0600#640ED900FFFFFFFF
(1547753845.439747) can0 18FEF500#C8FFFFFFFF39FFFF
(1547753845.448073) can0 0CF00400#F0FF9D1A1CFFFFFF
(1547753845.450582) can0 0DEF0603#0101FFFFFFFFFFF5
(1547753845.451798) can0 04EF0006#64151DF00419930E
(1547753845.452372) can0 0CFE4947#FFFFFFFFFFFFFFFF
(1547753845.452998) can0 1CFDDF47#FCFFFFFFFFFFFFFF
(1547753845.453546) can0 0CFE4347#0000FFFF3FFFFFFF
(1547753845.454100) can0 18FFFB06#0005AFF8FFFFFFFF
(1547753845.454697) can0 0CFE4447#0000FFFF3FFFFFFF
(1547753845.457978) can0 0CF00300#FF0024FF06FFFFFF
(1547753845.458596) can0 0CEFFF00#64062F7DFFFFFFFF
(1547753845.459128) can0 18EFFF00#64100101D302057D
(1547753845.468029) can0 0CF00400#F0FF9D241CFFFFFF
(1547753845.470501) can0 0DEF0603#0101FFFFFFFFFFF5
(1547753845.471742) can0 04EF0006#64151EF00B19930E
(1547753845.478097) can0 0CF00300#FF0023FF06FFFFFF
(1547753845.478670) can0 0CEFFF00#64062D7DFFFFFFFF
(1547753845.479219) can0 18FE6900#AC241827FFFF60FE
(1547753845.488023) can0 0CF00400#F0FF9D2C1CFFFFFF
(1547753845.490572) can0 0DEF0603#0101FFFFFFFFFFF5
(1547753845.491743) can0 04EF0006#64151FF01119930E
(1547753845.492321) can0 0CFFFE06#5C271D271DFFFFFF
(1547753845.492895) can0 18FEF147#FF0000FFFFFFFFFF
(1547753845.493494) can0 18F00647#FFCFFFFFFFFFFFFF
(1547753845.494075) can0 18F00503#7DFFFFFFFFFFFFFF
(1547753845.498000) can0 0CF00300#FF0023FF06FFFFFF
(1547753845.498596) can0 0CEFFF00#64062C7DFFFFFFFF
(1547753845.508150) can0 0CF00400#F0FF9C241CFFFFFF
(1547753845.508722) can0 18FEDF00#8A201CFFFFFFFFFF
(1547753845.510029) can0 0DEF0647#0104FFFFFFFFFFF1
(1547753845.510674) can0 0DEF0603#0101FFFFFFFFFFF5
(1547753845.511870) can0 04EF0006#641510F01119930E
(1547753845.518170) can0 0CF00300#FF0023FF06FFFFFF
(1547753845.518744) can0 0CEFFF00#64062C7DFFFFFFFF
(1547753845.519319) can0 18FEF200#2100FFFFFFFFFFFF
(1547753845.528022) can0 0CF00400#F0FF9C241CFFFFFF
(1547753845.530580) can0 0DEF0603#0101FFFFFFFFFFF5
(1547753845.531777) can0 04EF0006#641511F00B19930E
(1547753845.532351) can0 0CFE4947#FFFFFFFFFFFFFFFF
(1547753845.532950) can0 0CFE4347#0000FFFF3FFFFFFF
(1547753845.533526) can0 0CFE4447#0000FFFF3FFFFFFF
(1547753845.538007) can0 0CF00300#FF0023FF06FFFFFF
(1547753845.538574) can0 0CEFFF00#64062C7DFFFFFFFF
(1547753845.539153) can0 18EF0600#640EE300FFFFFFFF
(1547753845.548055) can0 0CF00400#F0FF9C241CFFFFFF
(1547753845.550553) can0 0DEF0603#0101FFFFFFFFFFF5
(1547753845.551751) can0 04EF0006#641512F00B19930E
(1547753845.558032) can0 0CF00300#FF0023FF06FFFFFF
(1547753845.558627) can0 0CEFFF00#64062C7DFFFFFFFF
(1547753845.559179) can0 18EFFF00#64100101D402057D
(1547753845.568107) can0 0CF00400#F0FF9C1A1CFFFFFF
(1547753845.570580) can0 0DEF0603#0101FFFFFFFFFFF5
(1547753845.571805) can0 04EF0006#641513F00419930E
(1547753845.572382) can0 18FEF147#FF0000FFFFFFFFFF
(1547753845.573006) can0 18F00503#7DFFFFFFFFFFFFFF
(1547753845.578032) can0 0CF00300#FF0024FF06FFFFFF
(1547753845.578601) can0 0CEFFF00#64062F7DFFFFFFFF
(1547753845.588059) can0 0CF00400#F0FF9D1C1CFFFFFF
(1547753845.590581) can0 0DEF0603#0101FFFFFFFFFFF5
(1547753845.591804) can0 04EF0006#641514F00419930E
(1547753845.598033) can0 0CF00300#FF0023FF06FFFFFF
(1547753845.598603) can0 0CEFFF00#64062F7DFFFFFFFF
(1547753845.599180) can0 18FD7C00#F880F1F000CF03FC
(1547753845.608184) can0 0CF00400#F0FF9D261CFFFFFF
(1547753845.610106) can0 0DEF0647#0104FFFFFFFFFFF1
(1547753845.610704) can0 0DEF0603#0101FFFFFFFFFFF5
(1547753845.611929) can0 04EF0006#641515F00419930E
(1547753845.612480) can0 0CFFFE06#5C271D271DFFFFFF
(1547753845.613083) can0 18FFFB06#0005B2F8FFFFFFFF
(1547753845.618085) can0 0CF00300#FF0023FF06FFFFFF
(1547753845.618655) can0 0CEFFF00#64062C7DFFFFFFFF
(1547753845.619231) can0 18FEF200#2100FFFFFFFFFFFF
(1547753845.628060) can0 0CF00400#F0FF9C2A1CFFFFFF
(1547753845.630583) can0 0DEF0603#0101FFFFFFFFFFF5
(1547753845.631758) can0 04EF0006#641516F01119930E
(1547753845.638036) can0 0CF00300#FF0023FF06FFFFFF
(1547753845.638605) can0 0CEFFF00#64062C7DFFFFFFFF
(1547753845.639183) can0 18EF0600#640EED00FFFFFFFF
(1547753845.648132) can0 0CF00400#F0FF9C241CFFFFFF
(1547753845.650585) can0 0DEF0603#0101FFFFFFFFFFF5
(1547753845.651758) can0 04EF0006#641517F00B19930E
(1547753845.652332) can0 0CFE4947#FFFFFFFFFFFFFFFF
(1547753845.652934) can0 0CFE4347#0000FFFF3FFFFFFF
(1547753845.653555) can0 0CFE4447#0000FFFF3FFFFFFF
(1547753845.658039) can0 0CF00300#FF0023FF06FFFFFF
(1547753845.658605) can0 0CEFFF00#64062D7DFFFFFFFF
(1547753845.659183) can0 18EFFF00#64100101D402057D
(1547753845.668061) can0 0CF00400#F0FF9D261CFFFFFF
(1547753845.670554) can0 0DEF0603#0101FFFFFFFFFFF5
(1547753845.671751) can0 04EF0006#641518F00B19930E
(1547753845.678031) can0 0CF00300#FF0023FF06FFFFFF
(1547753845.678602) can0 0CEFFF00#64062C7DFFFFFFFF
(1547753845.688157) can0 0CF00400#F0FF9C261CFFFFFF
(1547753845.690531) can0 0DEF0603#0101FFFFFFFFFFF5
(1547753845.691728) can0 04EF0006#641519F00B19930E
(1547753845.692302) can0 0CFFFE06#5C271D271DFFFFFF
(1547753845.692877) can0 18FEF147#FF0000FFFFFFFFFF
(1547753845.693477) can0 18F00503#7DFFFFFFFFFFFFFF
(1547753845.698083) can0 0CF00300#FF0023FF06FFFFFF
(1547753845.698677) can0 0CEFFF00#64062C7DFFFFFFFF
(1547753845.699230) can0 18FDB300#FFFFB028FFFFFFFF
(1547753845.699827) can0 1CEFFF00#64070000FFFFFFFF
(1547753845.708017) can0 0CF00400#F0FF9C1C1CFFFFFF
(1547753845.710104) can0 0DEF0647#0104FFFFFFFFFFF1
(1547753845.710754) can0 0DEF0603#0101FFFFFFFFFFF5
(1547753845.711955) can0 04EF0006#64151AF00419930E
(1547753845.718084) can0 0CF00300#FF0024FF06FFFFFF
(1547753845.718653) can0 0CEFFF00#64062E7DFFFFFFFF
(1547753845.719231) can0 18FEF200#2100FFFFFFFFFFFF
(1547753845.728034) can0 0CF00400#F0FF9D241CFFFFFF
(1547753845.730583) can0 0DEF0603#0101FFFFFFFFFFF5
(1547753845.731781) can0 04EF0006#64151BF00B19930E
(1547753845.732354) can0 0CFE4947#FFFFFFFFFFFFFFFF
(1547753845.732929) can0 18FFFB06#0005B2F8FFFFFFFF
(1547753845.733505) can0 0CFE4347#0000FFFF3FFFFFFF
(1547753845.733906) can0 18EA0006#E3FE00
(1547753845.734480) can0 0CFE4447#0000FFFF3FFFFFFF
(1547753845.738234) can0 0CF00300#FF0023FF06FFFFFF
(1547753845.738803) can0 0CEFFF00#64062C7DFFFFFFFF
(1547753845.739379) can0 18EF0600#640EF700FFFFFFFF
(1547753845.748084) can0 0CF00400#F0FF9C2C1CFFFFFF
(1547753845.750556) can0 0DEF0603#0101FFFFFFFFFFF5
(1547753845.751757) can0 04EF0006#64151CF01119930E
(1547753845.758060) can0 0CF00300#FF0023FF06FFFFFF
(1547753845.758629) can0 0CEFFF00#64062B7DFFFFFFFF
(1547753845.759180) can0 18EFFF00#64100101D402057D
(1547753845.759754) can0 18FEDF00#8A201CFFFFFFFFFF
(1547753845.760333) can0 1CFFFF17#22FFFF3CFFFFFFFF
(1547753845.760907) can0 1CEC0600#1022000505E3FE00
(1547753845.763459) can0 1CEC0006#110501FFFFE3FE00
(1547753845.768062) can0 0CF00400#F0FF9C281CFFFFFF
(1547753845.769662) can0 18EAFF06#E5FE00
(1547753845.770638) can0 0DEF0603#0101FFFFFFFFFFF5
(1547753845.771840) can0 04EF0006#64151DF01119930E
(1547753845.772413) can0 18FEF147#FF0000FFFFFFFFFF
(1547753845.773013) can0 18FEE706#CC0A0000FFFFFFFF
(1547753845.773610) can0 18F00503#7DFFFFFFFFFFFFFF
(1547753845.778119) can0 0CF00300#FF0023FF06FFFFFF
(1547753845.778685) can0 0CEFFF00#64062C7DFFFFFFFF
(1547753845.779289) can0 18FEEF00#FFFFFF65FFFFFFFA
(1547753845.788240) can0 0CF00400#F0FF9C261CFFFFFF
(1547753845.790567) can0 0DEF0603#0101FFFFFFFFFFF5
(1547753845.791738) can0 04EF0006#64151EF01119930E
(1547753845.798066) can0 0CF00300#FF0023FF06FFFFFF
(1547753845.798637) can0 0CEFFF00#64062C7DFFFFFFFF
(1547753845.808064) can0 0CF00400#F0FF9C261CFFFFFF
(1547753845.810143) can0 0DEF0647#0104FFFFFFFFFFF1
(1547753845.810811) can0 0DEF0603#0101FFFFFFFFFFF5
(1547753845.812014) can0 04EF0006#64151FF00B19930E
(1547753845.812586) can0 0CFFFE06#5C271D271DFFFFFF
(1547753845.813166) can0 18FEE500#CC0A0000FFFFFFFF
(1547753845.818066) can0 0CF00300#FF0023FF06FFFFFF
(1547753845.818639) can0 0CEFFF00#64062C7DFFFFFFFF
(1547753845.819215) can0 18FEF200#2100FFFFFFFFFFFF
(1547753845.828408) can0 0CF00400#F0FF9C201CFFFFFF
(1547753845.830527) can0 0DEF0603#0101FFFFFFFFFFF5
(1547753845.831725) can0 04EF0006#641510F00B19930E
(1547753845.838027) can0 0CF00300#FF0024FF06FFFFFF
(1547753845.838599) can0 0CEFFF00#64062D7DFFFFFFFF
(1547753845.839176) can0 18EF0600#640E0100FFFFFFFF
(1547753845.848027) can0 0CF00400#F0FF9D181CFFFFFF
(1547753845.850575) can0 0DEF0603#0101FFFFFFFFFFF5
(1547753845.851799) can0 04EF0006#641511F00419930E
(1547753845.852377) can0 0CFE4947#FFFFFFFFFFFFFFFF
(1547753845.852975) can0 18FFFB06#0005B2F8FFFFFFFF
(1547753845.853550) can0 0CFFFF47#5DFFFFF3FFFFFFFF
(1547753845.854154) can0 0CFE4347#0000FFFF3FFFFFFF
(1547753845.854749) can0 0CFE4447#0000FFFF3FFFFFFF
(1547753845.857988) can0 0CF00300#FF0024FF06FFFFFF
(1547753845.858557) can0 0CEFFF00#64062F7DFFFFFFFF
(1547753845.859134) can0 18EFFF00#64100101D302057D
(1547753845.859708) can0 18FEF600#FF003CFF00FFFFFF
(1547753845.860776) can0 1CEB0600#01201CDD6842DCA0
(1547753845.861351) can0 1CECFF00#20220005FFE3FE00
(1547753845.868077) can0 0CF00400#F0FF9D201CFFFFFF
(1547753845.870555) can0 0DEF0603#0101FFFFFFFFFFF5
(1547753845.871752) can0 04EF0006#641512F00B19930E
(1547753845.878054) can0 18EFFA00#6401FF0000FFFFFF
(1547753845.878625) can0 0CEFFF00#64062D7DFFFFFFFF
(1547753845.879202) can0 0CF00300#FF0023FF06FFFFFF
(1547753845.888029) can0 0CF00400#F0FF9D281CFFFFFF
(1547753845.890580) can0 0DEF0603#0101FFFFFFFFFFF5
(1547753845.891777) can0 04EF0006#641513F01119930E
(1547753845.892353) can0 0CFFFE06#5C271D271DFFFFFF
(1547753845.892926) can0 18FEF147#FF0000FFFFFFFFFF
(1547753845.893528) can0 18FFFB06#001BFFFFFFFFFFFF
(1547753845.894131) can0 18F00503#7DFFFFFFFFFFFFFF
(1547753845.898007) can0 0CF00300#FF0023FF06FFFFFF
(1547753845.898575) can0 0CEFFF00#64062C7DFFFFFFFF
(1547753845.908128) can0 0CF00400#F0FF9C201CFFFFFF
(1547753845.910105) can0 0DEF0647#0104FFFFFFFFFFF1
(1547753845.910702) can0 0DEF0603#0101FFFFFFFFFFF5
(1547753845.911903) can0 04EF0006#641514F00B19930E
(1547753845.913203) can0 1CEB0600#020FD58D20E37A31
(1547753845.913751) can0 1CEBFF00#01201CEC6842EAA0
(1547753845.918183) can0 0CF00300#FF0023FF06FFFFFF
(1547753845.918751) can0 0CEFFF00#64062D7DFFFFFFFF
(1547753845.919330) can0 18FEF200#2100FFFFFFFFFFFF
(1547753845.928045) can0 0CF00400#F0FF9D1E1CFFFFFF
(1547753845.930626) can0 0DEF0603#0101FFFFFFFFFFF5
(1547753845.931868) can0 04EF0006#641515F00419930E
(1547753845.932445) can0 0CFE4947#FFFFFFFFFFFFFFFF
(1547753845.933021) can0 18FE6847#3CFFFFFFFFFFFFFF
(1547753845.933617) can0 0CFE4347#0000FFFF3FFFFFFF
(1547753845.934210) can0 18FFFF06#73FFFFFFFFFFFFFF
(1547753845.934767) can0 0CFE4447#0000FFFF3FFFFFFF
(1547753845.938073) can0 0CF00300#FF0023FF06FFFFFF
(1547753845.938647) can0 0CEFFF00#64062E7DFFFFFFFF
(1547753845.939169) can0 18EF0600#640E0B00FFFFFFFF
(1547753845.948026) can0 0CF00400#F0FF9D1E1CFFFFFF
(1547753845.950578) can0 0DEF0603#0101FFFFFFFFFFF5
(1547753845.951844) can0 04EF0006#641516F00419930E
(1547753845.958026) can0 0CF00300#FF0024FF06FFFFFF
(1547753845.958645) can0 0CEFFF00#64062E7DFFFFFFFF
(1547753845.959194) can0 18EFFF00#64100101D302057D
(1547753845.961144) can0 1CEB0600#03F1C044FFFF0401
(1547753845.961718) can0 1CEBFF00#020FE38D20F17A31
(1547753845.968107) can0 0CF00400#F0FF9D161CFFFFFF
(1547753845.970626) can0 0DEF0603#0101FFFFFFFFFFF5
(1547753845.971845) can0 04EF0006#641517F00919930E
(1547753845.972421) can0 0CFFFF47#5EFFFFFFFFFFFFFF
(1547753845.973023) can0 18FEF147#FF0000FFFFFFFFFF
(1547753845.973593) can0 18FEFC47#FFFFFFFFFFFFFFFF
(1547753845.974199) can0 18EF0047#F220610FFFFFFFFF
(1547753845.974774) can0 18F00647#FFCFFFFFFFFFFFFF
(1547753845.975399) can0 1CFDDF47#FCFFFFFFFFFFFFFF
(1547753845.975975) can0 18FFFB06#0005B2F8FFFFFFFF
(1547753845.976530) can0 18F00503#7DFFFFFFFFFFFFFF
(1547753845.978029) can0 0CF00300#FF0024FF06FFFFFF
(1547753845.978582) can0 0CEFFF00#64062F7DFFFFFFFF
(1547753845.979222) can0 18FEEE00#4F41FFFFFFFFFFFF
(1547753845.988050) can0 0CF00400#F0FF9D181CFFFFFF
(1547753845.990578) can0 0DEF0603#0101FFFFFFFFFFF5
(1547753845.991846) can0 04EF0006#641518F00419930E
(1547753845.998101) can0 0CF00300#FF0024FF06FFFFFF
(1547753845.998601) can0 0CEFFF00#64062F7DFFFFFFFF
(1547753846.008227) can0 0CF00400#F0FF9D221CFFFFFF
(1547753846.008757) can0 18FEDF00#8A201CFFFFFFFFFF
(1547753846.010150) can0 0DEF0647#0104FFFFFFFFFFF1
(1547753846.010746) can0 0DEF0603#0101FFFFFFFFFFF5
(1547753846.011972) can0 04EF0006#641519F00419930E
(1547753846.012524) can0 0CFFFE06#5C271D271DFFFFFF
(1547753846.013549) can0 1CEB0600#04204E0001FAC9FA
(1547753846.014100) can0 1CEBFF00#03FAC044FFFF0401
(1547753846.018067) can0 0CF00300#FF0023FF06FFFFFF
(1547753846.018697) can0 0CEFFF00#64062C7DFFFFFFFF
(1547753846.019273) can0 18FEF200#2100FFFFFFFFFFFF
(1547753846.028075) can0 0CF00400#F0FF9C241CFFFFFF
(1547753846.030600) can0 0DEF0603#0101FFFFFFFFFFF5
(1547753846.031800) can0 04EF0006#64151AF00B19930E
(1547753846.038053) can0 0CF00300#FF0023FF06FFFFFF
(1547753846.038622) can0 0CEFFF00#64062C7DFFFFFFFF
(1547753846.039203) can0 18EF0600#640E1500FFFFFFFF
(1547753846.048149) can0 0CF00400#F0FF9C201CFFFFFF
(1547753846.050606) can0 0DEF0603#0101FFFFFFFFFFF5
(1547753846.051802) can0 04EF0006#64151BF00B19930E
(1547753846.052375) can0 0CFE4947#FFFFFFFFFFFFFFFF
(1547753846.052973) can0 0CFE4347#0000FFFF3FFFFFFF
(1547753846.053573) can0 0CFE4447#0000FFFF3FFFFFFF
(1547753846.058078) can0 0CF00300#FF0023FF06FFFFFF
(1547753846.058647) can0 0CEFFF00#64062D7DFFFFFFFF
(1547753846.059224) can0 18EFFF00#64100101D302057D
(1547753846.059797) can0 18FEF700#FFFFFFFFFFFF1801
(1547753846.060905) can0 1CEB0600#05C05D0000FFFFFF
(1547753846.061478) can0 1CEBFF00#04204E0001FAC9FA
(1547753846.068079) can0 0CF00400#F0FF9D221CFFFFFF
(1547753846.068649) can0 1CEC0006#13220005FFE3FE00
(1547753846.070677) can0 0DEF0603#0101FFFFFFFFFFF5
(1547753846.071903) can0 04EF0006#64151CF00B19930E
(1547753846.078080) can0 0CF00300#FF0023FF06FFFFFF
(1547753846.078649) can0 0CEFFF00#64062C7DFFFFFFFF
(1547753846.088179) can0 0CF00400#F0FF9C201CFFFFFF
(1547753846.090602) can0 0DEF0603#0101FFFFFFFFFFF5
(1547753846.091801) can0 04EF0006#64151DF00B19930E
(1547753846.092350) can0 0CFFFE06#5C271D271DFFFFFF
(1547753846.092925) can0 18FEF147#FF0000FFFFFFFFFF
(1547753846.093525) can0 18FFFB06#000587F8FFFFFFFF
(1547753846.094131) can0 18F00503#7DFFFFFFFFFFFFFF
(1547753846.098106) can0 0CF00300#FF0024FF06FFFFFF
(1547753846.098676) can0 0CEFFF00#64062D7DFFFFFFFF
(1547753846.108080) can0 0CF00400#F0FF9D161CFFFFFF
(1547753846.110155) can0 0DEF0647#0104FFFFFFFFFFF1
(1547753846.110775) can0 0DEF0603#0101FFFFFFFFFFF5
(1547753846.111977) can0 04EF0006#64151EF00919930E
(1547753846.113251) can0 1CEBFF00#05C05D0000FFFFFF
(1547753846.118081) can0 0CF00300#FF0024FF06FFFFFF
(1547753846.118651) can0 0CEFFF00#64062F7DFFFFFFFF
(1547753846.119228) can0 18FEF200#2300FFFFFFFFFFFF
(1547753846.128060) can0 0CF00400#F0FF9D1E1CFFFFFF
(1547753846.130629) can0 0DEF0603#0101FFFFFFFFFFF5
(1547753846.131851) can0 04EF0006#64151FF00419930E
(1547753846.132430) can0 0CFE4947#FFFFFFFFFFFFFFFF
(1547753846.133028) can0 0CFE4347#0000FFFF3FFFFFFF
(1547753846.133626) can0 0CFE4447#0000FFFF3FFFFFFF
(1547753846.138234) can0 0CF00300#FF0023FF06FFFFFF
(1547753846.138803) can0 0CEFFF00#64062E7DFFFFFFFF
(1547753846.139378) can0 18EF0600#640E1F00FFFFFFFF
(1547753846.148032) can0 0CF00400#F0FF9D261CFFFFFF
(1547753846.150609) can0 0DEF0603#0101FFFFFFFFFFF5
(1547753846.151803) can0 04EF0006#641510F00B19930E
(1547753846.158083) can0 0CF00300#FF0023FF06FFFFFF
(1547753846.158652) can0 0CEFFF00#64062C7DFFFFFFFF
(1547753846.159228) can0 18EFFF00#64100101D302057D
(1547753846.159801) can0 18FED500#FFFFFDFFFFFFFFFF
(1547753846.168109) can0 0CF00400#F0FF9C221CFFFFFF
(1547753846.170606) can0 0DEF0603#0101FFFFFFFFFFF5
(1547753846.171807) can0 04EF0006#641511F00B19930E
(1547753846.172379) can0 18FEF147#FF0000FFFFFFFFFF
(1547753846.172980) can0 18F00503#7DFFFFFFFFFFFFFF
(1547753846.178203) can0 0CF00300#FF0024FF06FFFFFF
(1547753846.178796) can0 0CEFFF00#64062C7DFFFFFFFF
(1547753846.188254) can0 0CF00400#F0FF9C1E1CFFFFFF
(1547753846.190578) can0 0DEF0603#0101FFFFFFFFFFF5
(1547753846.191739) can0 04EF0006#641512F00B19930E
(1547753846.198047) can0 0CF00300#FF0024FF06FFFFFF
(1547753846.198651) can0 0CEFFF00#64062E7DFFFFFFFF
(1547753846.199228) can0 18FDB300#FFFFB028FFFFFFFF
(1547753846.208103) can0 0CF00400#F0FF9D201CFFFFFF
(1547753846.210151) can0 0DEF0647#0104FFFFFFFFFFF1
(1547753846.210748) can0 0DEF0603#0101FFFFFFFFFFF5
(1547753846.211925) can0 04EF0006#641513F00B19930E
(1547753846.212501) can0 0CFFFE06#5C271D271DFFFFFF
(1547753846.218079) can0 0CF00300#FF0023FF06FFFFFF
(1547753846.218648) can0 0CEFFF00#64062D7DFFFFFFFF
(1547753846.219231) can0 18FEF200#2100FFFFFFFFFFFF
(1547753846.228481) can0 0CF00400#F0FF9D1A1CFFFFFF
(1547753846.230578) can0 0DEF0603#0101FFFFFFFFFFF5
(1547753846.231803) can0 04EF0006#641514F00B19930E
(1547753846.238082) can0 0CF00300#FF0024FF06FFFFFF
(1547753846.238652) can0 0CEFFF00#64062F7DFFFFFFFF
(1547753846.239227) can0 18EF0600#640E2900FFFFFFFF
(1547753846.248081) can0 0CF00400#F0FF9D161CFFFFFF
(1547753846.250629) can0 0DEF0603#0101FFFFFFFFFFF5
(1547753846.251853) can0 04EF0006#641515F00919930E
(1547753846.252429) can0 0CFE4947#FFFFFFFFFFFFFFFF
(1547753846.253029) can0 0CFE4347#0000FFFF3FFFFFFF
(1547753846.253623) can0 0CFE4447#0000FFFF3FFFFFFF
(1547753846.258080) can0 0CF00300#FF0024FF06FFFFFF
(1547753846.258651) can0 0CEFFF00#64062F7DFFFFFFFF
(1547753846.259228) can0 18EFFF00#64100101D202057D
(1547753846.259803) can0 18FEDF00#8A201CFFFFFFFFFF
(1547753846.268086) can0 0CF00400#F0FF9D221CFFFFFF
(1547753846.270561) can0 0DEF0603#0101FFFFFFFFFFF5
(1547753846.271754) can0 0C000006#30FFFFFFF8FFFFFF
(1547753846.272302) can0 04EF0006#641516F00B19930E
(1547753846.278127) can0 0CF00300#FF0023FF06FFFFFF
(1547753846.278701) can0 0CEFFF00#64062D7DFFFFFFFF
(1547753846.279279) can0 18FEEF00#FFFFFF65FFFFFFFA
(1547753846.288085) can0 0CF00400#F0FF9D2C1CFFFFFF
(1547753846.290606) can0 0DEF0603#0101FFFFFFFFFFF5
(1547753846.291803) can0 04EF0006#641517F01119930E
(1547753846.292354) can0 0CFFFE06#5C271D271DFFFFFF
(1547753846.292954) can0 18FEF147#FF0000FFFFFFFFFF
(1547753846.293529) can0 18F00503#7DFFFFFFFFFFFFFF
(1547753846.298084) can0 0CF00300#FF0023FF06FFFFFF
(1547753846.298654) can0 0CEFFF00#64062B7DFFFFFFFF
(1547753846.308207) can0 0CF00400#F0FF9C261CFFFFFF
(1547753846.310133) can0 0DEF0647#0104FFFFFFFFFFF1
(1547753846.310803) can0 0DEF0603#0101FFFFFFFFFFF5
(1547753846.312032) can0 04EF0006#641518F01119930E
(1547753846.318233) can0 0CF00300#FF0023FF06FFFFFF
(1547753846.318806) can0 0CEFFF00#64062C7DFFFFFFFF
(1547753846.319382) can0 18FEF200#2100FFFFFFFFFFFF
(1547753846.328081) can0 0CF00400#F0FF9C261CFFFFFF
(1547753846.330609) can0 0DEF0603#0101FFFFFFFFFFF5
(1547753846.331807) can0 04EF0006#641519F00B19930E
(1547753846.332381) can0 0CFE4947#FFFFFFFFFFFFFFFF
(1547753846.332979) can0 0CFFFF47#5DFFFFF3FFFFFFFF
(1547753846.333581) can0 0CFE4347#0000FFFF3FFFFFFF
(1547753846.334184) can0 0CFE4447#0000FFFF3FFFFFFF
(1547753846.338084) can0 0CF00300#FF0023FF06FFFFFF
(1547753846.338656) can0 0CEFFF00#64062C7DFFFFFFFF
(1547753846.339230) can0 18EF0600#640E3300FFFFFFFF
(1547753846.348068) can0 0CF00400#F0FF9C261CFFFFFF
(1547753846.350565) can0 0DEF0603#0101FFFFFFFFFFF5
(1547753846.351807) can0 04EF0006#64151AF00B19930E
(1547753846.358085) can0 0CF00300#FF0023FF06FFFFFF
(1547753846.358657) can0 0CEFFF00#64062C7DFFFFFFFF
(1547753846.359234) can0 18EFFF00#64100101D302057D
(1547753846.359806) can0 18FEF600#FF003BFF00FFFFFF
(1547753846.368135) can0 0CF00400#F0FF9C1E1CFFFFFF
(1547753846.370588) can0 0DEF0603#0101FFFFFFFFFFF5
(1547753846.371803) can0 04EF0006#64151BF00419930E
(1547753846.372379) can0 18FEF147#FF0000FFFFFFFFFF
(1547753846.372979) can0 18F00503#7DFFFFFFFFFFFFFF
(1547753846.378032) can0 0CF00300#FF0024FF06FFFFFF
(1547753846.378602) can0 0CEFFF00#64062E7DFFFFFFFF
(1547753846.388054) can0 0CF00400#F0FF9D1E1CFFFFFF
(1547753846.390569) can0 0DEF0603#0101FFFFFFFFFFF5
(1547753846.391793) can0 04EF0006#64151CF00419930E
(1547753846.398050) can0 0CF00300#FF0023FF06FFFFFF
(1547753846.398617) can0 0CEFFF00#64062E7DFFFFFFFF
(1547753846.408195) can0 0CF00400#F0FF9D281CFFFFFF
(1547753846.408796) can0 18FFFA00#022C0000180C0081
(1547753846.410145) can0 0DEF0647#0104FFFFFFFFFFF1
(1547753846.410743) can0 0DEF0603#0101FFFFFFFFFFF5
(1547753846.411971) can0 04EF0006#64151DF00419930E
(1547753846.412546) can0 0CFFFE06#5C271D271DFFFFFF
(1547753846.413121) can0 18FFFF06#73FFFFFFFFFFFFFF
(1547753846.418096) can0 0CF00300#FF0022FF06FFFFFF
(1547753846.418670) can0 0CEFFF00#64062C7DFFFFFFFF
(1547753846.419248) can0 18FEF200#2100FFFFFFFFFFFF
(1547753846.428071) can0 0CF00400#F0FF9C2A1CFFFFFF
(1547753846.430597) can0 0DEF0603#0101FFFFFFFFFFF5
(1547753846.431798) can0 04EF0006#64151EF01119930E
(1547753846.438074) can0 0CF00300#FF0023FF06FFFFFF
(1547753846.438647) can0 0CEFFF00#64062B7DFFFFFFFF
(1547753846.439197) can0 18EF0600#640E3D00FFFFFFFF
(1547753846.439797) can0 18FEF500#C8FFFFFFFF39FFFF
(1547753846.440349) can0 1CFFFF17#22FFFF3CFFFFFFFF
(1547753846.448124) can0 0CF00400#F0FF9C221CFFFFFF
(1547753846.450571) can0 0DEF0603#0101FFFFFFFFFFF5
(1547753846.451771) can0 04EF0006#64151FF00B19930E
(1547753846.452346) can0 0CFE4947#FFFFFFFFFFFFFFFF
(1547753846.452946) can0 1CFDDF47#FCFFFFFFFFFFFFFF
(1547753846.453521) can0 0CFE4347#0000FFFF3FFFFFFF
(1547753846.454150) can0 0CFE4447#0000FFFF3FFFFFFF
(1547753846.458099) can0 0CF00300#FF0023FF06FFFFFF
(1547753846.458671) can0 0CEFFF00#64062C7DFFFFFFFF
(1547753846.459247) can0 18EFFF00#64100101D202057D
(1547753846.468098) can0 0CF00400#F0FF9C241CFFFFFF
(1547753846.470600) can0 0DEF0603#0101FFFFFFFFFFF5
(1547753846.471798) can0 04EF0006#641510F00B19930E
(1547753846.478052) can0 0CF00300#FF0023FF06FFFFFF
(1547753846.478585) can0 0CEFFF00#64062C7DFFFFFFFF
(1547753846.479173) can0 18FE6900#9A241A27FFFF60FE
(1547753846.488202) can0 0CF00400#F0FF9C201CFFFFFF
(1547753846.490574) can0 0DEF0603#0101FFFFFFFFFFF5
(1547753846.491774) can0 04EF0006#641511F00B19930E
(1547753846.492348) can0 0CFFFE06#5C271D271DFFFFFF
(1547753846.492924) can0 18FEF147#FF0000FFFFFFFFFF
(1547753846.493525) can0 18F00647#FFCFFFFFFFFFFFFF
(1547753846.494104) can0 18F00503#7DFFFFFFFFFFFFFF
(1547753846.498203) can0 0CF00300#FF0024FF06FFFFFF
(1547753846.498774) can0 0CEFFF00#64062D7DFFFFFFFF
(1547753846.508100) can0 0CF00400#F0FF9D141CFFFFFF
(1547753846.508674) can0 18FEDF00#8B201CFFFFFFFFFF
(1547753846.510204) can0 0DEF0647#0104FFFFFFFFFFF1
(1547753846.510800) can0 0DEF0603#0101FFFFFFFFFFF5
(1547753846.512025) can0 04EF0006#641512F00919930E
(1547753846.518101) can0 0CF00300#FF0024FF06FFFFFF
(1547753846.518673) can0 0CEFFF00#64062F7DFFFFFFFF
(1547753846.519251) can0 18FEF200#2300FFFFFFFFFFFF
(1547753846.528078) can0 0CF00400#F0FF9D1C1CFFFFFF
(1547753846.530625) can0 0DEF0603#0101FFFFFFFFFFF5
(1547753846.531875) can0 04EF0006#641513F00419930E
(1547753846.532425) can0 0CFE4947#FFFFFFFFFFFFFFFF
(1547753846.533050) can0 0CFE4347#0000FFFF3FFFFFFF
(1547753846.533627) can0 0CFE4447#0000FFFF3FFFFFFF
(1547753846.538329) can0 0CF00300#FF0023FF06FFFFFF
(1547753846.538900) can0 0CEFFF00#64062E7DFFFFFFFF
(1547753846.539478) can0 18EF0600#640E4700FFFFFFFF
(1547753846.548126) can0 0CF00400#F0FF9D261CFFFFFF
