(1547753924.210326) can0 18EEFF47#4D74300400340220
(1547753924.210899) can0 18EEFF06#4D743004000E0020
(1547753924.211501) can0 18EEFF03#4D74300400030220
(1547753924.237878) can0 18EEFF00#56F5290400000220
(1547753924.240100) can0 0CF00400#F0FF000000FFFFFF
(1547753924.240477) can0 18EAFF00#00EE00
(1547753924.249980) can0 0CF00300#FF0000FF00FFFFFF
(1547753924.250577) can0 0CEFFF00#6406007DFFFFFFFF
(1547753924.251150) can0 18FEF200#0000FFFFFFFFFFFF
(1547753924.260204) can0 0CF00400#F0FF7D0000FFFFFF
(1547753924.270079) can0 0CF00300#FF0000FF06FFFFFF
(1547753924.270678) can0 0CEFFF00#6406007DFFFFFFFF
(1547753924.271250) can0 18EF0600#640E0302FFFFFFFF
(1547753924.280131) can0 0CF00400#F0FF7D0000FFFFFF
(1547753924.290131) can0 0CF00300#FF0000FF06FFFFFF
(1547753924.290703) can0 0CEFFF00#6406007DFFFFFFFF
(1547753924.291303) can0 18EFFF00#64100B0B0000007D
(1547753924.291878) can0 18FEDF00#7DFA1CFFFFFFFFFF
(1547753924.292427) can0 1CECFF00#20220005FFE3FE00
(1547753924.300099) can0 0CF00400#F0FF7D0000FFFFFF
(1547753924.310106) can0 0CF00300#FF0000FF06FFFFFF
(1547753924.310679) can0 0CEFFF00#6406007DFFFFFFFF
(1547753924.311252) can0 18FEEF00#FFFFFFFEFFFFFFFA
(1547753924.320156) can0 0CF00400#F0FF7D0000FFFFFF
(1547753924.330105) can0 0CF00300#FF0000FF06FFFFFF
(1547753924.330680) can0 0CEFFF00#6406007DFFFFFFFF
(1547753924.340155) can0 0CF00400#F0FF7D0000FFFFFF
(1547753924.343283) can0 1CEBFF00#01201CDD6842DCA0
(1547753924.350133) can0 0CF00300#FF0000FF06FFFFFF
(1547753924.350730) can0 0CEFFF00#6406007DFFFFFFFF
(1547753924.351307) can0 18FEF200#0000FFFFFFFFFFFF
(1547753924.360161) can0 0CF00400#F0FF7D0000FFFFFF
(1547753924.370137) can0 0CF00300#FF0000FF06FFFFFF
(1547753924.370651) can0 0CEFFF00#6406007DFFFFFFFF
(1547753924.371217) can0 18EF0600#640E0D02FFFFFFFF
(1547753924.380187) can0 0CF00400#F0FF7D0000FFFFFF
(1547753924.390135) can0 0CF00300#FF0000FF06FFFFFF
(1547753924.390708) can0 0CEFFF00#6406007DFFFFFFFF
(1547753924.391280) can0 18EFFF00#64100B0B0000007D
(1547753924.391858) can0 18FEF600#FF0045FF00FFFFFF
(1547753924.392433) can0 1CEBFF00#020FD58D20E37A31
(1547753924.400127) can0 0CF00400#F0FF7D0000FFFFFF
(1547753924.410137) can0 18EFFA00#6401FF0000FFFFFF
(1547753924.410709) can0 0CEFFF00#6406007DFFFFFFFF
(1547753924.411282) can0 0CF00300#FF0000FF06FFFFFF
(1547753924.420129) can0 0CF00400#F0FF7D0000FFFFFF
(1547753924.430138) can0 0CF00300#FF0000FF06FFFFFF
(1547753924.430734) can0 0CEFFF00#6406007DFFFFFFFF
(1547753924.440211) can0 0CF00400#F0FF7D0000FFFFFF
(1547753924.443361) can0 1CEBFF00#03F1C044FFFF0401
(1547753924.450163) can0 0CF00300#FF0000FF06FFFFFF
(1547753924.450735) can0 0CEFFF00#6406007DFFFFFFFF
(1547753924.451336) can0 18FEF200#0000FFFFFFFFFFFF
(1547753924.460160) can0 0CF00400#F0FF7D0000FFFFFF
(1547753924.470139) can0 0CF00300#FF0000FF06FFFFFF
(1547753924.470712) can0 0CEFFF00#6406007DFFFFFFFF
(1547753924.471264) can0 18EF0600#640E1706FFFFFFFF
(1547753924.471886) can0 0DEF0603#0101FFFFFFFFFFF5
(1547753924.472438) can0 04EF0006#641510F00000930E
(1547753924.472978) can0 0C000006#30FFFFFFF8FFFFFF
(1547753924.480131) can0 0CF00400#F0FF7D0000FFFFFF
(1547753924.490137) can0 0CF00300#FF0000FF06FFFFFF
(1547753924.490714) can0 0CEFFF00#6406007DFFFFFFFF
(1547753924.491243) can0 18EEFF00#56F5290400000220
(1547753924.491821) can0 0DEF0647#0104FFFFFFFFFFF1
(1547753924.492440) can0 04EF0006#641510F00000930E
(1547753924.493011) can0 0DEF0603#0101FFFFFFFFFFF5
(1547753924.493534) can0 18EFFF00#64100B0B0000007D
(1547753924.494141) can0 0CFFFE06#5C271D271DFFFFFF
(1547753924.494674) can0 18FFFB06#00057DF8FFFFFFFF
(1547753924.495244) can0 1CEBFF00#04204E0001FAC9FA
(1547753924.495634) can0 18EAFF47#00EE00
(1547753924.500162) can0 0CF00400#F0FF7D0000FFFFFF
(1547753924.510140) can0 0CF00300#FF0000FF06FFFFFF
(1547753924.510714) can0 0CEFFF00#6406007DFFFFFFFF
(1547753924.511314) can0 18FEEE00#5140FFFFFFFFFFFF
(1547753924.511887) can0 0DEF0603#0101FFFFFFFFFFF5
(1547753924.512439) can0 04EF0006#641510F00000930E
(1547753924.520216) can0 0CF00400#F0FF7D0000FFFFFF
(1547753924.530115) can0 0CF00300#FF0000FF06FFFFFF
(1547753924.530690) can0 0CEFFF00#6406007DFFFFFFFF
(1547753924.531714) can0 0DEF0603#0101FFFFFFFFFFF5
(1547753924.532262) can0 04EF0006#641510F00000930E
(1547753924.532840) can0 0CFE4947#FFFFFFFFFFFFFFFF
(1547753924.533439) can0 0CFE4347#FFFFFFFFFFFFFFFF
(1547753924.534017) can0 0CFE4447#0000FFFF3FFFFFFF
(1547753924.540165) can0 0CF00400#F0FF7D0000FFFFFF
(1547753924.540766) can0 18FEDF00#7D261DFFFFFFFFFF
(1547753924.543584) can0 18EEFF00#56F5290400000220
(1547753924.544195) can0 1CEBFF00#05C05D0000FFFFFF
(1547753924.550133) can0 0CF00300#FF0000FF06FFFFFF
(1547753924.550765) can0 0CEFFF00#6406007DFFFFFFFF
(1547753924.551338) can0 18FEF200#0000FFFFFFFFFFFF
(1547753924.551915) can0 0DEF0603#0101FFFFFFFFFFF5
(1547753924.552464) can0 04EF0006#641510F00000930E
(1547753924.560159) can0 0CF00400#F0FF7D0000FFFFFF
(1547753924.570143) can0 0CF00300#FF0000FF06FFFFFF
(1547753924.570715) can0 0CEFFF00#6406007DFFFFFFFF
(1547753924.571290) can0 18EF0600#640E2100FFFFFFFF
(1547753924.571860) can0 0DEF0603#0101FFFFFFFFFFF5
(1547753924.572398) can0 04EF0006#641510F00000930E
(1547753924.573021) can0 18FEF147#FF0000FFFFFFFFFF
(1547753924.573620) can0 18F00503#FFFFFFFFFFFFFFFF
(1547753924.580160) can0 0CF00400#F0FF7D0000FFFFFF
(1547753924.590111) can0 0CF00300#FF0000FF06FFFFFF
(1547753924.590701) can0 0CEFFF00#6406007DFFFFFFFF
(1547753924.591288) can0 18EFFF00#64100B0B0000007D
(1547753924.591864) can0 0DEF0647#0104FFFFFFFFFFF1
(1547753924.592413) can0 04EF0006#641510F00000930E
(1547753924.592993) can0 0DEF0603#0101FFFFFFFFFFF5
(1547753924.593590) can0 18FEF700#FFFFFFFFFFFFA300
(1547753924.600182) can0 0CF00400#F0FF7D0000FFFFFF
(1547753924.610114) can0 0CF00300#FF0000FF06FFFFFF
(1547753924.610683) can0 0CEFFF00#6406007DFFFFFFFF
(1547753924.611692) can0 0DEF0603#0101FFFFFFFFFFF5
(1547753924.612265) can0 04EF0006#641510F00000930E
(1547753924.612843) can0 0CFE4947#FFFFFFFFFFFFFFFF
(1547753924.613442) can0 0CFE4347#FFFFFFFFFFFFFFFF
(1547753924.614043) can0 0CFE4447#0000FFFF3FFFFFFF
(1547753924.614617) can0 0CFFFE06#5C271D271DFFFFFF
(1547753924.620165) can0 0CF00400#F0FF7D0000FFFFFF
(1547753924.630113) can0 0CF00300#FF0000FF06FFFFFF
(1547753924.630744) can0 0CEFFF00#6406007DFFFFFFFF
(1547753924.631688) can0 0DEF0603#0101FFFFFFFFFFF5
(1547753924.632271) can0 04EF0006#641510F00000930E
(1547753924.640196) can0 0CF00400#F0FF7D0000FFFFFF
(1547753924.645397) can0 18EEFF47#4D74300400340220
(1547753924.645970) can0 18EEFF06#4D743004000E0020
(1547753924.646543) can0 18EEFF03#4D74300400030220
(1547753924.650173) can0 0CF00300#FF0000FF06FFFFFF
(1547753924.650744) can0 0CEFFF00#6406007DFFFFFFFF
(1547753924.651343) can0 18FEF200#0000FFFFFFFFFFFF
(1547753924.651919) can0 0DEF0603#0101FFFFFFFFFFF5
(1547753924.652469) can0 04EF0006#641510F00000930E
(1547753924.653001) can0 18FEF147#FF0000FFFFFFFFFF
(1547753924.653603) can0 18F00503#FFFFFFFFFFFFFFFF
(1547753924.660163) can0 0CF00400#F0FF7D0000FFFFFF
(1547753924.670145) can0 0CF00300#FF0000FF06FFFFFF
(1547753924.670720) can0 0CEFFF00#6406007DFFFFFFFF
(1547753924.671293) can0 18EF0600#640E2B00FFFFFFFF
(1547753924.671898) can0 0DEF0603#0101FFFFFFFFFFF5
(1547753924.672444) can0 04EF0006#641510F00000930E
(1547753924.680185) can0 0CF00400#F0FF7D0000FFFFFF
(1547753924.690137) can0 0CF00300#FF0000FF06FFFFFF
(1547753924.690720) can0 0CEFFF00#6406007DFFFFFFFF
(1547753924.691294) can0 18EFFF00#64100B0B0000007D
(1547753924.691839) can0 0DEF0647#0104FFFFFFFFFFF1
(1547753924.692404) can0 04EF0006#641510F00000930E
(1547753924.693026) can0 0DEF0603#0101FFFFFFFFFFF5
(1547753924.693596) can0 18FED500#FFFFFCFFFFFFFFFF
(1547753924.694174) can0 0CFFFE06#5C271D271DFFFFFF
(1547753924.700192) can0 0CF00400#F0FF7D0000FFFFFF
(1547753924.710130) can0 0CF00300#FF0000FF06FFFFFF
(1547753924.710746) can0 0CEFFF00#6406007DFFFFFFFF
(1547753924.711695) can0 0DEF0603#0101FFFFFFFFFFF5
(1547753924.712277) can0 04EF0006#641510F00000930E
(1547753924.720199) can0 0CF00400#F0FF7D0000FFFFFF
(1547753924.730150) can0 0CF00300#FF0000FF06FFFFFF
(1547753924.730679) can0 0CEFFF00#6406007DFFFFFFFF
(1547753924.731320) can0 18FDB300#FFFF0029FFFFFFFF
(1547753924.731898) can0 0DEF0603#0101FFFFFFFFFFF5
(1547753924.732447) can0 04EF0006#641510F00000930E
(1547753924.733045) can0 0CFE4947#FFFFFFFFFFFFFFFF
(1547753924.733594) can0 0CFE4347#FFFFFFFFFFFFFFFF
(1547753924.734199) can0 0CFE4447#0000FFFF3FFFFFFF
(1547753924.740167) can0 0CF00400#F0FF7D0000FFFFFF
(1547753924.750178) can0 0CF00300#FF0000FF06FFFFFF
(1547753924.750775) can0 0CEFFF00#6406007DFFFFFFFF
(1547753924.751347) can0 18FEF200#0000FFFFFFFFFFFF
(1547753924.751923) can0 0DEF0603#0101FFFFFFFFFFF5
(1547753924.752473) can0 04EF0006#641510F00000930E
(1547753924.760228) can0 0CF00400#F0FF7D9203FFFFFF
(1547753924.770225) can0 0CF00300#FF0000FF06FFFFFF
(1547753924.770799) can0 0CEFFF00#6406FB7CFFFFFFFF
(1547753924.771374) can0 18EF0600#640E3500FFFFFFFF
(1547753924.772094) can0 0DEF0603#0101FFFFFFFFFFF5
(1547753924.773349) can0 04EF0006#641510F00000930E
(1547753924.773926) can0 18FEF147#FF0000FFFFFFFFFF
(1547753924.774549) can0 18F00503#FFFFFFFFFFFFFFFF
(1547753924.780303) can0 0CF00400#F0FF7D9C05FFFFFF
(1547753924.790228) can0 0CF00300#FF0000FF06FFFFFF
(1547753924.790801) can0 0CEFFF00#6406F77CFFFFFFFF
(1547753924.791406) can0 18EFFF00#641000000000007D
(1547753924.791975) can0 18FEDF00#7D261DFFFFFFFFFF
(1547753924.792577) can0 0DEF0647#0104FFFFFFFFFFF1
(1547753924.793142) can0 0DEF0603#0101FFFFFFFFFFF5
(1547753924.793869) can0 04EF0006#641510F00000930E
(1547753924.800279) can0 0CF00400#F0FF7DA605FFFFFF
(1547753924.810254) can0 0CF00300#FF0000FF06FFFFFF
(1547753924.810828) can0 0CEFFF00#6406F77CFFFFFFFF
(1547753924.811400) can0 18FEEF00#FFFFFF00FFFFFFFA
(1547753924.812451) can0 0DEF0603#0101FFFFFFFFFFF5
(1547753924.813652) can0 04EF0006#641510F00000930E
(1547753924.814228) can0 0CFE4947#FFFFFFFFFFFFFFFF
(1547753924.814826) can0 0CFFFF47#5DFFFFF3FFFFFFFF
(1547753924.820235) can0 0CF00400#F0FF7DA605FFFFFF
(1547753924.830203) can0 0CF00300#FF0000FF06FFFFFF
(1547753924.830777) can0 0CEFFF00#6406F77CFFFFFFFF
(1547753924.840303) can0 0CF00400#F0FF7DA605FFFFFF
(1547753924.850285) can0 0CF00300#FF0000FF06FFFFFF
(1547753924.850853) can0 0CEFFF00#6406F77CFFFFFFFF
(1547753924.851454) can0 18FEF200#0000FFFFFFFFFFFF
(1547753924.860222) can0 0CF00400#F0FF7DA605FFFFFF
(1547753924.870207) can0 0CF00300#FF0000FF06FFFFFF
(1547753924.870777) can0 0CEFFF00#6406F77CFFFFFFFF
(1547753924.871351) can0 18EF0600#640E3F00FFFFFFFF
(1547753924.880232) can0 0CF00400#F0FF7D4C05FFFFFF
(1547753924.890229) can0 0CF00300#FF0000FF06FFFFFF
(1547753924.890830) can0 0CEFFF00#6406F87CFFFFFFFF
(1547753924.891455) can0 18EFFF00#641000000000007D
(1547753924.891977) can0 18FEF600#FF0040FF00FFFFFF
(1547753924.900225) can0 0CF00400#F0FF7D1805FFFFFF
(1547753924.910172) can0 0CF00300#FF0000FF06FFFFFF
(1547753924.910767) can0 0CEFFF00#6406F87CFFFFFFFF
(1547753924.920281) can0 0CF00400#F0FF7D1805FFFFFF
(1547753924.930256) can0 0CF00300#FF0000FF06FFFFFF
(1547753924.930832) can0 0CEFFF00#6406F87CFFFFFFFF
(1547753924.940286) can0 0CF00400#F0FF7D1805FFFFFF
(1547753924.940883) can0 18FFFA00#022C0000180C0000
(1547753924.950309) can0 0CF00300#FF0000FF06FFFFFF
(1547753924.950883) can0 0CEFFF00#6406F87CFFFFFFFF
(1547753924.951483) can0 18FEF200#0000FFFFFFFFFFFF
(1547753924.960283) can0 0CF00400#F0FF7D1805FFFFFF
(1547753924.970234) can0 0CF00300#FF0000FF06FFFFFF
(1547753924.970808) can0 0CEFFF00#6406F87CFFFFFFFF
(1547753924.971383) can0 18EF0600#640E4900FFFFFFFF
(1547753924.971913) can0 18FEF500#C8FFFFFFFF3BFFFF
(1547753924.980285) can0 0CF00400#F0FF7D6C06FFFFFF
(1547753924.990261) can0 0CF00300#FF0000FF06FFFFFF
(1547753924.990837) can0 0CEFFF00#6406F67CFFFFFFFF
(1547753924.991459) can0 18EFFF00#641000000000007D
(1547753925.000309) can0 0CF00400#F0FF7DA006FFFFFF
(1547753925.010236) can0 0CF00300#FF0000FF06FFFFFF
(1547753925.010835) can0 0CEFFF00#6406F67CFFFFFFFF
(1547753925.011382) can0 18FE6900#34254427FFFF60FE
(1547753925.020287) can0 0CF00400#F0FF7DA206FFFFFF
(1547753925.030240) can0 0CF00300#FF0000FF06FFFFFF
(1547753925.030830) can0 0CEFFF00#6406F67CFFFFFFFF
(1547753925.040289) can0 0CF00400#F0FF7DA206FFFFFF
(1547753925.040861) can0 18FEDF00#80FA1CFFFFFFFFFF
(1547753925.050289) can0 0CF00300#FF0000FF06FFFFFF
(1547753925.050861) can0 0CEFFF00#6406F67CFFFFFFFF
(1547753925.051462) can0 18FEF200#0000FFFFFFFFFFFF
(1547753925.060290) can0 0CF00400#F0FF7DA206FFFFFF
(1547753925.070266) can0 0CF00300#FF0000FF06FFFFFF
(1547753925.070838) can0 0CEFFF00#6406F67CFFFFFFFF
(1547753925.071410) can0 18EF0600#640E5306FFFFFFFF
(1547753925.080288) can0 0CF00400#F0FF7DA206FFFFFF
(1547753925.090264) can0 0CF00300#FF0000FF06FFFFFF
(1547753925.090865) can0 0CEFFF00#6406F67CFFFFFFFF
(1547753925.091463) can0 18EFFF00#641000000000007D
(1547753925.100291) can0 0CF00400#F0FF7D5604FFFFFF
(1547753925.110238) can0 0CF00300#FF0000FF06FFFFFF
(1547753925.110814) can0 0CEFFF00#6406F97CFFFFFFFF
(1547753925.120266) can0 0CF00400#F0FF7D4C04FFFFFF
(1547753925.130267) can0 0CF00300#FF0000FF06FFFFFF
(1547753925.130840) can0 0CEFFF00#6406F97CFFFFFFFF
(1547753925.131414) can0 18FD7C00#F880F0F000CF03FC
(1547753925.140293) can0 0CF00400#F0FF7D4C04FFFFFF
(1547753925.150294) can0 0CF00300#FF0000FF06FFFFFF
(1547753925.150866) can0 0CEFFF00#6406F97CFFFFFFFF
(1547753925.151468) can0 18FEF200#0000FFFFFFFFFFFF
(1547753925.160320) can0 0CF00400#F0FF7D6809FFFFFF
(1547753925.170295) can0 0CF00300#FF0064FF06FFFFFF
(1547753925.170866) can0 0CEFFF00#6406F17CFFFFFFFF
(1547753925.171415) can0 18EF0600#640E5D06FFFFFFFF
(1547753925.180320) can0 0CF00400#FEFF7DD206FFFFFF
(1547753925.190321) can0 0CF00300#FF0064FF06FFFFFF
(1547753925.190894) can0 0CEFFF00#64068C7DFFFFFFFF
(1547753925.191494) can0 18EFFF00#641000000000007D
(1547753925.200320) can0 0CF00400#FEFFB75606FFFFFF
(1547753925.210249) can0 0CF00300#FF0064FF06FFFFFF
(1547753925.210870) can0 0CEFFF00#64068C7DFFFFFFFF
(1547753925.220322) can0 0CF00400#FEFFB79805FFFFFF
(1547753925.230271) can0 0CF00300#FF0064FF06FFFFFF
(1547753925.230845) can0 0CEFFF00#64068C7DFFFFFFFF
(1547753925.231419) can0 18FDB300#FFFFF428FFFFFFFF
(1547753925.232019) can0 1CEFFF00#64070000FFFFFFFF
(1547753925.240399) can0 0CF00400#FEFFB61805FFFFFF
(1547753925.250298) can0 0CF00300#FF0064FF06FFFFFF
(1547753925.250872) can0 0CEFFF00#64068C7DFFFFFFFF
(1547753925.251471) can0 18FEF200#1400FFFFFFFFFFFF
(1547753925.260323) can0 0CF00400#FEFFB63406FFFFFF
(1547753925.270298) can0 0CF00300#FF0064FF06FFFFFF
(1547753925.270897) can0 0CEFFF00#64068C7DFFFFFFFF
(1547753925.271471) can0 18EF0600#640E6706FFFFFFFF
(1547753925.280351) can0 0CF00400#FEFFB72A07FFFFFF
(1547753925.290274) can0 0CF00300#FF0064FF06FFFFFF
(1547753925.290849) can0 0CEFFF00#64068C7DFFFFFFFF
(1547753925.291471) can0 18EFFF00#641000000000007D
(1547753925.292046) can0 18FEDF00#80201CFFFFFFFFFF
(1547753925.300324) can0 0CF00400#FEFFB78207FFFFFF
(1547753925.310273) can0 0CF00300#FF0064FF06FFFFFF
(1547753925.310849) can0 0CEFFF00#64068C7DFFFFFFFF
(1547753925.311472) can0 18FEEF00#FFFFFF3EFFFFFFFA
(1547753925.320347) can0 0CF00400#FEFFB77C07FFFFFF
(1547753925.330299) can0 0CF00300#FF0064FF06FFFFFF
(1547753925.330875) can0 0CEFFF00#64068C7DFFFFFFFF
(1547753925.340326) can0 0CF00400#FEFFB73E07FFFFFF
(1547753925.350377) can0 0CF00300#FF0064FF06FFFFFF
(1547753925.350926) can0 0CEFFF00#64068C7DFFFFFFFF
(1547753925.351525) can0 18FEF200#1E00FFFFFFFFFFFF
(1547753925.360352) can0 0CF00400#FEFFB7E606FFFFFF
(1547753925.370303) can0 0CF00300#FF0064FF06FFFFFF
(1547753925.370875) can0 0CEFFF00#64068C7DFFFFFFFF
(1547753925.371479) can0 18EF0600#640E7106FFFFFFFF
(1547753925.380326) can0 0CF00400#FEFFB7AA06FFFFFF
(1547753925.390301) can0 0CF00300#FF0064FF06FFFFFF
(1547753925.390877) can0 0CEFFF00#64068C7DFFFFFFFF
(1547753925.391476) can0 18EFFF00#641000000000007D
(1547753925.392050) can0 18FEF600#FF0040FF00FFFFFF
(1547753925.400353) can0 0CF00400#FEFFB70606FFFFFF
(1547753925.410277) can0 18EFFA00#6401FF0000FFFFFF
(1547753925.410852) can0 0CEFFF00#64068C7DFFFFFFFF
(1547753925.411425) can0 0CF00300#FF0064FF06FFFFFF
(1547753925.420478) can0 0CF00400#FEFFB65205FFFFFF
(1547753925.430306) can0 0CF00300#FF0064FF06FFFFFF
(1547753925.430878) can0 0CEFFF00#64068C7DFFFFFFFF
(1547753925.440377) can0 0CF00400#FEFFB6BA05FFFFFF
(1547753925.450329) can0 0CF00300#FF0064FF06FFFFFF
(1547753925.450906) can0 0CEFFF00#64068C7DFFFFFFFF
(1547753925.451478) can0 18FEF200#1700FFFFFFFFFFFF
(1547753925.460362) can0 0CF00400#FEFFB6560AFFFFFF
(1547753925.470235) can0 0CF00300#FF0064FF06FFFFFF
(1547753925.470855) can0 0CEFFF00#64068C7DFFFFFFFF
(1547753925.471478) can0 18EF0600#640E7B06FFFFFFFF
(1547753925.480338) can0 0CF00400#FEFFB9400CFFFFFF
(1547753925.490310) can0 0CF00300#FF0064FF06FFFFFF
(1547753925.490881) can0 0CEFFF00#64068C7DFFFFFFFF
(1547753925.491480) can0 18EFFF00#641000000000007D
(1547753925.500385) can0 0CF00400#FEFFBB6A0CFFFFFF
(1547753925.510409) can0 0CF00300#FF0064FF06FFFFFF
(1547753925.511006) can0 0CEFFF00#64068C7DFFFFFFFF
(1547753925.511583) can0 18FEEE00#5141FFFFFFFFFFFF
(1547753925.520485) can0 0CF00400#FEFFBBC00BFFFFFF
(1547753925.530308) can0 0CF00300#FF0064FF06FFFFFF
(1547753925.530883) can0 0CEFFF00#64068C7DFFFFFFFF
(1547753925.540485) can0 0CF00400#FEFFBAE409FFFFFF
(1547753925.541058) can0 18FEDF00#84201CFFFFFFFFFF
(1547753925.550361) can0 0CF00300#FF0064FF06FFFFFF
(1547753925.550934) can0 0CEFFF00#64068C7DFFFFFFFF
(1547753925.551508) can0 18FEF200#2A00FFFFFFFFFFFF
(1547753925.560386) can0 0CF00400#FEFFB9100CFFFFFF
(1547753925.570313) can0 0CF00300#FF0064FF06FFFFFF
(1547753925.570885) can0 0CEFFF00#64068C7DFFFFFFFF
(1547753925.571480) can0 18EF0600#640E8506FFFFFFFF
(1547753925.580337) can0 0CF00400#FEFFBA6E0FFFFFFF
(1547753925.590311) can0 0CF00300#FF0064FF06FFFFFF
(1547753925.590885) can0 0CEFFF00#64068C7DFFFFFFFF
(1547753925.591484) can0 18EFFF00#641000000000007D
(1547753925.592058) can0 18FEF700#FFFFFFFFFFFFC500
(1547753925.600365) can0 0CF00400#FEFFBCD20EFFFFFF
(1547753925.610338) can0 0CF00300#FF0064FF06FFFFFF
(1547753925.610911) can0 0CEFFF00#64068C7DFFFFFFFF
(1547753925.620490) can0 0CF00400#FEFFBC7A0EFFFFFF
(1547753925.630329) can0 0CF00300#FF0064FF06FFFFFF
(1547753925.630896) can0 0CEFFF00#64068C7DFFFFFFFF
(1547753925.640321) can0 0CF00400#FEFFBC240EFFFFFF
(1547753925.650337) can0 0CF00300#FF0064FF06FFFFFF
(1547753925.650912) can0 0CEFFF00#64068C7DFFFFFFFF
(1547753925.651487) can0 18FEF200#3E00FFFFFFFFFFFF
(1547753925.660363) can0 0CF00400#FEFFBCF60FFFFFFF
(1547753925.670337) can0 0CF00300#FF0064FF06FFFFFF
(1547753925.670913) can0 0CEFFF00#64068C7DFFFFFFFF
(1547753925.671488) can0 18EF0600#640E8F06FFFFFFFF
(1547753925.680363) can0 0CF00400#FEFFBD1E10FFFFFF
(1547753925.690338) can0 0CF00300#FF0064FF06FFFFFF
(1547753925.690913) can0 0CEFFF00#64068C7DFFFFFFFF
(1547753925.691512) can0 18EFFF00#641000000000007D
(1547753925.692087) can0 18FED500#FFFFFCFFFFFFFFFF
(1547753925.700415) can0 0CF00400#FEFFBDF610FFFFFF
(1547753925.710340) can0 0CF00300#FF0064FF06FFFFFF
(1547753925.710915) can0 0CEFFF00#64068C7DFFFFFFFF
(1547753925.720391) can0 0CF00400#FEFFBEC211FFFFFF
(1547753925.730292) can0 0CF00300#FF0064FF06FFFFFF
(1547753925.730865) can0 0CEFFF00#64068C7DFFFFFFFF
(1547753925.731464) can0 18FDB300#FFFFF428FFFFFFFF
(1547753925.740369) can0 0CF00400#FEFFBEB012FFFFFF
(1547753925.750368) can0 0CF00300#FF0064FF06FFFFFF
(1547753925.750940) can0 0CEFFF00#64068C7DFFFFFFFF
(1547753925.751516) can0 18FEF200#5500FFFFFFFFFFFF
(1547753925.760542) can0 0CF00400#FEFFBE8C13FFFFFF
(1547753925.770317) can0 0CF00300#FF0064FF06FFFFFF
(1547753925.770916) can0 0CEFFF00#64068C7DFFFFFFFF
(1547753925.771492) can0 18EF0600#640E9906FFFFFFFF
(1547753925.780369) can0 0CF00400#FEFFBF8A14FFFFFF
(1547753925.790343) can0 0CF00300#FF0064FF06FFFFFF
(1547753925.790918) can0 0CEFFF00#64068C7DFFFFFFFF
(1547753925.791519) can0 18EFFF00#641000000000007D
(1547753925.792116) can0 18FEDF00#88201CFFFFFFFFFF
(1547753925.800369) can0 0CF00400#FEFFBF6815FFFFFF
(1547753925.810369) can0 0CF00300#FF0064FF06FFFFFF
(1547753925.810944) can0 0CEFFF00#64068C7DFFFFFFFF
(1547753925.811544) can0 18FEEF00#FFFFFF55FFFFFFFA
(1547753925.820420) can0 0CF00400#FEFFBF5C16FFFFFF
(1547753925.830344) can0 0CF00300#FF0064FF06FFFFFF
(1547753925.830945) can0 0CEFFF00#64068C7DFFFFFFFF
(1547753925.840398) can0 0CF00400#FEFFC05817FFFFFF
(1547753925.850446) can0 0CF00300#FF0064FF06FFFFFF
(1547753925.851023) can0 0CEFFF00#64068F7DFFFFFFFF
(1547753925.851625) can0 18FEF200#6C00FFFFFFFFFFFF
(1547753925.860375) can0 0CF00400#FEFFC12A18FFFFFF
(1547753925.870600) can0 0CF00300#FF0064FF06FFFFFF
(1547753925.871198) can0 0CEFFF00#6406927DFFFFFFFF
(1547753925.871749) can0 18EF0600#640EA306FFFFFFFF
(1547753925.880276) can0 0CF00400#FEFFC21A19FFFFFF
(1547753925.890325) can0 0CF00300#FF0064FF06FFFFFF
(1547753925.890898) can0 0CEFFF00#6406947DFFFFFFFF
(1547753925.891497) can0 18EFFF00#64100000A002007D
(1547753925.892047) can0 18FEF600#FF003EFF00FFFFFF
(1547753925.900324) can0 0CF00400#FEFFC3FA19FFFFFF
(1547753925.910499) can0 0CF00300#FF0064FF06FFFFFF
(1547753925.911049) can0 0CEFFF00#6406987DFFFFFFFF
(1547753925.920303) can0 0CF00400#FEFFC5E41AFFFFFF
(1547753925.930279) can0 0CF00300#FF0064FF06FFFFFF
(1547753925.930875) can0 0CEFFF00#64069B7DFFFFFFFF
(1547753925.940408) can0 0CF00400#F8FFC6D61BFFFFFF
(1547753925.940980) can0 18FFFA00#022C0000180C00A5
(1547753925.950459) can0 0CF00300#FF0064FF06FFFFFF
(1547753925.951032) can0 0CEFFF00#64069E7DFFFFFFFF
(1547753925.951631) can0 18FEF200#5100FFFFFFFFFFFF
(1547753925.960535) can0 0CF00400#F8FFC8B41CFFFFFF
(1547753925.970411) can0 0CF00300#FF0064FF06FFFFFF
(1547753925.970982) can0 0CEFFF00#6406A17DFFFFFFFF
(1547753925.971558) can0 18EF0600#640EAD06FFFFFFFF
(1547753925.972131) can0 18FEF500#C8FFFFFFFF3AFFFF
(1547753925.980410) can0 0CF00400#F8FFC97C1DFFFFFF
(1547753925.990462) can0 0CF00300#FF0064FF06FFFFFF
(1547753925.991034) can0 0CEFFF00#6406A27DFFFFFFFF
(1547753925.991608) can0 18EFFF00#64100101FC02007D
(1547753926.000588) can0 0CF00400#F0FFCA021EFFFFFF
(1547753926.010386) can0 0CF00300#FF0050FF06FFFFFF
(1547753926.010960) can0 0CEFFF00#6406927DFFFFFFFF
(1547753926.011535) can0 18FE6900#DE244827FFFF60FE
(1547753926.020388) can0 0CF00400#F0FFC4921EFFFFFF
(1547753926.030461) can0 0CF00300#FF0030FF06FFFFFF
(1547753926.031039) can0 0CEFFF00#64065A7DFFFFFFFF
(1547753926.040512) can0 0CF00400#F0FFAE161FFFFFFF
(1547753926.041086) can0 18FEDF00#8B201CFFFFFFFFFF
(1547753926.050389) can0 0CF00300#FF0012FF06FFFFFF
(1547753926.050985) can0 0CEFFF00#64061B7DFFFFFFFF
(1547753926.051563) can0 18FEF200#1A00FFFFFFFFFFFF
(1547753926.060389) can0 0CF00400#F0FF967E1FFFFFFF
(1547753926.070440) can0 0CF00300#FF0000FF06FFFFFF
(1547753926.071012) can0 0CEFFF00#6406E87CFFFFFFFF
(1547753926.071587) can0 18EF0600#640EB706FFFFFFFF
(1547753926.080343) can0 0CF00400#F1FF83BC1FFFFFFF
(1547753926.090340) can0 0CF00300#FF0000FF06FFFFFF
(1547753926.090888) can0 0CEFFF00#6406D97CFFFFFFFF
(1547753926.091460) can0 18EFFF00#641001011303057D
(1547753926.100415) can0 0CF00400#F1FF7DB41FFFFFFF
(1547753926.110441) can0 0CF00300#FF0000FF06FFFFFF
(1547753926.111014) can0 0CEFFF00#6406D97CFFFFFFFF
(1547753926.120365) can0 0CF00400#F1FF7D541FFFFFFF
(1547753926.130342) can0 0CF00300#FF0000FF06FFFFFF
(1547753926.130915) can0 0CEFFF00#6406D97CFFFFFFFF
(1547753926.131513) can0 18FD7C00#F880F1F500CF03FD
(1547753926.140367) can0 0CF00400#F1FF7DF01EFFFFFF
(1547753926.150466) can0 0CF00300#FF0000FF06FFFFFF
(1547753926.151040) can0 0CEFFF00#6406DA7CFFFFFFFF
(1547753926.151616) can0 18FEF200#0000FFFFFFFFFFFF
(1547753926.154042) can0 18EEFF47#4D74300400340220
(1547753926.154615) can0 18EEFF06#4D743004000E0020
(1547753926.155212) can0 18EEFF03#4D74300400030220
(1547753926.160391) can0 0CF00400#F1FF7D7E1EFFFFFF
(1547753926.170344) can0 0CF00300#FF000EFF06FFFFFF
(1547753926.170915) can0 0CEFFF00#6406F37CFFFFFFFF
(1547753926.171516) can0 18EF0600#640EC106FFFFFFFF
(1547753926.180390) can0 0CF00400#F1FF87161EFFFFFF
(1547753926.190344) can0 0CF00300#FF0014FF06FFFFFF
(1547753926.190918) can0 0CEFFF00#6406FB7CFFFFFFFF
(1547753926.191516) can0 18EFFF00#64100101F302037D
(1547753926.200643) can0 0CF00400#F1FF8AAE1DFFFFFF
(1547753926.210394) can0 0CF00300#FF001AFF06FFFFFF
(1547753926.210944) can0 0CEFFF00#64060D7DFFFFFFFF
(1547753926.220394) can0 0CF00400#F1FF90561DFFFFFF
(1547753926.224855) can0 18EEFF17#0C6E240400130220
(1547753926.230344) can0 0CF00300#FF001DFF06FFFFFF
(1547753926.230918) can0 0CEFFF00#6406157DFFFFFFFF
(1547753926.231522) can0 18FDB300#FFFF0029FFFFFFFF
(1547753926.232094) can0 1CEFFF00#64070000FFFFFFFF
(1547753926.240421) can0 0CF00400#F1FF93161DFFFFFF
(1547753926.250420) can0 0CF00300#FF004CFF06FFFFFF
(1547753926.250994) can0 0CEFFF00#64061C7DFFFFFFFF
(1547753926.251596) can0 18FEF200#1A00FFFFFFFFFFFF
(1547753926.260376) can0 0CF00400#F0FF96EC1CFFFFFF
(1547753926.270375) can0 0CF00300#FF004EFF06FFFFFF
(1547753926.270945) can0 0CEFFF00#6406747DFFFFFFFF
(1547753926.271520) can0 18EF0600#640ECB06FFFFFFFF
(1547753926.280423) can0 0CF00400#F0FFB8D21CFFFFFF
(1547753926.290472) can0 0CF00300#FF0050FF06FFFFFF
(1547753926.291047) can0 0CEFFF00#6406787DFFFFFFFF
(1547753926.291622) can0 18EFFF00#64100101EB02037D
(1547753926.292195) can0 18FEDF00#8B201CFFFFFFFFFF
(1547753926.300426) can0 0CF00400#F0FFB9B81CFFFFFF
(1547753926.310377) can0 0CF00300#FF004EFF06FFFFFF
(1547753926.310948) can0 0CEFFF00#64067B7DFFFFFFFF
(1547753926.311523) can0 18FEEF00#FFFFFF64FFFFFFFA
(1547753926.320425) can0 0CF00400#F0FFBB021DFFFFFF
(1547753926.330799) can0 0CF00300#FF003FFF06FFFFFF
(1547753926.331328) can0 0CEFFF00#6406697DFFFFFFFF
(1547753926.340450) can0 0CF00400#F0FFB47A1DFFFFFF
(1547753926.350425) can0 0CF00300#FF002EFF06FFFFFF
(1547753926.350999) can0 0CEFFF00#6406437DFFFFFFFF
(1547753926.351579) can0 18FEF200#2E00FFFFFFFFFFFF
(1547753926.360452) can0 0CF00400#F0FFA5C01DFFFFFF
(1547753926.370478) can0 0CF00300#FF0023FF06FFFFFF
(1547753926.371052) can0 0CEFFF00#64062C7DFFFFFFFF
(1547753926.371567) can0 18EF0600#640ED506FFFFFFFF
(1547753926.380401) can0 0CF00400#F0FF9D0E1EFFFFFF
(1547753926.390401) can0 0CF00300#FF0014FF06FFFFFF
(1547753926.390976) can0 0CEFFF00#64060F7DFFFFFFFF
(1547753926.391550) can0 18EFFF00#64100101FB02067D
(1547753926.392124) can0 18FEF600#FF003DFF00FFFFFF
(1547753926.400379) can0 0CF00400#F0FF91361EFFFFFF
(1547753926.410357) can0 18EFFA00#6401FF0000FFFFFF
(1547753926.410927) can0 0CEFFF00#6406F97CFFFFFFFF
(1547753926.411527) can0 0CF00300#FF000CFF06FFFFFF
(1547753926.415331) can0 0DEF0603#0101FFFFFFFFFFF5
(1547753926.420373) can0 0CF00400#F1FF89381EFFFFFF
(1547753926.430357) can0 0CF00300#FF0000FF06FFFFFF
(1547753926.430904) can0 0CEFFF00#6406DA7CFFFFFFFF
(1547753926.435232) can0 0DEF0647#0104FFFFFFFFFFF1
(1547753926.435828) can0 0DEF0603#0101FFFFFFFFFFF5
(1547753926.436201) can0 18EAFF47#00EE00
(1547753926.436746) can0 0CFFFE06#5CFFFFFFFFFFFFFF
(1547753926.440406) can0 0CF00400#F1FF7D161EFFFFFF
(1547753926.445203) can0 18EEFF00#56F5290400000220
(1547753926.450407) can0 0CF00300#FF0000FF06FFFFFF
(1547753926.450954) can0 0CEFFF00#6406DA7CFFFFFFFF
(1547753926.451553) can0 18FEF200#0000FFFFFFFFFFFF
(1547753926.455331) can0 0DEF0603#0101FFFFFFFFFFF5
(1547753926.460409) can0 0CF00400#F1FF7DDA1DFFFFFF
(1547753926.470382) can0 0CF00300#FF000FFF06FFFFFF
(1547753926.470954) can0 0CEFFF00#6406DC7CFFFFFFFF
(1547753926.471528) can0 18EF0600#640EDF06FFFFFFFF
(1547753926.475309) can0 0DEF0603#0101FFFFFFFFFFF5
(1547753926.475902) can0 0CFE4947#FFFFFFFFFFFFFFFF
(1547753926.476483) can0 0CFE4347#FFFFFFFFFFFFFFFF
(1547753926.477131) can0 0CFE4447#0000FFFF3FFFFFFF
(1547753926.480435) can0 0CF00400#F1FF7E841DFFFFFF
(1547753926.490410) can0 0CF00300#FF0016FF06FFFFFF
(1547753926.490982) can0 0CEFFF00#6406FB7CFFFFFFFF
(1547753926.491556) can0 18EFFF00#64100101EC02057D
(1547753926.495334) can0 0DEF0603#0101FFFFFFFFFFF5
(1547753926.500459) can0 0CF00400#F1FF89181DFFFFFF
(1547753926.505480) can0 18EAFF17#00EE00
(1547753926.510358) can0 0CF00300#FF001CFF06FFFFFF
(1547753926.510956) can0 0CEFFF00#64060E7DFFFFFFFF
(1547753926.511534) can0 18FEEE00#5141FFFFFFFFFFFF
(1547753926.515331) can0 0DEF0603#0101FFFFFFFFFFF5
(1547753926.515907) can0 18FEF147#FF0000FFFFFFFFFF
(1547753926.516534) can0 18F00503#FFFFFFFFFFFFFFFF
(1547753926.520411) can0 0CF00400#F1FF91C41CFFFFFF
(1547753926.525582) can0 1CFFFF17#22FFFF3CFFFFFFFF
(1547753926.530383) can0 0CF00300#FF0020FF06FFFFFF
(1547753926.530957) can0 0CEFFF00#6406187DFFFFFFFF
(1547753926.535233) can0 0DEF0647#0104FFFFFFFFFFF1
(1547753926.535858) can0 0DEF0603#0101FFFFFFFFFFF5
(1547753926.540537) can0 0CF00400#F0FF94801CFFFFFF
(1547753926.541129) can0 18FEDF00#8B201CFFFFFFFFFF
(1547753926.545960) can0 18EEFF00#56F5290400000220
(1547753926.550462) can0 0CF00300#FF003BFF06FFFFFF
(1547753926.551032) can0 0CEFFF00#64064A7DFFFFFFFF
(1547753926.551633) can0 18FEF200#2F00FFFFFFFFFFFF
(1547753926.555359) can0 0DEF0603#0101FFFFFFFFFFF5
(1547753926.555960) can0 0CFE4947#FFFFFFFFFFFFFFFF
(1547753926.556559) can0 0CFE4347#FFFFFFFFFFFFFFFF
(1547753926.557158) can0 0CFE4447#0000FFFF3FFFFFFF
(1547753926.557759) can0 0CFFFE06#5CFFFFFFFFFFFFFF
(1547753926.560404) can0 0CF00400#F0FFA83E1CFFFFFF
(1547753926.570401) can0 0CF00300#FF003CFF06FFFFFF
(1547753926.571008) can0 0CEFFF00#6406517DFFFFFFFF
(1547753926.571584) can0 18EF0600#640EE906FFFFFFFF
(1547753926.575300) can0 0DEF0603#0101FFFFFFFFFFF5
(1547753926.580538) can0 0CF00400#F0FFAA321CFFFFFF
(1547753926.590529) can0 0CF00300#FF003CFF06FFFFFF
(1547753926.591126) can0 0CEFFF00#6406517DFFFFFFFF
(1547753926.591680) can0 18EFFF00#64100101DB02037D
(1547753926.592278) can0 18FEF700#FFFFFFFFFFFFED00
(1547753926.595329) can0 0DEF0603#0101FFFFFFFFFFF5
(1547753926.595905) can0 18FEF147#FF0000FFFFFFFFFF
(1547753926.596530) can0 18F00503#FFFFFFFFFFFFFFFF
(1547753926.600433) can0 0CF00400#F0FFAA2C1CFFFFFF
(1547753926.610382) can0 0CF00300#FF003BFF06FFFFFF
(1547753926.610952) can0 0CEFFF00#6406517DFFFFFFFF
(1547753926.615279) can0 0DEF0603#0101FFFFFFFFFFF5
(1547753926.620434) can0 0CF00400#F0FFAA4C1CFFFFFF
(1547753926.625509) can0 18EA0017#09FF00
(1547753926.630731) can0 0CF00300#FF0037FF06FFFFFF
(1547753926.631306) can0 0CEFFF00#64064D7DFFFFFFFF
(1547753926.635231) can0 0DEF0647#0104FFFFFFFFFFF1
(1547753926.635855) can0 0DEF0603#0101FFFFFFFFFFF5
(1547753926.636459) can0 0CFFFE06#5CFFFFFFFFFFFFFF
(1547753926.640435) can0 0CF00400#F0FFA9901CFFFFFF
(1547753926.645402) can0 18FF0900#454355FFFFFFFFFF
(1547753926.650436) can0 0CF00300#FF0033FF06FFFFFF
(1547753926.651006) can0 0CEFFF00#6406437DFFFFFFFF
(1547753926.651582) can0 18FEF200#2D00FFFFFFFFFFFF
(1547753926.655832) can0 0DEF0603#0101FFFFFFFFFFF5
(1547753926.656984) can0 0C000006#30FFFFFFF8FFFFFF
(1547753926.657536) can0 04EF0006#641510F00000930E
(1547753926.660459) can0 0CF00400#F0FFA5C41CFFFFFF
(1547753926.670459) can0 0CF00300#FF002EFF06FFFFFF
(1547753926.671035) can0 0CEFFF00#64063B7DFFFFFFFF
(1547753926.671586) can0 18EF0600#640EF300FFFFFFFF
(1547753926.675820) can0 0DEF0603#0101FFFFFFFFFFF5
(1547753926.677010) can0 04EF0006#641510F00000930E
(1547753926.677609) can0 0CFE4947#FFFFFFFFFFFFFFFF
(1547753926.678182) can0 18FFFB06#0005E1F8FFFFFFFF
(1547753926.678760) can0 0CFE4347#FFFFFFFFFFFFFFFF
(1547753926.679356) can0 0CFE4447#0000FFFF3FFFFFFF
(1547753926.679884) can0 0CFFFE06#5C271D271DFFFFFF
(1547753926.680490) can0 0CF00400#F0FFA2F41CFFFFFF
(1547753926.690412) can0 0CF00300#FF0028FF06FFFFFF
(1547753926.690984) can0 0CEFFF00#64062F7DFFFFFFFF
(1547753926.691527) can0 18EFFF00#64100101EA02057D
(1547753926.692107) can0 18FED500#FFFFFDFFFFFFFFFF
(1547753926.695837) can0 0DEF0603#0101FFFFFFFFFFF5
(1547753926.697008) can0 04EF0006#641510F00000930E
(1547753926.700461) can0 0CF00400#F0FF9D201DFFFFFF
(1547753926.710538) can0 0CF00300#FF0020FF06FFFFFF
(1547753926.711054) can0 0CEFFF00#6406227DFFFFFFFF
(1547753926.715839) can0 0DEF0603#0101FFFFFFFFFFF5
(1547753926.717036) can0 04EF0006#641510F00000930E
(1547753926.717608) can0 18FEF147#FF0000FFFFFFFFFF
(1547753926.718210) can0 18F00503#FFFFFFFFFFFFFFFF
(1547753926.720460) can0 0CF00400#F0FF98481DFFFFFF
(1547753926.730412) can0 0CF00300#FF0019FF06FFFFFF
(1547753926.730987) can0 0CEFFF00#6406147DFFFFFFFF
(1547753926.731560) can0 18FDB300#FFFF0029FFFFFFFF
(1547753926.735738) can0 0DEF0647#0104FFFFFFFFFFF1
(1547753926.736335) can0 0DEF0603#0101FFFFFFFFFFF5
(1547753926.737486) can0 04EF0006#641510F00000930E
(1547753926.740437) can0 0CF00400#F0FF93561DFFFFFF
(1547753926.750488) can0 0CF00300#FF0000FF06FFFFFF
(1547753926.751063) can0 0CEFFF00#64060C7DFFFFFFFF
(1547753926.751636) can0 18FEF200#1100FFFFFFFFFFFF
(1547753926.756114) can0 0DEF0603#0101FFFFFFFFFFF5
(1547753926.757310) can0 04EF0006#641510F00000930E
(1547753926.757890) can0 0CFE4947#FFFFFFFFFFFFFFFF
(1547753926.758489) can0 0CFFFF47#5DFFFFF3FFFFFFFF
(1547753926.759088) can0 0CFE4347#0000FFFF3FFFFFFF
(1547753926.759686) can0 0CFE4447#0000FFFF3FFFFFFF
(1547753926.760430) can0 0CF00400#FEFF90441DFFFFFF
(1547753926.770415) can0 0CF00300#FF0011FF06FFFFFF
(1547753926.770987) can0 0CEFFF00#6406E17CFFFFFFFF
(1547753926.771561) can0 18EF0600#640EFD00FFFFFFFF
(1547753926.776083) can0 0DEF0603#0101FFFFFFFFFFF5
(1547753926.777286) can0 04EF0006#641510F00000930E
(1547753926.780439) can0 0CF00400#FEFF7F161DFFFFFF
(1547753926.790413) can0 0CF00300#FF001CFF06FFFFFF
(1547753926.790990) can0 0CEFFF00#6406087DFFFFFFFF
(1547753926.791564) can0 18EFFF00#64100101E602057D
(1547753926.792135) can0 18FEDF00#8B8E1CFFFFFFFFFF
(1547753926.796116) can0 0DEF0603#0101FFFFFFFFFFF5
(1547753926.797288) can0 04EF0006#641510F00000930E
(1547753926.797864) can0 0CFFFE06#5C271D271DFFFFFF
(1547753926.798437) can0 18FEF147#FF0000FFFFFFFFFF
(1547753926.799038) can0 18FFFB06#00057DF8FFFFFFFF
(1547753926.799597) can0 18F00503#7DFFFFFFFFFFFFFF
(1547753926.800523) can0 0CF00400#FEFF8EBA1CFFFFFF
(1547753926.810439) can0 0CF00300#FF0027FF06FFFFFF
(1547753926.811013) can0 0CEFFF00#64061B7DFFFFFFFF
(1547753926.811590) can0 18FEEF00#FFFFFF64FFFFFFFA
(1547753926.816085) can0 0DEF0603#0101FFFFFFFFFFF5
(1547753926.817313) can0 04EF0006#641510F00000930E
(1547753926.820466) can0 0CF00400#FEFF965C1CFFFFFF
(1547753926.830440) can0 0CF00300#FF0030FF06FFFFFF
(1547753926.830992) can0 0CEFFF00#6406257DFFFFFFFF
(1547753926.835789) can0 0DEF0647#0104FFFFFFFFFFF1
(1547753926.836388) can0 0DEF0603#0101FFFFFFFFFFF5
(1547753926.837440) can0 04EF0006#641510F00000930E
(1547753926.838011) can0 18FFFF06#73FFFFFFFFFFFFFF
(1547753926.839089) can0 18EEFF47#4D74300400340220
(1547753926.839666) can0 18EEFF06#4D743004000E0020
(1547753926.840212) can0 18EEFF17#0C6E240400130220
(1547753926.840792) can0 0CF00400#F0FF99341CFFFFFF
(1547753926.841338) can0 18EEFF03#4D74300400030220
(1547753926.850491) can0 0CF00300#FF0032FF06FFFFFF
(1547753926.851027) can0 0CEFFF00#64063C7DFFFFFFFF
(1547753926.851600) can0 18FEF200#2900FFFFFFFFFFFF
(1547753926.856086) can0 0DEF0603#0101FFFFFFFFFFF5
(1547753926.857315) can0 04EF0006#641510F00000930E
(1547753926.860468) can0 0CF00400#F0FFA21A1CFFFFFF
(1547753926.870441) can0 0CF00300#FF0033FF06FFFFFF
(1547753926.871015) can0 0CEFFF00#64063F7DFFFFFFFF
(1547753926.871590) can0 18EF0600#640E0700FFFFFFFF
(1547753926.876143) can0 0DEF0603#0101FFFFFFFFFFF5
(1547753926.877368) can0 04EF0006#641510F00000930E
(1547753926.877881) can0 0CFE4947#FFFFFFFFFFFFFFFF
(1547753926.878479) can0 1CFDDF47#FCFFFFFFFFFFFFFF
(1547753926.879114) can0 0CFE4347#0000FFFF3FFFFFFF
(1547753926.879706) can0 0CFE4447#0000FFFF3FFFFFFF
(1547753926.880260) can0 0CFFFE06#5C271D271DFFFFFF
(1547753926.880800) can0 0CF00400#F0FFA31E1CFFFFFF
(1547753926.890644) can0 0CF00300#FF0031FF06FFFFFF
(1547753926.891217) can0 0CEFFF00#64063E7DFFFFFFFF
(1547753926.891761) can0 18EFFF00#64100101D902037D
(1547753926.892319) can0 18FEF600#FF003DFF00FFFFFF
(1547753926.896116) can0 0DEF0603#0101FFFFFFFFFFF5
(1547753926.897340) can0 04EF0006#641510F00000930E
(1547753926.900468) can0 0CF00400#F0FFA33C1CFFFFFF
(1547753926.910444) can0 0CF00300#FF002EFF06FFFFFF
(1547753926.911017) can0 0CEFFF00#6406397DFFFFFFFF
(1547753926.916123) can0 0DEF0603#0101FFFFFFFFFFF5
(1547753926.917318) can0 04EF0006#641510F00000930E
(1547753926.917894) can0 18FEF147#FF0000FFFFFFFFFF
(1547753926.918493) can0 18F00647#FFCFFFFFFFFFFFFF
(1547753926.919101) can0 18FFFB06#0005C0F8FFFFFFFF
(1547753926.919693) can0 18F00503#7DFFFFFFFFFFFFFF
(1547753926.920544) can0 0CF00400#F0FFA15E1CFFFFFF
(1547753926.930545) can0 0CF00300#FF002CFF06FFFFFF
(1547753926.931092) can0 0CEFFF00#6406347DFFFFFFFF
(1547753926.935795) can0 0DEF0647#0104FFFFFFFFFFF1
(1547753926.936392) can0 0DEF0603#0101FFFFFFFFFFF5
(1547753926.937470) can0 04EF0006#641511F0C618930E
(1547753926.940545) can0 0CF00400#F0FF9F7A1CFFFFFF
(1547753926.941142) can0 18FFFA00#022C0000180C0081
(1547753926.950447) can0 0CF00300#FF0024FF06FFFFFF
(1547753926.951047) can0 0CEFFF00#6406307DFFFFFFFF
(1547753926.951620) can0 18FEF200#2400FFFFFFFFFFFF
(1547753926.956120) can0 0DEF0603#0101FFFFFFFFFFF5
(1547753926.957320) can0 04EF0006#641512F02F19930E
(1547753926.957896) can0 0CFE4947#FFFFFFFFFFFFFFFF
(1547753926.958495) can0 0CFE4347#0000FFFF3FFFFFFF
(1547753926.959095) can0 0CFE4447#0000FFFF3FFFFFFF
(1547753926.960496) can0 0CF00400#F0FF9E961CFFFFFF
(1547753926.970489) can0 0CF00300#FF0022FF06FFFFFF
(1547753926.971056) can0 0CEFFF00#64062C7DFFFFFFFF
(1547753926.971644) can0 18EF0600#640E1100FFFFFFFF
(1547753926.972242) can0 18FEF500#C8FFFFFFFF39FFFF
(1547753926.976066) can0 0DEF0603#0101FFFFFFFFFFF5
(1547753926.977270) can0 04EF0006#641513F08B18930E
(1547753926.980721) can0 0CF00400#F0FF9CB41CFFFFFF
(1547753926.990473) can0 0CF00300#FF0020FF06FFFFFF
(1547753926.991049) can0 0CEFFF00#6406277DFFFFFFFF
(1547753926.991596) can0 18EFFF00#64100101E402057D
(1547753926.996126) can0 0DEF0603#0101FFFFFFFFFFF5
(1547753926.997322) can0 04EF0006#641514F03019930E
(1547753926.997899) can0 0CFFFE06#5C271D271DFFFFFF
(1547753926.998470) can0 18FEF147#FF0000FFFFFFFFFF
(1547753926.999073) can0 18F00503#7DFFFFFFFFFFFFFF
(1547753927.000497) can0 0CF00400#F0FF9AC61CFFFFFF
(1547753927.010450) can0 0CF00300#FF001FFF06FFFFFF
(1547753927.011048) can0 0CEFFF00#6406237DFFFFFFFF
(1547753927.011597) can0 18FE6900#CC244A27FFFF60FE
(1547753927.016125) can0 0DEF0603#0101FFFFFFFFFFF5
(1547753927.017322) can0 04EF0006#641515F0EB18930E
(1547753927.020547) can0 0CF00400#F0FF99C41CFFFFFF
(1547753927.025549) can0 18EA4717#09FF00
(1547753927.025923) can0 18EA0617#09FF00
(1547753927.026319) can0 18EA0317#09FF00
(1547753927.030421) can0 0CF00300#FF001EFF06FFFFFF
(1547753927.030998) can0 0CEFFF00#6406237DFFFFFFFF
(1547753927.035800) can0 0DEF0647#0104FFFFFFFFFFF1
(1547753927.036401) can0 0DEF0603#0101FFFFFFFFFFF5
(1547753927.037452) can0 04EF0006#641516F0EB18930E
(1547753927.038024) can0 18FF0947#434355FFFFFFFFFF
(1547753927.038599) can0 18FF0906#454943FFFFFFFFFF
(1547753927.039199) can0 18FF0903#505452FFFFFFFFFF
(1547753927.039800) can0 18FFFB06#0005A5F8FFFFFFFF
(1547753927.040472) can0 18FECA06#00FF00000000FFFF
(1547753927.041050) can0 0CF00400#F0FF99C81CFFFFFF
(1547753927.041624) can0 18FECA47#00FF00000000FFFF
(1547753927.042202) can0 18FEDF00#8B201CFFFFFFFFFF
(1547753927.042775) can0 18FECA03#00FF00000000FFFF
(1547753927.050418) can0 0CF00300#FF0005FF06FFFFFF
(1547753927.050992) can0 0CEFFF00#6406217DFFFFFFFF
(1547753927.051558) can0 18FEF200#1C00FFFFFFFFFFFF
(1547753927.056151) can0 0DEF0603#0101FFFFFFFFFFF5
(1547753927.057324) can0 04EF0006#641517F0F218930E
(1547753927.060553) can0 0CF00400#FEFF98C01CFFFFFF
(1547753927.070407) can0 0CF00300#FF0017FF06FFFFFF
(1547753927.071001) can0 0CEFFF00#64060B7DFFFFFFFF
(1547753927.071599) can0 18EF0600#640E1B00FFFFFFFF
(1547753927.076128) can0 0DEF0603#0101FFFFFFFFFFF5
(1547753927.077327) can0 04EF0006#641518F0EB18930E
(1547753927.077908) can0 0CFE4947#FFFFFFFFFFFFFFFF
(1547753927.078504) can0 0CFE4347#0000FFFF3FFFFFFF
(1547753927.079077) can0 0CFE4447#0000FFFF3FFFFFFF
(1547753927.079676) can0 0CFFFE06#5C271D271DFFFFFF
(1547753927.080520) can0 0CF00400#FEFF8FAC1CFFFFFF
(1547753927.090428) can0 0CF00300#FF001AFF06FFFFFF
(1547753927.091001) can0 0CEFFF00#6406147DFFFFFFFF
(1547753927.091578) can0 18EFFF00#64100101DF02057D
(1547753927.096129) can0 0DEF0603#0101FFFFFFFFFFF5
(1547753927.097328) can0 04EF0006#641519F0E818930E
(1547753927.100555) can0 0CF00400#FEFF938E1CFFFFFF
(1547753927.107053) can0 18FECA17#00FF00000000FFFF
(1547753927.110629) can0 0CF00300#FF001DFF06FFFFFF
(1547753927.111201) can0 0CEFFF00#64061A7DFFFFFFFF
(1547753927.116130) can0 0DEF0603#0101FFFFFFFFFFF5
(1547753927.117326) can0 04EF0006#64151AF03019930E
(1547753927.117904) can0 18FEF147#FF0000FFFFFFFFFF
(1547753927.118501) can0 18F00503#7DFFFFFFFFFFFFFF
(1547753927.120502) can0 0CF00400#FEFF95661CFFFFFF
(1547753927.130426) can0 0CF00300#FF001FFF06FFFFFF
(1547753927.131002) can0 0CEFFF00#6406237DFFFFFFFF
(1547753927.131578) can0 18FD7C00#F880F1F400CF03FD
(1547753927.135830) can0 0DEF0647#0104FFFFFFFFFFF1
(1547753927.136428) can0 0DEF0603#0101FFFFFFFFFFF5
(1547753927.137602) can0 04EF0006#64151BF07319930E
(1547753927.140473) can0 0CF00400#FEFF99461CFFFFFF
(1547753927.150482) can0 0CF00300#FF0021FF06FFFFFF
(1547753927.151054) can0 0CEFFF00#6406277DFFFFFFFF
(1547753927.151629) can0 18FEF200#1F00FFFFFFFFFFFF
(1547753927.155356) can0 18EAFF06#E5FE00
(1547753927.156329) can0 0DEF0603#0101FFFFFFFFFFF5
(1547753927.157554) can0 04EF0006#64151CF07319930E
(1547753927.158102) can0 0CFE4947#FFFFFFFFFFFFFFFF
(1547753927.158681) can0 18FFFB06#0005A4F8FFFFFFFF
(1547753927.159277) can0 0CFE4347#0000FFFF3FFFFFFF
(1547753927.159856) can0 18FEE706#CC0A0000FFFFFFFF
(1547753927.160429) can0 0CFE4447#0000FFFF3FFFFFFF
(1547753927.160979) can0 0CF00400#F0FF9A301CFFFFFF
(1547753927.170427) can0 0CF00300#FF0024FF06FFFFFF
(1547753927.171028) can0 0CEFFF00#64062F7DFFFFFFFF
(1547753927.171604) can0 18EF0600#640E2500FFFFFFFF
(1547753927.176256) can0 0DEF0603#0101FFFFFFFFFFF5
(1547753927.177457) can0 04EF0006#64151DF00719930E
(1547753927.180480) can0 0CF00400#F0FF9D2C1CFFFFFF
(1547753927.185707) can0 1CFFFF17#22FFFF3CFFFFFFFF
(1547753927.186108) can0 18EA0017#E5FE00
(1547753927.190558) can0 0CF00300#FF0024FF06FFFFFF
(1547753927.191103) can0 0CEFFF00#6406307DFFFFFFFF
(1547753927.191681) can0 18EFFF00#64100101D802037D
(1547753927.193029) can0 18FEE500#CC0A0000FFFFFFFF
(1547753927.193605) can0 18FEE500#CC0A0000FFFFFFFF
(1547753927.196282) can0 0DEF0603#0101FFFFFFFFFFF5
(1547753927.197481) can0 04EF0006#64151EF01119930E
(1547753927.198031) can0 0CFFFE06#5C271D271DFFFFFF
(1547753927.198606) can0 18FEF147#FF0000FFFFFFFFFF
(1547753927.199205) can0 18F00503#7DFFFFFFFFFFFFFF
(1547753927.200633) can0 0CF00400#F0FF9E2C1CFFFFFF
(1547753927.210508) can0 0CF00300#FF0024FF06FFFFFF
(1547753927.211057) can0 0CEFFF00#64062F7DFFFFFFFF
(1547753927.216259) can0 0DEF0603#0101FFFFFFFFFFF5
(1547753927.217458) can0 04EF0006#64151FF01119930E
(1547753927.220483) can0 0CF00400#F0FF9D321CFFFFFF
(1547753927.230458) can0 0CF00300#FF0023FF06FFFFFF
(1547753927.231032) can0 0CEFFF00#64062E7DFFFFFFFF
(1547753927.231631) can0 18FDB300#FFFF0029FFFFFFFF
(1547753927.232208) can0 1CEFFF00#64070000FFFFFFFF
(1547753927.235812) can0 0DEF0647#0104FFFFFFFFFFF1
(1547753927.236506) can0 0DEF0603#0101FFFFFFFFFFF5
(1547753927.237683) can0 04EF0006#641510F00719930E
(1547753927.240559) can0 0CF00400#F0FF9D4A1CFFFFFF
(1547753927.250510) can0 0CF00300#FF0021FF06FFFFFF
(1547753927.251083) can0 0CEFFF00#64062B7DFFFFFFFF
(1547753927.251661) can0 18FEF200#2000FFFFFFFFFFFF
(1547753927.256287) can0 0DEF0603#0101FFFFFFFFFFF5
(1547753927.257485) can0 04EF0006#641511F00B19930E
(1547753927.260484) can0 0CF00400#F0FF9C601CFFFFFF
(1547753927.270461) can0 0CF00300#FF0021FF06FFFFFF
(1547753927.271034) can0 0CEFFF00#6406287DFFFFFFFF
(1547753927.271610) can0 18EF0600#640E2F00FFFFFFFF
(1547753927.276205) can0 0DEF0603#0101FFFFFFFFFFF5
(1547753927.277459) can0 04EF0006#641512F07319930E
(1547753927.278035) can0 0CFE4947#FFFFFFFFFFFFFFFF
(1547753927.278610) can0 18FFFB06#0005ADF8FFFFFFFF
(1547753927.279209) can0 0CFFFF47#5DFFFFF3FFFFFFFF
(1547753927.279784) can0 0CFE4347#0000FFFF3FFFFFFF
(1547753927.280352) can0 0CFE4447#0000FFFF3FFFFFFF
(1547753927.280910) can0 0CF00400#F0FF9B601CFFFFFF
(1547753927.281508) can0 0CFFFE06#5C271D271DFFFFFF
(1547753927.290579) can0 0CF00300#FF0020FF06FFFFFF
(1547753927.291153) can0 0CEFFF00#6406277DFFFFFFFF
(1547753927.291761) can0 18EFFF00#64100101DB02057D
(1547753927.292283) can0 18FEDF00#8B201CFFFFFFFFFF
(1547753927.296236) can0 0DEF0603#0101FFFFFFFFFFF5
(1547753927.297426) can0 04EF0006#641513F07319930E
(1547753927.300489) can0 0CF00400#F0FF9A661CFFFFFF
(1547753927.310488) can0 0CF00300#FF0020FF06FFFFFF
(1547753927.311065) can0 0CEFFF00#6406267DFFFFFFFF
(1547753927.311637) can0 18FEEF00#FFFFFF64FFFFFFFA
(1547753927.316260) can0 0DEF0603#0101FFFFFFFFFFF5
(1547753927.317461) can0 04EF0006#641514F07319930E
(1547753927.318038) can0 18FEF147#FF0000FFFFFFFFFF
(1547753927.318661) can0 18FFFB06#001BFFFFFFFFFFFF
(1547753927.319261) can0 18F00503#7DFFFFFFFFFFFFFF
(1547753927.320560) can0 0CF00400#F0FF9A6A1CFFFFFF
(1547753927.330763) can0 0CF00300#FF0020FF06FFFFFF
(1547753927.331266) can0 0CEFFF00#6406257DFFFFFFFF
(1547753927.335812) can0 0DEF0647#0104FFFFFFFFFFF1
(1547753927.336437) can0 0DEF0603#0101FFFFFFFFFFF5
(1547753927.337611) can0 04EF0006#641515F0D018930E
(1547753927.340489) can0 0CF00400#F0FF99621CFFFFFF
(1547753927.350514) can0 0CF00300#FF0020FF06FFFFFF
(1547753927.351087) can0 0CEFFF00#6406267DFFFFFFFF
(1547753927.351663) can0 18FEF200#1F00FFFFFFFFFFFF
(1547753927.356288) can0 0DEF0603#0101FFFFFFFFFFF5
(1547753927.357407) can0 04EF0006#641516F07319930E
(1547753927.358066) can0 0CFE4947#FFFFFFFFFFFFFFFF
(1547753927.358638) can0 18FE6847#3CFFFFFFFFFFFFFF
(1547753927.359214) can0 0CFE4347#0000FFFF3FFFFFFF
(1547753927.359814) can0 18FFFF06#73FFFFFFFFFFFFFF
(1547753927.360354) can0 0CFE4447#0000FFFF3FFFFFFF
(1547753927.360896) can0 0CF00400#F0FF9A661CFFFFFF
(1547753927.370483) can0 0CF00300#FF001FFF06FFFFFF
(1547753927.371039) can0 0CEFFF00#6406257DFFFFFFFF
(1547753927.371635) can0 18EF0600#640E3900FFFFFFFF
(1547753927.376264) can0 0DEF0603#0101FFFFFFFFFFF5
(1547753927.377428) can0 04EF0006#641517F07319930E
(1547753927.380508) can0 0CF00400#F0FF996E1CFFFFFF
(1547753927.390401) can0 0CF00300#FF001FFF06FFFFFF
(1547753927.390973) can0 0CEFFF00#6406237DFFFFFFFF
(1547753927.391616) can0 18EFFF00#64100101DB02057D
(1547753927.392187) can0 18FEF600#FF003DFF00FFFFFF
(1547753927.396292) can0 0DEF0603#0101FFFFFFFFFFF5
(1547753927.397464) can0 04EF0006#641518F0D018930E
(1547753927.398042) can0 0CFFFF47#5EFFFFFFFFFFFFFF
(1547753927.398640) can0 18FEF147#FF0000FFFFFFFFFF
(1547753927.399188) can0 0CFFFE06#5C271D271DFFFFFF
(1547753927.399767) can0 18FEFC47#FFFFFFFFFFFFFFFF
(1547753927.400364) can0 18EF0047#F220610FFFFFFFFF
(1547753927.400873) can0 0CF00400#F0FF99681CFFFFFF
(1547753927.401463) can0 18F00647#FFCFFFFFFFFFFFFF
(1547753927.402052) can0 1CFDDF47#FCFFFFFFFFFFFFFF
(1547753927.402676) can0 18FFFB06#0005A4F8FFFFFFFF
(1547753927.403314) can0 18F00503#7DFFFFFFFFFFFFFF
(1547753927.410566) can0 18EFFA00#6401FF0000FFFFFF
(1547753927.411086) can0 0CEFFF00#6406237DFFFFFFFF
(1547753927.411690) can0 0CF00300#FF001FFF06FFFFFF
(1547753927.416266) can0 0DEF0603#0101FFFFFFFFFFF5
(1547753927.417468) can0 04EF0006#641519F0C118930E
(1547753927.420617) can0 0CF00400#F0FF995E1CFFFFFF
(1547753927.430444) can0 0CF00300#FF0020FF06FFFFFF
(1547753927.431017) can0 0CEFFF00#6406247DFFFFFFFF
(1547753927.435841) can0 0DEF0647#0104FFFFFFFFFFF1
(1547753927.436441) can0 0DEF0603#0101FFFFFFFFFFF5
(1547753927.437616) can0 04EF0006#64151AF0C618930E
(1547753927.440492) can0 0CF00400#F0FF99581CFFFFFF
(1547753927.450495) can0 0CF00300#FF0020FF06FFFFFF
(1547753927.451066) can0 0CEFFF00#6406247DFFFFFFFF
(1547753927.451642) can0 18FEF200#1E00FFFFFFFFFFFF
(1547753927.456292) can0 0DEF0603#0101FFFFFFFFFFF5
(1547753927.457469) can0 04EF0006#64151BF0C618930E
(1547753927.460568) can0 0CF00400#F0FF994C1CFFFFFF
(1547753927.470496) can0 0CF00300#FF0021FF06FFFFFF
(1547753927.471039) can0 0CEFFF00#6406267DFFFFFFFF
(1547753927.471642) can0 18EF0600#640E4300FFFFFFFF
(1547753927.476294) can0 0DEF0603#0101FFFFFFFFFFF5
(1547753927.477495) can0 04EF0006#64151CF00B19930E
(1547753927.478072) can0 0CFE4947#FFFFFFFFFFFFFFFF
(1547753927.478669) can0 0CFE4347#0000FFFF3FFFFFFF
(1547753927.479267) can0 0CFE4447#0000FFFF3FFFFFFF
(1547753927.479843) can0 0CFFFE06#5C271D271DFFFFFF
(1547753927.480536) can0 0CF00400#F0FF9A3E1CFFFFFF
(1547753927.490495) can0 0CF00300#FF0021FF06FFFFFF
(1547753927.491069) can0 0CEFFF00#6406277DFFFFFFFF
(1547753927.491645) can0 18EFFF00#64100101D702057D
(1547753927.496258) can0 0DEF0603#0101FFFFFFFFFFF5
(1547753927.497497) can0 04EF0006#64151DF0CC18930E
(1547753927.500597) can0 0CF00400#F0FF9A421CFFFFFF
(1547753927.510574) can0 0CF00300#FF0020FF06FFFFFF
(1547753927.511118) can0 0CEFFF00#6406267DFFFFFFFF
(1547753927.511697) can0 18FEEE00#5141FFFFFFFFFFFF
(1547753927.516296) can0 0DEF0603#0101FFFFFFFFFFF5
(1547753927.517493) can0 04EF0006#64151EF07319930E
(1547753927.518073) can0 18FEF147#FF0000FFFFFFFFFF
(1547753927.518671) can0 18FFFB06#0005A7F8FFFFFFFF
(1547753927.519270) can0 18F00503#7DFFFFFFFFFFFFFF
(1547753927.520570) can0 0CF00400#F0FF9A461CFFFFFF
(1547753927.530495) can0 0CF00300#FF0020FF06FFFFFF
(1547753927.531071) can0 0CEFFF00#6406267DFFFFFFFF
(1547753927.535848) can0 0DEF0647#0104FFFFFFFFFFF1
(1547753927.536445) can0 0DEF0603#0101FFFFFFFFFFF5
(1547753927.537623) can0 04EF0006#64151FF07319930E
(1547753927.540523) can0 0CF00400#F0FF9A381CFFFFFF
(1547753927.541097) can0 18FEDF00#8B201CFFFFFFFFFF
(1547753927.550675) can0 0CF00300#FF0021FF06FFFFFF
(1547753927.551245) can0 0CEFFF00#6406277DFFFFFFFF
(1547753927.551822) can0 18FEF200#1F00FFFFFFFFFFFF
(1547753927.556298) can0 0DEF0603#0101FFFFFFFFFFF5
(1547753927.557496) can0 04EF0006#641510F0D018930E
(1547753927.558074) can0 0CFE4947#FFFFFFFFFFFFFFFF
(1547753927.558671) can0 0CFE4347#0000FFFF3FFFFFFF
(1547753927.559272) can0 0CFE4447#0000FFFF3FFFFFFF
(1547753927.560571) can0 0CF00400#F0FF9A321CFFFFFF
(1547753927.570499) can0 0CF00300#FF0021FF06FFFFFF
(1547753927.571074) can0 0CEFFF00#6406287DFFFFFFFF
(1547753927.571651) can0 18EF0600#640E4D00FFFFFFFF
(1547753927.576301) can0 0DEF0603#0101FFFFFFFFFFF5
(1547753927.577443) can0 04EF0006#641511F00719930E
(1547753927.580527) can0 0CF00400#F0FF9B341CFFFFFF
(1547753927.590623) can0 0CF00300#FF0021FF06FFFFFF
(1547753927.591198) can0 0CEFFF00#6406277DFFFFFFFF
(1547753927.591751) can0 18EFFF00#64100101D602057D
(1547753927.592346) can0 18FEF700#FFFFFFFFFFFFF800
(1547753927.596298) can0 0DEF0603#0101FFFFFFFFFFF5
(1547753927.597498) can0 04EF0006#641512F00719930E
(1547753927.598049) can0 0CFFFE06#5C271D271DFFFFFF
(1547753927.598624) can0 18FEF147#FF0000FFFFFFFFFF
(1547753927.599222) can0 18F00503#7DFFFFFFFFFFFFFF
(1547753927.600618) can0 0CF00400#F0FF9A2A1CFFFFFF
(1547753927.610499) can0 0CF00300#FF0022FF06FFFFFF
(1547753927.611074) can0 0CEFFF00#6406287DFFFFFFFF
(1547753927.616303) can0 0DEF0603#0101FFFFFFFFFFF5
(1547753927.617498) can0 04EF0006#641513F01119930E
(1547753927.620499) can0 0CF00400#F0FF9B2A1CFFFFFF
(1547753927.630396) can0 0CF00300#FF0021FF06FFFFFF
(1547753927.630962) can0 0CEFFF00#6406287DFFFFFFFF
(1547753927.635851) can0 0DEF0647#0104FFFFFFFFFFF1
(1547753927.636448) can0 0DEF0603#0101FFFFFFFFFFF5
(1547753927.637624) can0 04EF0006#641514F01119930E
(1547753927.638179) can0 18FFFB06#0005A9F8FFFFFFFF
(1547753927.640775) can0 0CF00400#F0FF9B321CFFFFFF
(1547753927.650526) can0 0CF00300#FF0021FF06FFFFFF
(1547753927.651100) can0 0CEFFF00#6406277DFFFFFFFF
(1547753927.651702) can0 18FEF200#1F00FFFFFFFFFFFF
(1547753927.656304) can0 0DEF0603#0101FFFFFFFFFFF5
(1547753927.657477) can0 0C000006#30FFFFFFF8FFFFFF
(1547753927.658000) can0 04EF0006#641515F00719930E
(1547753927.660526) can0 0CF00400#F0FF9A341CFFFFFF
(1547753927.670479) can0 0CF00300#FF0021FF06FFFFFF
(1547753927.671051) can0 0CEFFF00#6406277DFFFFFFFF
(1547753927.671627) can0 18EF0600#640E5700FFFFFFFF
(1547753927.676305) can0 0DEF0603#0101FFFFFFFFFFF5
(1547753927.677503) can0 04EF0006#641516F00719930E
(1547753927.678078) can0 0CFE4947#FFFFFFFFFFFFFFFF
(1547753927.678658) can0 0CFE4347#0000FFFF3FFFFFFF
(1547753927.679278) can0 0CFE4447#0000FFFF3FFFFFFF
(1547753927.679853) can0 0CFFFE06#5C271D271DFFFFFF
(1547753927.680595) can0 0CF00400#F0FF9A281CFFFFFF
(1547753927.690528) can0 0CF00300#FF0021FF06FFFFFF
(1547753927.691103) can0 0CEFFF00#6406287DFFFFFFFF
(1547753927.691677) can0 18EFFF00#64100101D402057D
(1547753927.692220) can0 18FED500#FFFFFDFFFFFFFFFF
(1547753927.696273) can0 0DEF0603#0101FFFFFFFFFFF5
(1547753927.697503) can0 04EF0006#641517F01119930E
(1547753927.700503) can0 0CF00400#F0FF9B241CFFFFFF
(1547753927.710478) can0 0CF00300#FF0021FF06FFFFFF
(1547753927.711080) can0 0CEFFF00#6406297DFFFFFFFF
(1547753927.716306) can0 0DEF0603#0101FFFFFFFFFFF5
(1547753927.717481) can0 04EF0006#641518F00B19930E
(1547753927.718055) can0 18FEF147#FF0000FFFFFFFFFF
(1547753927.718681) can0 18F00503#7DFFFFFFFFFFFFFF
(1547753927.720630) can0 0CF00400#F0FF9B221CFFFFFF
(1547753927.730633) can0 0CF00300#FF0022FF06FFFFFF
(1547753927.731203) can0 0CEFFF00#6406297DFFFFFFFF
(1547753927.731781) can0 18FDB300#FFFF0C29FFFFFFFF
(1547753927.735857) can0 0DEF0647#0104FFFFFFFFFFF1
(1547753927.736528) can0 0DEF0603#0101FFFFFFFFFFF5
(1547753927.737731) can0 04EF0006#641519F00B19930E
(1547753927.740529) can0 0CF00400#F0FF9B161CFFFFFF
(1547753927.750507) can0 0CF00300#FF0022FF06FFFFFF
(1547753927.751084) can0 0CEFFF00#64062B7DFFFFFFFF
(1547753927.751655) can0 18FEF200#2000FFFFFFFFFFFF
(1547753927.756333) can0 0DEF0603#0101FFFFFFFFFFF5
(1547753927.757579) can0 04EF0006#64151AF00919930E
(1547753927.758130) can0 0CFE4947#FFFFFFFFFFFFFFFF
(1547753927.758705) can0 18FFFB06#0005A9F8FFFFFFFF
(1547753927.759303) can0 0CFFFF47#5DFFFFF3FFFFFFFF
(1547753927.759856) can0 0CFE4347#0000FFFF3FFFFFFF
(1547753927.760439) can0 0CFE4447#0000FFFF3FFFFFFF
(1547753927.761056) can0 0CF00400#F0FF9B1C1CFFFFFF
(1547753927.770532) can0 0CF00300#FF0022FF06FFFFFF
(1547753927.771081) can0 0CEFFF00#64062B7DFFFFFFFF
(1547753927.771624) can0 18EF0600#640E6100FFFFFFFF
(1547753927.776301) can0 0DEF0603#0101FFFFFFFFFFF5
(1547753927.777580) can0 04EF0006#64151BF00419930E
(1547753927.780583) can0 0CF00400#F0FF9B261CFFFFFF
(1547753927.790481) can0 0CF00300#FF0021FF06FFFFFF
(1547753927.791055) can0 0CEFFF00#6406287DFFFFFFFF
(1547753927.791631) can0 18EFFF00#64100101D402057D
(1547753927.792205) can0 18FEDF00#8A201CFFFFFFFFFF
(1547753927.796309) can0 0DEF0603#0101FFFFFFFFFFF5
(1547753927.797508) can0 04EF0006#64151CF00B19930E
(1547753927.798056) can0 0CFFFE06#5C271D271DFFFFFF
(1547753927.798657) can0 18FEF147#FF0000FFFFFFFFFF
(1547753927.799232) can0 18F00503#7DFFFFFFFFFFFFFF
(1547753927.800550) can0 0CF00400#F0FF9B1E1CFFFFFF
(1547753927.810507) can0 0CF00300#FF0022FF06FFFFFF
(1547753927.811107) can0 0CEFFF00#64062A7DFFFFFFFF
(1547753927.811684) can0 18FEEF00#FFFFFF64FFFFFFFA
(1547753927.816336) can0 0DEF0603#0101FFFFFFFFFFF5
(1547753927.817581) can0 04EF0006#64151DF00419930E
(1547753927.820564) can0 0CF00400#F0FF9B181CFFFFFF
(1547753927.830485) can0 0CF00300#FF0022FF06FFFFFF
(1547753927.831058) can0 0CEFFF00#64062B7DFFFFFFFF
(1547753927.835886) can0 0DEF0647#0104FFFFFFFFFFF1
(1547753927.836485) can0 0DEF0603#0101FFFFFFFFFFF5
(1547753927.837710) can0 04EF0006#64151EF00419930E
(1547753927.838285) can0 18FFFF06#73FFFFFFFFFFFFFF
(1547753927.840510) can0 0CF00400#F0FF9B161CFFFFFF
(1547753927.850534) can0 0CF00300#FF0022FF06FFFFFF
(1547753927.851110) can0 0CEFFF00#64062C7DFFFFFFFF
(1547753927.851684) can0 18FEF200#2000FFFFFFFFFFFF
(1547753927.856340) can0 0DEF0603#0101FFFFFFFFFFF5
(1547753927.857585) can0 04EF0006#64151FF00919930E
(1547753927.860614) can0 0CF00400#F0FF9C121CFFFFFF
(1547753927.865710) can0 1CFFFF17#22FFFF3CFFFFFFFF
(1547753927.870513) can0 0CF00300#FF0023FF06FFFFFF
(1547753927.871110) can0 0CEFFF00#64062C7DFFFFFFFF
(1547753927.871686) can0 18EF0600#640E6B00FFFFFFFF
(1547753927.876337) can0 0DEF0603#0101FFFFFFFFFFF5
(1547753927.877584) can0 04EF0006#641510F00919930E
(1547753927.878137) can0 0CFE4947#FFFFFFFFFFFFFFFF
(1547753927.878712) can0 1CFDDF47#FCFFFFFFFFFFFFFF
(1547753927.879284) can0 0CFE4347#0000FFFF3FFFFFFF
(1547753927.879885) can0 18FFFB06#0005AFF8FFFFFFFF
(1547753927.880429) can0 0CFE4447#0000FFFF3FFFFFFF
(1547753927.880955) can0 0CF00400#F0FF9C081CFFFFFF
(1547753927.881524) can0 0CFFFE06#5C271D271DFFFFFF
(1547753927.890481) can0 0CF00300#FF0023FF06FFFFFF
(1547753927.891041) can0 0CEFFF00#64062E7DFFFFFFFF
(1547753927.891661) can0 18EFFF00#64100101D202057D
(1547753927.892206) can0 18FEF600#FF003CFF00FFFFFF
(1547753927.896309) can0 0DEF0603#0101FFFFFFFFFFF5
(1547753927.897559) can0 04EF0006#641511F00219930E
(1547753927.900638) can0 0CF00400#F0FF9D101CFFFFFF
(1547753927.910638) can0 0CF00300#FF0023FF06FFFFFF
(1547753927.911211) can0 0CEFFF00#64062D7DFFFFFFFF
(1547753927.916341) can0 0DEF0603#0101FFFFFFFFFFF5
(1547753927.917588) can0 04EF0006#641512F00919930E
(1547753927.918136) can0 18FEF147#FF0000FFFFFFFFFF
(1547753927.918737) can0 18F00647#FFCFFFFFFFFFFFFF
(1547753927.919311) can0 18F00503#7DFFFFFFFFFFFFFF
(1547753927.920588) can0 0CF00400#F0FF9C161CFFFFFF
(1547753927.930519) can0 0CF00300#FF0023FF06FFFFFF
(1547753927.931089) can0 0CEFFF00#64062C7DFFFFFFFF
(1547753927.935865) can0 0DEF0647#0104FFFFFFFFFFF1
(1547753927.936488) can0 0DEF0603#0101FFFFFFFFFFF5
(1547753927.937687) can0 04EF0006#641513F00919930E
(1547753927.940544) can0 0CF00400#F0FF9C0C1CFFFFFF
(1547753927.941139) can0 18FFFA00#022C0000180C0081
(1547753927.950768) can0 0CF00300#FF0023FF06FFFFFF
(1547753927.951338) can0 0CEFFF00#64062D7DFFFFFFFF
(1547753927.951915) can0 18FEF200#2100FFFFFFFFFFFF
(1547753927.956343) can0 0DEF0603#0101FFFFFFFFFFF5
(1547753927.957592) can0 04EF0006#641514F00219930E
(1547753927.958165) can0 0CFE4947#FFFFFFFFFFFFFFFF
(1547753927.958740) can0 0CFE4347#0000FFFF3FFFFFFF
(1547753927.959339) can0 0CFE4447#0000FFFF3FFFFFFF
(1547753927.960590) can0 0CF00400#F0FF9C0A1CFFFFFF
(1547753927.970518) can0 0CF00300#FF0023FF06FFFFFF
(1547753927.971089) can0 0CEFFF00#64062E7DFFFFFFFF
(1547753927.971665) can0 18EF0600#640E7500FFFFFFFF
(1547753927.972239) can0 18FEF500#C8FFFFFFFF39FFFF
(1547753927.976294) can0 0DEF0603#0101FFFFFFFFFFF5
(1547753927.977538) can0 04EF0006#641515F00219930E
(1547753927.980489) can0 0CF00400#F0FF9D0A1CFFFFFF
(1547753927.990540) can0 0CF00300#FF0024FF06FFFFFF
(1547753927.991112) can0 0CEFFF00#64062E7DFFFFFFFF
(1547753927.991689) can0 18EFFF00#64100101D202057D
(1547753927.996290) can0 0DEF0603#0101FFFFFFFFFFF5
(1547753927.997538) can0 04EF0006#641516F00219930E
(1547753927.998062) can0 0CFFFE06#5C271D271DFFFFFF
(1547753927.998640) can0 18FEF147#FF0000FFFFFFFFFF
(1547753927.999263) can0 18FFFB06#0005B2F8FFFFFFFF
(1547753927.999839) can0 18F00503#7DFFFFFFFFFFFFFF
(1547753928.000660) can0 0CF00400#F0FF9D021CFFFFFF
(1547753928.010490) can0 0CF00300#FF0024FF06FFFFFF
(1547753928.011065) can0 0CEFFF00#64062F7DFFFFFFFF
(1547753928.011614) can0 18FE6900#B8244C27FFFF60FE
(1547753928.016287) can0 0DEF0603#0101FFFFFFFFFFF5
(1547753928.017540) can0 04EF0006#641517F01319930E
(1547753928.020491) can0 0CF00400#F0FF9D001CFFFFFF
(1547753928.030416) can0 0CF00300#FF0024FF06FFFFFF
(1547753928.030991) can0 0CEFFF00#6406307DFFFFFFFF
(1547753928.035842) can0 0DEF0647#0104FFFFFFFFFFF1
(1547753928.036439) can0 0DEF0603#0101FFFFFFFFFFF5
(1547753928.037641) can0 04EF0006#641518F01319930E
(1547753928.040742) can0 0CF00400#F0FF9D0A1CFFFFFF
(1547753928.041339) can0 18FEDF00#8A201CFFFFFFFFFF
(1547753928.050542) can0 0CF00300#FF0024FF06FFFFFF
(1547753928.051089) can0 0CEFFF00#64062E7DFFFFFFFF
(1547753928.051667) can0 18FEF200#2100FFFFFFFFFFFF
(1547753928.056293) can0 0DEF0603#0101FFFFFFFFFFF5
(1547753928.057541) can0 04EF0006#641519F00219930E
(1547753928.060493) can0 0CF00400#F0FF9D0C1CFFFFFF
(1547753928.070469) can0 0CF00300#FF0024FF06FFFFFF
(1547753928.071042) can0 0CEFFF00#64062E7DFFFFFFFF
(1547753928.071642) can0 18EF0600#640E7F00FFFFFFFF
(1547753928.076294) can0 0DEF0603#0101FFFFFFFFFFF5
(1547753928.077542) can0 04EF0006#64151AF00219930E
(1547753928.078091) can0 0CFE4947#FFFFFFFFFFFFFFFF
(1547753928.078693) can0 0CFE4347#0000FFFF3FFFFFFF
(1547753928.079291) can0 0CFE4447#0000FFFF3FFFFFFF
(1547753928.079868) can0 0CFFFE06#5C271D271DFFFFFF
(1547753928.080588) can0 0CF00400#F0FF9D041CFFFFFF
(1547753928.090568) can0 0CF00300#FF0024FF06FFFFFF
(1547753928.091141) can0 0CEFFF00#6406307DFFFFFFFF
(1547753928.091718) can0 18EFFF00#64100101D202057D
(1547753928.096290) can0 0DEF0603#0101FFFFFFFFFFF5
(1547753928.097543) can0 04EF0006#64151BF01319930E
(1547753928.100494) can0 0CF00400#F0FF9D041CFFFFFF
(1547753928.110470) can0 0CF00300#FF0024FF06FFFFFF
(1547753928.111044) can0 0CEFFF00#6406307DFFFFFFFF
(1547753928.116296) can0 0DEF0603#0101FFFFFFFFFFF5
(1547753928.117544) can0 04EF0006#64151CF01319930E
(1547753928.118093) can0 18FEF147#FF0000FFFFFFFFFF
(1547753928.118694) can0 18FFFB06#0005B1F8FFFFFFFF
(1547753928.119293) can0 18F00503#7DFFFFFFFFFFFFFF
(1547753928.120644) can0 0CF00400#F0FF9D041CFFFFFF
(1547753928.130696) can0 0CF00300#FF0025FF06FFFFFF
(1547753928.131268) can0 0CEFFF00#6406307DFFFFFFFF
(1547753928.131834) can0 18FD7C00#F880F1F000CF03FD
(1547753928.135872) can0 0DEF0647#0104FFFFFFFFFFF1
(1547753928.136468) can0 0DEF0603#0101FFFFFFFFFFF5
(1547753928.137670) can0 04EF0006#64151DF01319930E
(1547753928.140496) can0 0CF00400#F0FF9DFA1BFFFFFF
(1547753928.150497) can0 0CF00300#FF0025FF06FFFFFF
(1547753928.151071) can0 0CEFFF00#6406327DFFFFFFFF
(1547753928.151671) can0 18FEF200#2300FFFFFFFFFFFF
(1547753928.156297) can0 0DEF0603#0101FFFFFFFFFFF5
(1547753928.157545) can0 04EF0006#64151EF00C19930E
(1547753928.158095) can0 0CFE4947#FFFFFFFFFFFFFFFF
(1547753928.158696) can0 0CFE4347#0000FFFF3FFFFFFF
(1547753928.159294) can0 0CFE4447#0000FFFF3FFFFFFF
(1547753928.160546) can0 0CF00400#F0FF9EFE1BFFFFFF
(1547753928.170498) can0 0CF00300#FF0025FF06FFFFFF
(1547753928.171072) can0 0CEFFF00#6406317DFFFFFFFF
(1547753928.171647) can0 18EF0600#640E8900FFFFFFFF
(1547753928.175397) can0 18EAFF06#E5FE00
(1547753928.176371) can0 0DEF0603#0101FFFFFFFFFFF5
(1547753928.177596) can0 04EF0006#64151FF00C19930E
(1547753928.180547) can0 0CF00400#F0FF9E081CFFFFFF
(1547753928.190549) can0 0CF00300#FF0025FF06FFFFFF
(1547753928.191096) can0 0CEFFF00#6406307DFFFFFFFF
(1547753928.191672) can0 18EFFF00#64100101D202057D
(1547753928.192948) can0 18FEE500#CC0A0000FFFFFFFF
(1547753928.196298) can0 0DEF0603#0101FFFFFFFFFFF5
(1547753928.197547) can0 04EF0006#641510F00219930E
(1547753928.198097) can0 0CFFFE06#5C271D271DFFFFFF
(1547753928.198648) can0 18FEF147#FF0000FFFFFFFFFF
(1547753928.199271) can0 18FEE706#CC0A0000FFFFFFFF
(1547753928.199848) can0 18F00503#7DFFFFFFFFFFFFFF
(1547753928.200548) can0 0CF00400#F0FF9D061CFFFFFF
(1547753928.210575) can0 0CF00300#FF0025FF06FFFFFF
(1547753928.211147) can0 0CEFFF00#6406317DFFFFFFFF
(1547753928.216299) can0 0DEF0603#0101FFFFFFFFFFF5
(1547753928.217548) can0 04EF0006#641511F01319930E
(1547753928.220649) can0 0CF00400#F0FF9E021CFFFFFF
(1547753928.230476) can0 0CF00300#FF0025FF06FFFFFF
(1547753928.231049) can0 0CEFFF00#6406317DFFFFFFFF
(1547753928.231625) can0 18FDB300#FFFF0C29FFFFFFFF
(1547753928.232198) can0 1CEFFF00#64070000FFFFFFFF
(1547753928.235850) can0 0DEF0647#0104FFFFFFFFFFF1
(1547753928.236549) can0 0DEF0603#0101FFFFFFFFFFF5
(1547753928.237774) can0 04EF0006#641512F01319930E
(1547753928.238348) can0 18FFFB06#0005B4F8FFFFFFFF
(1547753928.240550) can0 0CF00400#F0FF9E061CFFFFFF
(1547753928.250551) can0 0CF00300#FF0025FF06FFFFFF
(1547753928.251098) can0 0CEFFF00#6406317DFFFFFFFF
(1547753928.251701) can0 18FEF200#2300FFFFFFFFFFFF
(1547753928.256326) can0 0DEF0603#0101FFFFFFFFFFF5
(1547753928.257550) can0 04EF0006#641513F01319930E
(1547753928.260551) can0 0CF00400#F0FF9E021CFFFFFF
(1547753928.270552) can0 0CF00300#FF0025FF06FFFFFF
(1547753928.271099) can0 0CEFFF00#6406327DFFFFFFFF
(1547753928.271651) can0 18EF0600#640E9300FFFFFFFF
(1547753928.276327) can0 0DEF0603#0101FFFFFFFFFFF5
(1547753928.277551) can0 04EF0006#641514F01319930E
(1547753928.278126) can0 0CFE4947#FFFFFFFFFFFFFFFF
(1547753928.278702) can0 0CFFFF47#5DFFFFF3FFFFFFFF
(1547753928.279301) can0 0CFE4347#0000FFFF3FFFFFFF
(1547753928.279902) can0 0CFE4447#0000FFFF3FFFFFFF
(1547753928.280470) can0 0CFFFE06#5C271D271DFFFFFF
(1547753928.281051) can0 0CF00400#F0FF9EFC1BFFFFFF
(1547753928.290503) can0 0CF00300#FF0026FF06FFFFFF
(1547753928.291077) can0 0CEFFF00#6406337DFFFFFFFF
(1547753928.291627) can0 18EFFF00#64100101D202057D
(1547753928.292225) can0 18FEDF00#8A201CFFFFFFFFFF
(1547753928.296302) can0 0DEF0603#0101FFFFFFFFFFF5
(1547753928.297551) can0 04EF0006#641515F00C19930E
(1547753928.300553) can0 0CF00400#F0FF9E061CFFFFFF
(1547753928.310603) can0 0CF00300#FF0025FF06FFFFFF
(1547753928.311176) can0 0CEFFF00#6406327DFFFFFFFF
(1547753928.311753) can0 18FEEF00#FFFFFF64FFFFFFFA
(1547753928.316303) can0 0DEF0603#0101FFFFFFFFFFF5
(1547753928.317553) can0 04EF0006#641516F01319930E
(1547753928.318102) can0 18FEF147#FF0000FFFFFFFFFF
(1547753928.318728) can0 18FFFB06#001BFFFFFFFFFFFF
(1547753928.319327) can0 18F00503#7DFFFFFFFFFFFFFF
(1547753928.320553) can0 0CF00400#F0FF9E121CFFFFFF
(1547753928.330480) can0 0CF00300#FF0025FF06FFFFFF
(1547753928.331053) can0 0CEFFF00#6406307DFFFFFFFF
(1547753928.335854) can0 0DEF0647#0104FFFFFFFFFFF1
(1547753928.336452) can0 0DEF0603#0101FFFFFFFFFFF5
(1547753928.337678) can0 04EF0006#641517F00919930E
(1547753928.340505) can0 0CF00400#F0FF9D0E1CFFFFFF
(1547753928.350606) can0 0CF00300#FF0025FF06FFFFFF
(1547753928.351177) can0 0CEFFF00#6406317DFFFFFFFF
(1547753928.351755) can0 18FEF200#2300FFFFFFFFFFFF
(1547753928.356305) can0 0DEF0603#0101FFFFFFFFFFF5
(1547753928.357554) can0 04EF0006#641518F00219930E
(1547753928.358128) can0 0CFE4947#FFFFFFFFFFFFFFFF
(1547753928.358705) can0 18FE6847#3DFFFFFFFFFFFFFF
(1547753928.359279) can0 0CFE4347#0000FFFF3FFFFFFF
(1547753928.359880) can0 18FFFF06#73FFFFFFFFFFFFFF
(1547753928.360451) can0 0CFE4447#0000FFFF3FFFFFFF
(1547753928.361005) can0 0CF00400#F0FF9E101CFFFFFF
(1547753928.361605) can0 18FFFB06#0005B2F8FFFFFFFF
(1547753928.370482) can0 0CF00300#FF0025FF06FFFFFF
(1547753928.371080) can0 0CEFFF00#6406317DFFFFFFFF
(1547753928.371630) can0 18EF0600#640E9D00FFFFFFFF
(1547753928.376306) can0 0DEF0603#0101FFFFFFFFFFF5
(1547753928.377555) can0 04EF0006#641519F00919930E
(1547753928.380507) can0 0CF00400#F0FF9E181CFFFFFF
(1547753928.390508) can0 0CF00300#FF0024FF06FFFFFF
(1547753928.391082) can0 0CEFFF00#6406307DFFFFFFFF
(1547753928.391656) can0 18EFFF00#64100101D402057D
(1547753928.392229) can0 18FEF600#FF003CFF00FFFFFF
(1547753928.396307) can0 0DEF0603#0101FFFFFFFFFFF5
(1547753928.397557) can0 04EF0006#64151AF00419930E
(1547753928.398130) can0 0CFFFF47#5EFFFFFFFFFFFFFF
(1547753928.398707) can0 18FEF147#FF0000FFFFFFFFFF
(1547753928.399255) can0 0CFFFE06#5C271D271DFFFFFF
(1547753928.399828) can0 18FEFC47#FFFFFFFFFFFFFFFF
(1547753928.400425) can0 18EF0047#F220610FFFFFFFFF
(1547753928.400982) can0 0CF00400#F0FF9D161CFFFFFF
(1547753928.401557) can0 18F00647#FFCFFFFFFFFFFFFF
(1547753928.402151) can0 1CFDDF47#FCFFFFFFFFFFFFFF
(1547753928.402757) can0 18F00503#7DFFFFFFFFFFFFFF
(1547753928.410459) can0 18EFFA00#6401FF0000FFFFFF
(1547753928.411033) can0 0CEFFF00#6406307DFFFFFFFF
(1547753928.411609) can0 0CF00300#FF0025FF06FFFFFF
(1547753928.416307) can0 0DEF0603#0101FFFFFFFFFFF5
(1547753928.417557) can0 04EF0006#64151BF00919930E
(1547753928.420509) can0 0CF00400#F0FF9D1A1CFFFFFF
(1547753928.430484) can0 0CF00300#FF0024FF06FFFFFF
(1547753928.431058) can0 0CEFFF00#6406307DFFFFFFFF
(1547753928.435859) can0 0DEF0647#0104FFFFFFFFFFF1
(1547753928.436482) can0 0DEF0603#0101FFFFFFFFFFF5
(1547753928.437683) can0 04EF0006#64151CF00419930E
(1547753928.440784) can0 0CF00400#F0FF9D261CFFFFFF
(1547753928.450560) can0 0CF00300#FF0023FF06FFFFFF
(1547753928.451106) can0 0CEFFF00#64062D7DFFFFFFFF
(1547753928.451685) can0 18FEF200#2100FFFFFFFFFFFF
(1547753928.456311) can0 0DEF0603#0101FFFFFFFFFFF5
(1547753928.457509) can0 04EF0006#64151DF00B19930E
(1547753928.460560) can0 0CF00400#F0FF9D2E1CFFFFFF
(1547753928.470486) can0 0CF00300#FF0023FF06FFFFFF
(1547753928.471060) can0 0CEFFF00#64062C7DFFFFFFFF
(1547753928.471635) can0 18EF0600#640EA700FFFFFFFF
(1547753928.476311) can0 0DEF0603#0101FFFFFFFFFFF5
(1547753928.477510) can0 04EF0006#64151EF01119930E
(1547753928.478060) can0 0CFE4947#FFFFFFFFFFFFFFFF
(1547753928.478660) can0 18FFFB06#0005B2F8FFFFFFFF
(1547753928.479233) can0 0CFE4347#0000FFFF3FFFFFFF
(1547753928.479836) can0 0CFE4447#0000FFFF3FFFFFFF
(1547753928.480404) can0 0CFFFE06#5C271D271DFFFFFF
(1547753928.480985) can0 0CF00400#F0FF9C2A1CFFFFFF
(1547753928.490636) can0 0CF00300#FF0023FF06FFFFFF
(1547753928.491209) can0 0CEFFF00#64062D7DFFFFFFFF
(1547753928.491761) can0 18EFFF00#64100101D602057D
(1547753928.496311) can0 0DEF0603#0101FFFFFFFFFFF5
(1547753928.497485) can0 04EF0006#64151FF01119930E
(1547753928.500511) can0 0CF00400#F0FF9D2C1CFFFFFF
(1547753928.510487) can0 0CF00300#FF0023FF06FFFFFF
(1547753928.511087) can0 0CEFFF00#64062C7DFFFFFFFF
(1547753928.511662) can0 18FEEE00#5141FFFFFFFFFFFF
(1547753928.516313) can0 0DEF0603#0101FFFFFFFFFFF5
(1547753928.517487) can0 04EF0006#641510F01119930E
(1547753928.518062) can0 18FEF147#FF0000FFFFFFFFFF
(1547753928.518662) can0 18F00503#7DFFFFFFFFFFFFFF
(1547753928.520562) can0 0CF00400#F0FF9C2C1CFFFFFF
(1547753928.525688) can0 1CFFFF17#22FFFF3CFFFFFFFF
(1547753928.530788) can0 0CF00300#FF0023FF06FFFFFF
(1547753928.531361) can0 0CEFFF00#64062C7DFFFFFFFF
(1547753928.535839) can0 0DEF0647#0104FFFFFFFFFFF1
(1547753928.536461) can0 0DEF0603#0101FFFFFFFFFFF5
(1547753928.537637) can0 04EF0006#641511F01119930E
(1547753928.540563) can0 0CF00400#F0FF9C221CFFFFFF
(1547753928.541136) can0 18FEDF00#8B201CFFFFFFFFFF
(1547753928.550564) can0 0CF00300#FF0024FF06FFFFFF
(1547753928.551136) can0 0CEFFF00#64062E7DFFFFFFFF
(1547753928.551714) can0 18FEF200#2300FFFFFFFFFFFF
(1547753928.556314) can0 0DEF0603#0101FFFFFFFFFFF5
(1547753928.557513) can0 04EF0006#641512F00B19930E
(1547753928.558089) can0 0CFE4947#FFFFFFFFFFFFFFFF
(1547753928.558689) can0 0CFE4347#0000FFFF3FFFFFFF
(1547753928.559287) can0 0CFE4447#0000FFFF3FFFFFFF
(1547753928.560563) can0 0CF00400#F0FF9D241CFFFFFF
(1547753928.570565) can0 0CF00300#FF0023FF06FFFFFF
(1547753928.571137) can0 0CEFFF00#64062D7DFFFFFFFF
(1547753928.571714) can0 18EF0600#640EB100FFFFFFFF
(1547753928.576315) can0 0DEF0603#0101FFFFFFFFFFF5
(1547753928.577514) can0 04EF0006#641513F00B19930E
(1547753928.580566) can0 0CF00400#F0FF9D2E1CFFFFFF
(1547753928.590515) can0 0CF00300#FF0023FF06FFFFFF
(1547753928.591090) can0 0CEFFF00#64062C7DFFFFFFFF
(1547753928.591665) can0 18EFFF00#64100101D602057D
(1547753928.592238) can0 18FEF700#FFFFFFFFFFFF1801
(1547753928.596316) can0 0DEF0603#0101FFFFFFFFFFF5
(1547753928.597515) can0 04EF0006#641514F01119930E
(1547753928.598067) can0 0CFFFE06#5C271D271DFFFFFF
(1547753928.598641) can0 18FEF147#FF0000FFFFFFFFFF
(1547753928.599239) can0 18FFFB06#0005AFF8FFFFFFFF
(1547753928.599836) can0 18F00503#7DFFFFFFFFFFFFFF
(1547753928.600590) can0 0CF00400#F0FF9C2A1CFFFFFF
(1547753928.610617) can0 0CF00300#FF0023FF06FFFFFF
(1547753928.611191) can0 0CEFFF00#64062C7DFFFFFFFF
(1547753928.616317) can0 0DEF0603#0101FFFFFFFFFFF5
(1547753928.617516) can0 04EF0006#641515F01119930E
(1547753928.620717) can0 0CF00400#F0FF9C241CFFFFFF
(1547753928.630492) can0 0CF00300#FF0023FF06FFFFFF
(1547753928.631067) can0 0CEFFF00#64062D7DFFFFFFFF
(1547753928.635868) can0 0DEF0647#0104FFFFFFFFFFF1
(1547753928.636465) can0 0DEF0603#0101FFFFFFFFFFF5
(1547753928.637642) can0 04EF0006#641516F00B19930E
(1547753928.640518) can0 0CF00400#F0FF9D241CFFFFFF
(1547753928.650518) can0 0CF00300#FF0023FF06FFFFFF
(1547753928.651093) can0 0CEFFF00#64062D7DFFFFFFFF
(1547753928.651668) can0 18FEF200#2100FFFFFFFFFFFF
(1547753928.656319) can0 0DEF0603#0101FFFFFFFFFFF5
(1547753928.657468) can0 0C000006#30FFFFFFF8FFFFFF
(1547753928.658018) can0 04EF0006#641517F00B19930E
(1547753928.660568) can0 0CF00400#F0FF9D201CFFFFFF
(1547753928.670569) can0 0CF00300#FF0024FF06FFFFFF
(1547753928.671117) can0 0CEFFF00#64062E7DFFFFFFFF
(1547753928.671693) can0 18EF0600#640EBB00FFFFFFFF
(1547753928.676319) can0 0DEF0603#0101FFFFFFFFFFF5
(1547753928.677518) can0 04EF0006#641518F00B19930E
(1547753928.678095) can0 0CFE4947#FFFFFFFFFFFFFFFF
(1547753928.678669) can0 0CFE4347#0000FFFF3FFFFFFF
(1547753928.679293) can0 0CFE4447#0000FFFF3FFFFFFF
(1547753928.679869) can0 0CFFFE06#5C271D271DFFFFFF
(1547753928.680565) can0 0CF00400#F0FF9D181CFFFFFF
(1547753928.690520) can0 0CF00300#FF0024FF06FFFFFF
(1547753928.691094) can0 0CEFFF00#6406307DFFFFFFFF
(1547753928.691669) can0 18EFFF00#64100101D402057D
(1547753928.692239) can0 18FED500#FFFFFDFFFFFFFFFF
(1547753928.696346) can0 0DEF0603#0101FFFFFFFFFFF5
(1547753928.697569) can0 04EF0006#641519F00419930E
(1547753928.700570) can0 0CF00400#F0FF9D201CFFFFFF
(1547753928.710646) can0 0CF00300#FF0023FF06FFFFFF
(1547753928.711218) can0 0CEFFF00#64062E7DFFFFFFFF
(1547753928.716321) can0 0DEF0603#0101FFFFFFFFFFF5
(1547753928.717520) can0 04EF0006#64151AF00B19930E
(1547753928.718097) can0 18FEF147#FF0000FFFFFFFFFF
(1547753928.718696) can0 18FFFB06#0005AFF8FFFFFFFF
(1547753928.719295) can0 18F00503#7DFFFFFFFFFFFFFF
(1547753928.720570) can0 0CF00400#F0FF9D2A1CFFFFFF
(1547753928.730522) can0 0CF00300#FF0023FF06FFFFFF
(1547753928.731096) can0 0CEFFF00#64062C7DFFFFFFFF
(1547753928.731671) can0 18FDB300#FFFF1829FFFFFFFF
(1547753928.735872) can0 0DEF0647#0104FFFFFFFFFFF1
(1547753928.736571) can0 0DEF0603#0101FFFFFFFFFFF5
(1547753928.737746) can0 04EF0006#64151BF01119930E
(1547753928.740572) can0 0CF00400#F0FF9C201CFFFFFF
(1547753928.750623) can0 0CF00300#FF0024FF06FFFFFF
(1547753928.751195) can0 0CEFFF00#64062E7DFFFFFFFF
(1547753928.751798) can0 18FEF200#2300FFFFFFFFFFFF
(1547753928.756323) can0 0DEF0603#0101FFFFFFFFFFF5
(1547753928.757522) can0 04EF0006#64151CF00B19930E
(1547753928.758098) can0 0CFE4947#FFFFFFFFFFFFFFFF
(1547753928.758698) can0 0CFFFF47#5DFFFFF3FFFFFFFF
(1547753928.759296) can0 0CFE4347#0000FFFF3FFFFFFF
(1547753928.759898) can0 0CFE4447#0000FFFF3FFFFFFF
(1547753928.760593) can0 0CF00400#F0FF9D201CFFFFFF
(1547753928.770524) can0 0CF00300#FF0024FF06FFFFFF
(1547753928.771098) can0 0CEFFF00#64062E7DFFFFFFFF
(1547753928.771673) can0 18EF0600#640EC500FFFFFFFF
(1547753928.776319) can0 0DEF0603#0101FFFFFFFFFFF5
(1547753928.777523) can0 04EF0006#64151DF00B19930E
(1547753928.780523) can0 0CF00400#F0FF9D221CFFFFFF
(1547753928.790599) can0 0CF00300#FF0024FF06FFFFFF
(1547753928.791172) can0 0CEFFF00#64062D7DFFFFFFFF
(1547753928.791748) can0 18EFFF00#64100101D502057D
(1547753928.792322) can0 18FEDF00#8B201CFFFFFFFFFF
(1547753928.796324) can0 0DEF0603#0101FFFFFFFFFFF5
(1547753928.797524) can0 04EF0006#64151EF00B19930E
(1547753928.798075) can0 0CFFFE06#5C271D271DFFFFFF
(1547753928.798675) can0 18FEF147#FF0000FFFFFFFFFF
(1547753928.799248) can0 18F00503#7DFFFFFFFFFFFFFF
(1547753928.800620) can0 0CF00400#F0FF9D1E1CFFFFFF
(1547753928.810576) can0 0CF00300#FF0024FF06FFFFFF
(1547753928.811123) can0 0CEFFF00#64062F7DFFFFFFFF
(1547753928.811700) can0 18FEEF00#FFFFFF64FFFFFFFA
(1547753928.816351) can0 0DEF0603#0101FFFFFFFFFFF5
(1547753928.817576) can0 04EF0006#64151FF00419930E
(1547753928.820576) can0 0CF00400#F0FF9D1C1CFFFFFF
(1547753928.830502) can0 0CF00300#FF0023FF06FFFFFF
(1547753928.831075) can0 0CEFFF00#64062F7DFFFFFFFF
(1547753928.835901) can0 0DEF0647#0104FFFFFFFFFFF1
(1547753928.836499) can0 0DEF0603#0101FFFFFFFFFFF5
(1547753928.837700) can0 04EF0006#641510F00419930E
(1547753928.838300) can0 18FFFF06#73FFFFFFFFFFFFFF
(1547753928.838901) can0 18FFFB06#0005AFF8FFFFFFFF
(1547753928.840777) can0 0CF00400#F0FF9D261CFFFFFF
(1547753928.850576) can0 0CF00300#FF0023FF06FFFFFF
(1547753928.851124) can0 0CEFFF00#64062D7DFFFFFFFF
(1547753928.851701) can0 18FEF200#2100FFFFFFFFFFFF
(1547753928.856353) can0 0DEF0603#0101FFFFFFFFFFF5
(1547753928.857576) can0 04EF0006#641511F00B19930E
(1547753928.860577) can0 0CF00400#F0FF9D2A1CFFFFFF
(1547753928.870509) can0 0CF00300#FF0023FF06FFFFFF
(1547753928.871082) can0 0CEFFF00#64062C7DFFFFFFFF
(1547753928.871658) can0 18EF0600#640ECF00FFFFFFFF
(1547753928.876333) can0 0DEF0603#0101FFFFFFFFFFF5
(1547753928.877532) can0 04EF0006#641512F01119930E
(1547753928.878108) can0 0CFE4947#FFFFFFFFFFFFFFFF
(1547753928.878708) can0 1CFDDF47#FCFFFFFFFFFFFFFF
(1547753928.879281) can0 0CFE4347#0000FFFF3FFFFFFF
(1547753928.879883) can0 0CFE4447#0000FFFF3FFFFFFF
(1547753928.880448) can0 0CFFFE06#5C271D271DFFFFFF
(1547753928.881000) can0 0CF00400#F0FF9C241CFFFFFF
(1547753928.890732) can0 0CF00300#FF0023FF06FFFFFF
(1547753928.891311) can0 0CEFFF00#64062D7DFFFFFFFF
(1547753928.891845) can0 18EFFF00#64100101D602057D
(1547753928.892455) can0 18FEF600#FF003CFF00FFFFFF
(1547753928.896359) can0 0DEF0603#0101FFFFFFFFFFF5
(1547753928.897557) can0 04EF0006#641513F00B19930E
(1547753928.900635) can0 0CF00400#F0FF9D241CFFFFFF
(1547753928.910586) can0 0CF00300#FF0023FF06FFFFFF
(1547753928.911162) can0 0CEFFF00#64062D7DFFFFFFFF
(1547753928.916414) can0 0DEF0603#0101FFFFFFFFFFF5
(1547753928.917636) can0 04EF0006#641514F00B19930E
(1547753928.918163) can0 18FEF147#FF0000FFFFFFFFFF
(1547753928.918763) can0 18F00647#FFCFFFFFFFFFFFFF
(1547753928.919360) can0 18F00503#7DFFFFFFFFFFFFFF
(1547753928.920636) can0 0CF00400#F0FF9D241CFFFFFF
(1547753928.930891) can0 0CF00300#FF0024FF06FFFFFF
(1547753928.931462) can0 0CEFFF00#64062D7DFFFFFFFF
(1547753928.935940) can0 0DEF0647#0104FFFFFFFFFFF1
(1547753928.936539) can0 0DEF0603#0101FFFFFFFFFFF5
(1547753928.937737) can0 04EF0006#641515F00B19930E
(1547753928.940546) can0 0CF00400#F0FF9D1A1CFFFFFF
(1547753928.941187) can0 18FFFA00#022C0000180C0081
(1547753928.950616) can0 0CF00300#FF0024FF06FFFFFF
(1547753928.951211) can0 0CEFFF00#64062F7DFFFFFFFF
(1547753928.951789) can0 18FEF200#2300FFFFFFFFFFFF
(1547753928.956413) can0 0DEF0603#0101FFFFFFFFFFF5
(1547753928.957639) can0 04EF0006#641516F00419930E
(1547753928.958216) can0 0CFE4947#FFFFFFFFFFFFFFFF
(1547753928.958788) can0 18FFFB06#0005AFF8FFFFFFFF
(1547753928.959388) can0 0CFE4347#0000FFFF3FFFFFFF
(1547753928.959965) can0 0CFE4447#0000FFFF3FFFFFFF
(1547753928.960621) can0 0CF00400#F0FF9D201CFFFFFF
(1547753928.970642) can0 0CF00300#FF0023FF06FFFFFF
(1547753928.971187) can0 0CEFFF00#64062D7DFFFFFFFF
(1547753928.971764) can0 18EF0600#640ED900FFFFFFFF
(1547753928.972302) can0 18FEF500#C8FFFFFFFF39FFFF
(1547753928.976359) can0 0DEF0603#0101FFFFFFFFFFF5
(1547753928.977590) can0 04EF0006#641517F00B19930E
(1547753928.980631) can0 0CF00400#F0FF9D2E1CFFFFFF
(1547753928.990605) can0 0CF00300#FF0022FF06FFFFFF
(1547753928.991108) can0 0CEFFF00#64062B7DFFFFFFFF
(1547753928.991730) can0 18EFFF00#64100101D602057D
(1547753928.996406) can0 0DEF0603#0101FFFFFFFFFFF5
(1547753928.997607) can0 04EF0006#641518F01119930E
(1547753928.998157) can0 0CFFFE06#5C271D271DFFFFFF
(1547753928.998731) can0 18FEF147#FF0000FFFFFFFFFF
(1547753928.999330) can0 18F00503#7DFFFFFFFFFFFFFF
(1547753929.000654) can0 0CF00400#F0FF9C2C1CFFFFFF
(1547753929.010710) can0 0CF00300#FF0023FF06FFFFFF
(1547753929.011305) can0 0CEFFF00#64062C7DFFFFFFFF
(1547753929.011855) can0 18FE6900#A0244E27FFFF60FE
(1547753929.016409) can0 0DEF0603#0101FFFFFFFFFFF5
(1547753929.017606) can0 04EF0006#641519F01119930E
(1547753929.020811) can0 0CF00400#F0FF9C281CFFFFFF
(1547753929.030608) can0 0CF00300#FF0023FF06FFFFFF
(1547753929.031207) can0 0CEFFF00#64062C7DFFFFFFFF
(1547753929.035960) can0 0DEF0647#0104FFFFFFFFFFF1
(1547753929.036556) can0 0DEF0603#0101FFFFFFFFFFF5
(1547753929.037730) can0 04EF0006#64151AF01119930E
(1547753929.040660) can0 0CF00400#F0FF9C2A1CFFFFFF
(1547753929.041204) can0 18FEDF00#8B201CFFFFFFFFFF
(1547753929.050661) can0 0CF00300#FF0023FF06FFFFFF
(1547753929.051205) can0 0CEFFF00#64062C7DFFFFFFFF
(1547753929.051806) can0 18FEF200#2100FFFFFFFFFFFF
(1547753929.056413) can0 0DEF0603#0101FFFFFFFFFFF5
(1547753929.057608) can0 04EF0006#64151BF01119930E
(1547753929.060659) can0 0CF00400#F0FF9C241CFFFFFF
(1547753929.070661) can0 0CF00300#FF0024FF06FFFFFF
(1547753929.071230) can0 0CEFFF00#64062C7DFFFFFFFF
(1547753929.071808) can0 18EF0600#640EE300FFFFFFFF
(1547753929.076411) can0 0DEF0603#0101FFFFFFFFFFF5
(1547753929.077606) can0 04EF0006#64151CF00B19930E
(1547753929.078186) can0 0CFE4947#FFFFFFFFFFFFFFFF
(1547753929.078757) can0 18FFFB06#0005ACF8FFFFFFFF
(1547753929.079356) can0 0CFE4347#0000FFFF3FFFFFFF
(1547753929.079957) can0 0CFE4447#0000FFFF3FFFFFFF
(1547753929.080487) can0 0CFFFE06#5C271D271DFFFFFF
(1547753929.081037) can0 0CF00400#F0FF9C1A1CFFFFFF
(1547753929.090660) can0 0CF00300#FF0024FF06FFFFFF
(1547753929.091206) can0 0CEFFF00#64062F7DFFFFFFFF
(1547753929.091738) can0 18EFFF00#64100101D502057D
(1547753929.096389) can0 0DEF0603#0101FFFFFFFFFFF5
(1547753929.097656) can0 04EF0006#64151DF00419930E
(1547753929.100661) can0 0CF00400#F0FF9D221CFFFFFF
(1547753929.110738) can0 0CF00300#FF0023FF06FFFFFF
(1547753929.111309) can0 0CEFFF00#64062D7DFFFFFFFF
(1547753929.116409) can0 0DEF0603#0101FFFFFFFFFFF5
(1547753929.117609) can0 04EF0006#64151EF00B19930E
(1547753929.118189) can0 18FEF147#FF0000FFFFFFFFFF
(1547753929.118784) can0 18F00503#7DFFFFFFFFFFFFFF
(1547753929.120660) can0 0CF00400#F0FF9D2C1CFFFFFF
(1547753929.130613) can0 0CF00300#FF0023FF06FFFFFF
(1547753929.131184) can0 0CEFFF00#64062B7DFFFFFFFF
(1547753929.131734) can0 18FD7C00#F880F1F000CF03FC
(1547753929.135900) can0 0DEF0647#0104FFFFFFFFFFF1
(1547753929.136511) can0 0DEF0603#0101FFFFFFFFFFF5
(1547753929.137752) can0 04EF0006#64151FF01119930E
(1547753929.140651) can0 0CF00400#F0FF9C221CFFFFFF
(1547753929.150705) can0 0CF00300#FF0023FF06FFFFFF
(1547753929.151276) can0 0CEFFF00#64062D7DFFFFFFFF
(1547753929.151854) can0 18FEF200#2100FFFFFFFFFFFF
(1547753929.156435) can0 0DEF0603#0101FFFFFFFFFFF5
(1547753929.157603) can0 04EF0006#641510F00B19930E
(1547753929.158204) can0 0CFE4947#FFFFFFFFFFFFFFFF
(1547753929.158578) can0 18EA0006#E3FE00
(1547753929.159153) can0 0CFE4347#0000FFFF3FFFFFFF
(1547753929.159754) can0 0CFE4447#0000FFFF3FFFFFFF
(1547753929.160703) can0 0CF00400#F0FF9D241CFFFFFF
(1547753929.170607) can0 0CF00300#FF0023FF06FFFFFF
(1547753929.171179) can0 0CEFFF00#64062D7DFFFFFFFF
(1547753929.171754) can0 18EF0600#640EED00FFFFFFFF
(1547753929.176403) can0 0DEF0603#0101FFFFFFFFFFF5
(1547753929.177603) can0 04EF0006#641511F00B19930E
(1547753929.180657) can0 0CF00400#F0FF9D281CFFFFFF
(1547753929.185880) can0 1CFFFF17#22FFFF3CFFFFFFFF
(1547753929.190708) can0 0CF00300#FF0023FF06FFFFFF
(1547753929.191278) can0 0CEFFF00#64062C7DFFFFFFFF
(1547753929.191854) can0 18EFFF00#64100101D602057D
(1547753929.193277) can0 1CEC0600#1022000505E3FE00
(1547753929.195506) can0 18EAFF06#E5FE00
(1547753929.196478) can0 0DEF0603#0101FFFFFFFFFFF5
(1547753929.197678) can0 04EF0006#641512F01119930E
(1547753929.198230) can0 0CFFFE06#5C271D271DFFFFFF
(1547753929.198806) can0 18FEF147#FF0000FFFFFFFFFF
(1547753929.199402) can0 18FFFB06#0005AFF8FFFFFFFF
(1547753929.200005) can0 18FEE706#CC0A0000FFFFFFFF
(1547753929.200604) can0 18F00503#7DFFFFFFFFFFFFFF
(1547753929.201155) can0 0CF00400#F0FF9C201CFFFFFF
(1547753929.204234) can0 1CEC0006#110501FFFFE3FE00
(1547753929.210606) can0 0CF00300#FF0024FF06FFFFFF
(1547753929.211184) can0 0CEFFF00#64062D7DFFFFFFFF
(1547753929.216431) can0 0DEF0603#0101FFFFFFFFFFF5
(1547753929.217655) can0 04EF0006#641513F00B19930E
(1547753929.220660) can0 0CF00400#F0FF9D1E1CFFFFFF
(1547753929.230585) can0 0CF00300#FF0023FF06FFFFFF
(1547753929.231155) can0 0CEFFF00#64062E7DFFFFFFFF
(1547753929.231731) can0 18FDB300#FFFF2429FFFFFFFF
(1547753929.232329) can0 1CEFFF00#64070000FFFFFFFF
(1547753929.235980) can0 0DEF0647#0104FFFFFFFFFFF1
(1547753929.236683) can0 0DEF0603#0101FFFFFFFFFFF5
(1547753929.237910) can0 04EF0006#641514F00419930E
(1547753929.240931) can0 0CF00400#F0FF9D281CFFFFFF
(1547753929.246457) can0 18FEE500#CC0A0000FFFFFFFF
(1547753929.250688) can0 0CF00300#FF0023FF06FFFFFF
(1547753929.251254) can0 0CEFFF00#64062C7DFFFFFFFF
(1547753929.251833) can0 18FEF200#2100FFFFFFFFFFFF
(1547753929.256433) can0 0DEF0603#0101FFFFFFFFFFF5
(1547753929.257660) can0 04EF0006#641515F01119930E
(1547753929.260661) can0 0CF00400#F0FF9C2C1CFFFFFF
(1547753929.270588) can0 0CF00300#FF0023FF06FFFFFF
(1547753929.271157) can0 0CEFFF00#64062B7DFFFFFFFF
(1547753929.271734) can0 18EF0600#640EF700FFFFFFFF
(1547753929.276432) can0 0DEF0603#0101FFFFFFFFFFF5
(1547753929.277609) can0 04EF0006#641516F01119930E
(1547753929.278184) can0 0CFE4947#FFFFFFFFFFFFFFFF
(1547753929.278783) can0 0CFFFF47#5DFFFFF3FFFFFFFF
(1547753929.279380) can0 0CFE4347#0000FFFF3FFFFFFF
(1547753929.279982) can0 0CFE4447#0000FFFF3FFFFFFF
(1547753929.280508) can0 0CFFFE06#5C271D271DFFFFFF
(1547753929.281083) can0 0CF00400#F0FF9C241CFFFFFF
(1547753929.290788) can0 0CF00300#FF0023FF06FFFFFF
(1547753929.291358) can0 0CEFFF00#64062C7DFFFFFFFF
(1547753929.291860) can0 18EFFF00#64100101D502057D
(1547753929.292462) can0 18FEDF00#8B201CFFFFFFFFFF
(1547753929.293407) can0 1CEB0600#01201CDD6842DCA0
(1547753929.296434) can0 0DEF0603#0101FFFFFFFFFFF5
(1547753929.297658) can0 04EF0006#641517F00B19930E
(1547753929.300663) can0 0CF00400#F0FF9C261CFFFFFF
(1547753929.310615) can0 0CF00300#FF0023FF06FFFFFF
(1547753929.311210) can0 0CEFFF00#64062C7DFFFFFFFF
(1547753929.311785) can0 18FEEF00#FFFFFF64FFFFFFFA
(1547753929.316414) can0 0DEF0603#0101FFFFFFFFFFF5
(1547753929.317658) can0 04EF0006#641518F00B19930E
(1547753929.318208) can0 18FEF147#FF0000FFFFFFFFFF
(1547753929.318812) can0 18FFFB06#0005ACF8FFFFFFFF
(1547753929.319410) can0 18FFFB06#001BFFFFFFFFFFFF
(1547753929.320009) can0 18F00503#7DFFFFFFFFFFFFFF
(1547753929.320786) can0 0CF00400#F0FF9C261CFFFFFF
(1547753929.330865) can0 0CF00300#FF0023FF06FFFFFF
(1547753929.331434) can0 0CEFFF00#64062C7DFFFFFFFF
(1547753929.335984) can0 0DEF0647#0104FFFFFFFFFFF1
(1547753929.336584) can0 0DEF0603#0101FFFFFFFFFFF5
(1547753929.337760) can0 04EF0006#641519F00B19930E
(1547753929.340660) can0 0CF00400#F0FF9C181CFFFFFF
(1547753929.345686) can0 1CEB0600#020FD58D20E37A31
(1547753929.350665) can0 0CF00300#FF0024FF06FFFFFF
(1547753929.351233) can0 0CEFFF00#64062F7DFFFFFFFF
(1547753929.351836) can0 18FEF200#2300FFFFFFFFFFFF
(1547753929.356465) can0 0DEF0603#0101FFFFFFFFFFF5
(1547753929.357686) can0 04EF0006#64151AF00419930E
(1547753929.358260) can0 0CFE4947#FFFFFFFFFFFFFFFF
(1547753929.358863) can0 18FE6847#3DFFFFFFFFFFFFFF
(1547753929.359435) can0 0CFE4347#0000FFFF3FFFFFFF
(1547753929.360013) can0 18FFFF06#73FFFFFFFFFFFFFF
(1547753929.360538) can0 0CFE4447#0000FFFF3FFFFFFF
(1547753929.361112) can0 0CF00400#F0FF9D201CFFFFFF
(1547753929.370665) can0 0CF00300#FF0023FF06FFFFFF
(1547753929.371209) can0 0CEFFF00#64062D7DFFFFFFFF
(1547753929.371812) can0 18EF0600#640E0100FFFFFFFF
(1547753929.376393) can0 0DEF0603#0101FFFFFFFFFFF5
(1547753929.377662) can0 04EF0006#64151BF00B19930E
(1547753929.380742) can0 0CF00400#F0FF9D2C1CFFFFFF
(1547753929.390668) can0 0CF00300#FF0022FF06FFFFFF
(1547753929.391212) can0 0CEFFF00#64062B7DFFFFFFFF
(1547753929.391763) can0 18EFFF00#64100101D502057D
(1547753929.392360) can0 18FEF600#FF003BFF00FFFFFF
(1547753929.393114) can0 1CEB0600#03F1C044FFFF0401
(1547753929.393687) can0 1CECFF00#20220005FFE3FE00
(1547753929.396467) can0 0DEF0603#0101FFFFFFFFFFF5
(1547753929.397663) can0 04EF0006#64151CF01119930E
(1547753929.398237) can0 0CFFFF47#5EFFFFFFFFFFFFFF
(1547753929.398788) can0 18FEF147#FF0000FFFFFFFFFF
(1547753929.399360) can0 0CFFFE06#5C271D271DFFFFFF
(1547753929.399938) can0 18FEFC47#FFFFFFFFFFFFFFFF
(1547753929.400536) can0 18EF0047#F220610FFFFFFFFF
(1547753929.401039) can0 0CF00400#F0FF9C2A1CFFFFFF
(1547753929.401613) can0 18F00647#FFCFFFFFFFFFFFFF
(1547753929.402222) can0 1CFDDF47#FCFFFFFFFFFFFFFF
(1547753929.402815) can0 18F00503#7DFFFFFFFFFFFFFF
(1547753929.410716) can0 18EFFA00#6401FF0000FFFFFF
(1547753929.411287) can0 0CEFFF00#64062B7DFFFFFFFF
(1547753929.411864) can0 0CF00300#FF0023FF06FFFFFF
(1547753929.416444) can0 0DEF0603#0101FFFFFFFFFFF5
(1547753929.417640) can0 04EF0006#64151DF01119930E
(1547753929.420888) can0 0CF00400#F0FF9C241CFFFFFF
(1547753929.430667) can0 0CF00300#FF0023FF06FFFFFF
(1547753929.431214) can0 0CEFFF00#64062C7DFFFFFFFF
(1547753929.435993) can0 0DEF0647#0104FFFFFFFFFFF1
(1547753929.436588) can0 0DEF0603#0101FFFFFFFFFFF5
(1547753929.437764) can0 04EF0006#64151EF00B19930E
(1547753929.438330) can0 18FFFB06#0005ACF8FFFFFFFF
(1547753929.440665) can0 0CF00400#F0FF9C221CFFFFFF
(1547753929.445720) can0 1CEB0600#04204E0001FAC9FA
(1547753929.446289) can0 1CEBFF00#01201CEB6842E9A0
(1547753929.450670) can0 0CF00300#FF0023FF06FFFFFF
(1547753929.451238) can0 0CEFFF00#64062C7DFFFFFFFF
(1547753929.451817) can0 18FEF200#2100FFFFFFFFFFFF
(1547753929.456447) can0 0DEF0603#0101FFFFFFFFFFF5
(1547753929.457664) can0 04EF0006#64151FF00B19930E
(1547753929.460665) can0 0CF00400#F0FF9C1E1CFFFFFF
(1547753929.470666) can0 0CF00300#FF0024FF06FFFFFF
(1547753929.471242) can0 0CEFFF00#64062E7DFFFFFFFF
(1547753929.471790) can0 18EF0600#640E0B00FFFFFFFF
(1547753929.476466) can0 0DEF0603#0101FFFFFFFFFFF5
(1547753929.477659) can0 04EF0006#641510F00419930E
(1547753929.478225) can0 0CFE4947#FFFFFFFFFFFFFFFF
(1547753929.478823) can0 0CFE4347#0000FFFF3FFFFFFF
(1547753929.479423) can0 0CFE4447#0000FFFF3FFFFFFF
(1547753929.479999) can0 0CFFFE06#5C271D271DFFFFFF
(1547753929.480656) can0 0CF00400#F0FF9D161CFFFFFF
(1547753929.490626) can0 0CF00300#FF0024FF06FFFFFF
(1547753929.491172) can0 0CEFFF00#64062F7DFFFFFFFF
(1547753929.491723) can0 18EFFF00#64100101D402057D
(1547753929.493082) can0 1CEB0600#05C05D0000FFFFFF
(1547753929.493674) can0 1CEBFF00#020FE38D20F17A31
(1547753929.496452) can0 0DEF0603#0101FFFFFFFFFFF5
(1547753929.497674) can0 04EF0006#641511F00919930E
(1547753929.499274) can0 1CEC0006#13220005FFE3FE00
(1547753929.500674) can0 0CF00400#F0FF9D1E1CFFFFFF
(1547753929.510675) can0 0CF00300#FF0023FF06FFFFFF
(1547753929.511248) can0 0CEFFF00#64062E7DFFFFFFFF
(1547753929.511825) can0 18FEEE00#5141FFFFFFFFFFFF
(1547753929.516428) can0 0DEF0603#0101FFFFFFFFFFF5
(1547753929.517650) can0 04EF0006#641512F00419930E
(1547753929.518224) can0 18FEF147#FF0000FFFFFFFFFF
(1547753929.518825) can0 18F00503#7DFFFFFFFFFFFFFF
(1547753929.520625) can0 0CF00400#F0FF9D281CFFFFFF
(1547753929.530627) can0 0CF00300#FF0023FF06FFFFFF
(1547753929.531174) can0 0CEFFF00#64062C7DFFFFFFFF
(1547753929.535954) can0 0DEF0647#0104FFFFFFFFFFF1
(1547753929.536549) can0 0DEF0603#0101FFFFFFFFFFF5
(1547753929.537725) can0 04EF0006#641513F01119930E
(1547753929.540678) can0 0CF00400#F0FF9C201CFFFFFF
(1547753929.541249) can0 18FEDF00#8A201CFFFFFFFFFF
(1547753929.546104) can0 1CEBFF00#03FAC044FFFF0401
(1547753929.550705) can0 0CF00300#FF0023FF06FFFFFF
(1547753929.551275) can0 0CEFFF00#64062D7DFFFFFFFF
(1547753929.551852) can0 18FEF200#2100FFFFFFFFFFFF
(1547753929.556404) can0 0DEF0603#0101FFFFFFFFFFF5
(1547753929.557626) can0 04EF0006#641514F00B19930E
(1547753929.558176) can0 0CFE4947#FFFFFFFFFFFFFFFF
(1547753929.558752) can0 18FFFB06#000587F8FFFFFFFF
(1547753929.559351) can0 0CFE4347#0000FFFF3FFFFFFF
(1547753929.559952) can0 0CFE4447#0000FFFF3FFFFFFF
(1547753929.560635) can0 0CF00400#F0FF9D201CFFFFFF
(1547753929.570627) can0 0CF00300#FF0023FF06FFFFFF
(1547753929.571175) can0 0CEFFF00#64062D7DFFFFFFFF
(1547753929.571752) can0 18EF0600#640E1500FFFFFFFF
(1547753929.576388) can0 0DEF0603#0101FFFFFFFFFFF5
(1547753929.577627) can0 04EF0006#641515F00B19930E
(1547753929.580628) can0 0CF00400#F0FF9D241CFFFFFF
(1547753929.590705) can0 0CF00300#FF0023FF06FFFFFF
(1547753929.591276) can0 0CEFFF00#64062C7DFFFFFFFF
(1547753929.591828) can0 18EFFF00#64100101D402057D
(1547753929.592426) can0 18FEF700#FFFFFFFFFFFF1801
(1547753929.593453) can0 1CEBFF00#04204E0001FAC9FA
(1547753929.596406) can0 0DEF0603#0101FFFFFFFFFFF5
(1547753929.597628) can0 04EF0006#641516F00B19930E
(1547753929.598154) can0 0CFFFE06#5C271D271DFFFFFF
(1547753929.598729) can0 18FEF147#FF0000FFFFFFFFFF
(1547753929.599327) can0 18F00503#7DFFFFFFFFFFFFFF
(1547753929.600805) can0 0CF00400#F0FF9C1E1CFFFFFF
(1547753929.610630) can0 0CF00300#FF0024FF06FFFFFF
(1547753929.611202) can0 0CEFFF00#64062E7DFFFFFFFF
(1547753929.616407) can0 0DEF0603#0101FFFFFFFFFFF5
(1547753929.617654) can0 04EF0006#641517F00419930E
(1547753929.620633) can0 0CF00400#F0FF9D1C1CFFFFFF
(1547753929.630583) can0 0CF00300#FF0023FF06FFFFFF
(1547753929.631155) can0 0CEFFF00#64062E7DFFFFFFFF
(1547753929.635958) can0 0DEF0647#0104FFFFFFFFFFF1
(1547753929.636580) can0 0DEF0603#0101FFFFFFFFFFF5
(1547753929.637760) can0 04EF0006#641518F00419930E
(1547753929.640906) can0 0CF00400#F0FF9D281CFFFFFF
(1547753929.646458) can0 1CEBFF00#05C05D0000FFFFFF
(1547753929.650633) can0 0CF00300#FF0022FF06FFFFFF
(1547753929.651204) can0 0CEFFF00#64062B7DFFFFFFFF
(1547753929.651806) can0 18FEF200#2000FFFFFFFFFFFF
(1547753929.656408) can0 0DEF0603#0101FFFFFFFFFFF5
(1547753929.657557) can0 0C000006#30FFFFFFF8FFFFFF
(1547753929.658106) can0 04EF0006#641519F01119930E
(1547753929.660631) can0 0CF00400#F0FF9C2C1CFFFFFF
(1547753929.670637) can0 0CF00300#FF0023FF06FFFFFF
(1547753929.671205) can0 0CEFFF00#64062B7DFFFFFFFF
(1547753929.671782) can0 18EF0600#640E1F00FFFFFFFF
(1547753929.676410) can0 0DEF0603#0101FFFFFFFFFFF5
(1547753929.677632) can0 04EF0006#64151AF01119930E
(1547753929.678181) can0 0CFE4947#FFFFFFFFFFFFFFFF
(1547753929.678757) can0 0CFE4347#0000FFFF3FFFFFFF
(1547753929.679355) can0 0CFE4447#0000FFFF3FFFFFFF
(1547753929.679957) can0 0CFFFE06#5C271D271DFFFFFF
(1547753929.680690) can0 0CF00400#F0FF9C261CFFFFFF
(1547753929.690685) can0 0CF00300#FF0023FF06FFFFFF
(1547753929.691256) can0 0CEFFF00#64062C7DFFFFFFFF
(1547753929.691832) can0 18EFFF00#64100101D402057D
(1547753929.692388) can0 18FED500#FFFFFDFFFFFFFFFF
(1547753929.696393) can0 0DEF0603#0101FFFFFFFFFFF5
(1547753929.697633) can0 04EF0006#64151BF00B19930E
(1547753929.700636) can0 0CF00400#F0FF9C281CFFFFFF
(1547753929.710636) can0 0CF00300#FF0023FF06FFFFFF
(1547753929.711181) can0 0CEFFF00#64062B7DFFFFFFFF
(1547753929.716412) can0 0DEF0603#0101FFFFFFFFFFF5
(1547753929.717633) can0 04EF0006#64151CF01119930E
(1547753929.718183) can0 18FEF147#FF0000FFFFFFFFFF
(1547753929.718786) can0 18F00503#7DFFFFFFFFFFFFFF
(1547753929.720758) can0 0CF00400#F0FF9C261CFFFFFF
(1547753929.730836) can0 0CF00300#FF0023FF06FFFFFF
(1547753929.731432) can0 0CEFFF00#64062C7DFFFFFFFF
(1547753929.732011) can0 18FDB300#FFFF2429FFFFFFFF
(1547753929.735962) can0 0DEF0647#0104FFFFFFFFFFF1
(1547753929.736634) can0 0DEF0603#0101FFFFFFFFFFF5
(1547753929.737834) can0 04EF0006#64151DF00B19930E
(1547753929.740634) can0 0CF00400#F0FF9C1A1CFFFFFF
(1547753929.750639) can0 0CF00300#FF0023FF06FFFFFF
(1547753929.751208) can0 0CEFFF00#64062E7DFFFFFFFF
(1547753929.751786) can0 18FEF200#2100FFFFFFFFFFFF
(1547753929.756440) can0 0DEF0603#0101FFFFFFFFFFF5
(1547753929.757660) can0 04EF0006#64151EF00419930E
(1547753929.758260) can0 0CFE4947#FFFFFFFFFFFFFFFF
(1547753929.758836) can0 0CFFFF47#5DFFFFF3FFFFFFFF
(1547753929.759435) can0 0CFE4347#0000FFFF3FFFFFFF
(1547753929.760036) can0 0CFE4447#0000FFFF3FFFFFFF
(1547753929.760644) can0 0CF00400#F0FF9D221CFFFFFF
(1547753929.770623) can0 0CF00300#FF0023FF06FFFFFF
(1547753929.771209) can0 0CEFFF00#64062C7DFFFFFFFF
(1547753929.771769) can0 18EF0600#640E2900FFFFFFFF
(1547753929.776399) can0 0DEF0603#0101FFFFFFFFFFF5
(1547753929.777619) can0 04EF0006#64151FF00B19930E
(1547753929.780689) can0 0CF00400#F0FF9C2E1CFFFFFF
(1547753929.790640) can0 0CF00300#FF0022FF06FFFFFF
(1547753929.791185) can0 0CEFFF00#64062A7DFFFFFFFF
(1547753929.791762) can0 18EFFF00#64100101D502057D
(1547753929.792310) can0 18FEDF00#8A201CFFFFFFFFFF
(1547753929.796416) can0 0DEF0603#0101FFFFFFFFFFF5
(1547753929.797587) can0 04EF0006#641510F01119930E
(1547753929.798163) can0 0CFFFE06#5C271D271DFFFFFF
(1547753929.798737) can0 18FEF147#FF0000FFFFFFFFFF
(1547753929.799336) can0 18F00503#7DFFFFFFFFFFFFFF
(1547753929.800645) can0 0CF00400#F0FF9B2A1CFFFFFF
(1547753929.810742) can0 0CF00300#FF0023FF06FFFFFF
(1547753929.811311) can0 0CEFFF00#64062B7DFFFFFFFF
(1547753929.811888) can0 18FEEF00#FFFFFF64FFFFFFFA
(1547753929.816417) can0 0DEF0603#0101FFFFFFFFFFF5
(1547753929.817638) can0 04EF0006#641511F01119930E
(1547753929.820864) can0 0CF00400#F0FF9C261CFFFFFF
(1547753929.830642) can0 0CF00300#FF0023FF06FFFFFF
(1547753929.831187) can0 0CEFFF00#64062B7DFFFFFFFF
(1547753929.835966) can0 0DEF0647#0104FFFFFFFFFFF1
(1547753929.836561) can0 0DEF0603#0101FFFFFFFFFFF5
(1547753929.837739) can0 04EF0006#641512F00B19930E
(1547753929.838339) can0 18FFFF06#73FFFFFFFFFFFFFF
(1547753929.838914) can0 18FFFB06#000587F8FFFFFFFF
(1547753929.840664) can0 0CF00400#F0FF9C261CFFFFFF
(1547753929.850640) can0 0CF00300#FF0023FF06FFFFFF
(1547753929.851213) can0 0CEFFF00#64062B7DFFFFFFFF
(1547753929.851815) can0 18FEF200#2000FFFFFFFFFFFF
(1547753929.856419) can0 0DEF0603#0101FFFFFFFFFFF5
(1547753929.857639) can0 04EF0006#641513F00B19930E
(1547753929.860642) can0 0CF00400#F0FF9C201CFFFFFF
(1547753929.865767) can0 1CFFFF17#22FFFF3CFFFFFFFF
(1547753929.870641) can0 0CF00300#FF0023FF06FFFFFF
(1547753929.871213) can0 0CEFFF00#64062C7DFFFFFFFF
(1547753929.871790) can0 18EF0600#640E3300FFFFFFFF
(1547753929.876413) can0 0DEF0603#0101FFFFFFFFFFF5
(1547753929.877637) can0 04EF0006#641514F00B19930E
(1547753929.878189) can0 0CFE4947#FFFFFFFFFFFFFFFF
(1547753929.878788) can0 1CFDDF47#FCFFFFFFFFFFFFFF
(1547753929.879362) can0 0CFE4347#0000FFFF3FFFFFFF
(1547753929.879963) can0 0CFE4447#0000FFFF3FFFFFFF
(1547753929.880520) can0 0CFFFE06#5C271D271DFFFFFF
(1547753929.881098) can0 0CF00400#F0FF9C181CFFFFFF
(1547753929.890633) can0 0CF00300#FF0023FF06FFFFFF
(1547753929.891206) can0 0CEFFF00#64062E7DFFFFFFFF
(1547753929.891770) can0 18EFFF00#64100101D202057D
(1547753929.892357) can0 18FEF600#FF003BFF00FFFFFF
(1547753929.896435) can0 0DEF0603#0101FFFFFFFFFFF5
(1547753929.897658) can0 04EF0006#641515F00419930E
(1547753929.900686) can0 0CF00400#F0FF9D201CFFFFFF
(1547753929.910688) can0 0CF00300#FF0023FF06FFFFFF
(1547753929.911283) can0 0CEFFF00#64062C7DFFFFFFFF
(1547753929.916411) can0 0DEF0603#0101FFFFFFFFFFF5
(1547753929.917634) can0 04EF0006#641516F00B19930E
(1547753929.918185) can0 18FEF147#FF0000FFFFFFFFFF
(1547753929.918785) can0 18F00647#FFCFFFFFFFFFFFFF
(1547753929.919384) can0 18F00503#7DFFFFFFFFFFFFFF
(1547753929.920685) can0 0CF00400#F0FF9C2A1CFFFFFF
(1547753929.930692) can0 0CF00300#FF0023FF06FFFFFF
(1547753929.931266) can0 0CEFFF00#64062B7DFFFFFFFF
(1547753929.936016) can0 0DEF0647#0104FFFFFFFFFFF1
(1547753929.936615) can0 0DEF0603#0101FFFFFFFFFFF5
(1547753929.937790) can0 04EF0006#641517F01119930E
(1547753929.940715) can0 0CF00400#F0FF9C201CFFFFFF
(1547753929.941292) can0 18FFFA00#022C0000180C0081
(1547753929.950794) can0 0CF00300#FF0023FF06FFFFFF
(1547753929.951391) can0 0CEFFF00#64062C7DFFFFFFFF
(1547753929.951965) can0 18FEF200#2100FFFFFFFFFFFF
(1547753929.956467) can0 0DEF0603#0101FFFFFFFFFFF5
(1547753929.957693) can0 04EF0006#641518F00B19930E
(1547753929.958242) can0 0CFE4947#FFFFFFFFFFFFFFFF
(1547753929.958840) can0 0CFE4347#0000FFFF3FFFFFFF
(1547753929.959442) can0 0CFE4447#0000FFFF3FFFFFFF
(1547753929.960717) can0 0CF00400#F0FF9C1E1CFFFFFF
(1547753929.970694) can0 0CF00300#FF0023FF06FFFFFF
(1547753929.971266) can0 0CEFFF00#64062D7DFFFFFFFF
(1547753929.971841) can0 18EF0600#640E3D00FFFFFFFF
(1547753929.972416) can0 18FEF500#C8FFFFFFFF39FFFF
(1547753929.976449) can0 0DEF0603#0101FFFFFFFFFFF5
(1547753929.977716) can0 04EF0006#641519F00419930E
(1547753929.980673) can0 0CF00400#F0FF9C201CFFFFFF
(1547753929.990691) can0 0CF00300#FF0023FF06FFFFFF
(1547753929.991261) can0 0CEFFF00#64062C7DFFFFFFFF
(1547753929.991838) can0 18EFFF00#64100101D202057D
(1547753929.996414) can0 0DEF0603#0101FFFFFFFFFFF5
(1547753929.997638) can0 04EF0006#64151AF00B19930E
(1547753929.998188) can0 0CFFFE06#5C271D271DFFFFFF
(1547753929.998763) can0 18FEF147#FF0000FFFFFFFFFF
(1547753929.999363) can0 18F00503#7DFFFFFFFFFFFFFF
(1547753930.000813) can0 0CF00400#F0FF9C1A1CFFFFFF
(1547753930.010642) can0 0CF00300#FF0024FF06FFFFFF
(1547753930.011212) can0 0CEFFF00#64062E7DFFFFFFFF
(1547753930.011764) can0 18FE6900#8A245027FFFF60FE
(1547753930.016442) can0 0DEF0603#0101FFFFFFFFFFF5
(1547753930.017664) can0 04EF0006#64151BF00419930E
(1547753930.020641) can0 0CF00400#F0FF9D1C1CFFFFFF
